Time [s],Packet ID,MOSI,MISO
1.415875360000000,0,0x03,0xFF
1.415972640000000,0,0x00,0xFF
1.416070080000000,0,0x00,0xFF
1.416167520000000,0,0x00,0xFF
1.416264960000000,0,0x00,0x01
1.416370080000000,0,0x03,0xFF
1.416467520000000,0,0x00,0xFF
1.416564960000000,0,0x00,0xFF
1.416662400000000,0,0x00,0xFF
1.416759840000000,0,0x00,0x01
1.416857120000000,0,0x00,0x50
1.416954560000000,0,0x00,0xB7
1.417052000000000,0,0x00,0xAD
1.417149440000000,0,0x00,0x00
1.417246880000000,0,0x00,0x00
1.417344160000000,0,0x00,0xA0
1.417441600000000,0,0x00,0xFF
1.417553440000000,0,0x03,0xFF
1.417650880000000,0,0x00,0xFF
1.417748320000000,0,0x00,0xFF
1.417845760000000,0,0x08,0xFF
1.417943200000000,0,0x00,0x00
1.418040480000000,0,0x00,0x00
1.418137920000000,0,0x00,0x00
1.418235360000000,0,0x00,0x00
1.418332800000000,0,0x00,0x84
1.418430240000000,0,0x00,0x90
1.418527680000000,0,0x00,0x00
1.418624960000000,0,0x00,0x00
1.418745920000000,0,0x03,0xFF
1.418843360000000,0,0x00,0xFF
1.418940800000000,0,0x00,0xFF
1.419038240000000,0,0x10,0xFF
1.419135680000000,0,0x00,0x01
1.419233120000000,0,0x00,0x00
1.419330400000000,0,0x00,0x9D
1.419427840000000,0,0x00,0xAD
1.419525280000000,0,0x00,0x00
1.419622720000000,0,0x00,0x00
1.419720160000000,0,0x00,0x80
1.419817440000000,0,0x00,0xFF
1.419914880000000,0,0x00,0x40
1.420012320000000,0,0x00,0x0E
1.420109760000000,0,0x00,0x00
1.420207200000000,0,0x00,0x00
1.420304640000000,0,0x00,0x00
1.420401920000000,0,0x00,0x00
1.420499360000000,0,0x00,0x00
1.420596800000000,0,0x00,0x00
1.420716640000000,0,0x03,0xFF
1.420814080000000,0,0x00,0xFF
1.420911520000000,0,0x00,0xFF
1.421008800000000,0,0x20,0xFF
1.421106240000000,0,0x00,0xB4
1.421203680000000,0,0x00,0x00
1.421301120000000,0,0x00,0x00
1.421398560000000,0,0x00,0x00
1.421496000000000,0,0x00,0x00
1.421593280000000,0,0x00,0xFF
1.421690720000000,0,0x00,0x00
1.421788160000000,0,0x00,0x0B
1.421885600000000,0,0x00,0x0C
1.421983040000000,0,0x00,0x00
1.422080320000000,0,0x00,0x80
1.422177760000000,0,0x00,0xFF
1.422275200000000,0,0x00,0x00
1.422372640000000,0,0x00,0x00
1.422470080000000,0,0x00,0x00
1.422567520000000,0,0x00,0x00
1.422664800000000,0,0x00,0x00
1.422762240000000,0,0x00,0x00
1.422859680000000,0,0x00,0x00
1.422957120000000,0,0x00,0x00
1.423054560000000,0,0x00,0x00
1.423151840000000,0,0x00,0x80
1.423249280000000,0,0x00,0x00
1.423346720000000,0,0x00,0x02
1.423444160000000,0,0x00,0x00
1.423541600000000,0,0x00,0x00
1.423639040000000,0,0x00,0x00
1.423736320000000,0,0x00,0x00
1.423833760000000,0,0x00,0x01
1.423931200000000,0,0x00,0x00
1.424028640000000,0,0x00,0x00
1.424126080000000,0,0x00,0x00
1.424223360000000,0,0x00,0xBA
1.424320800000000,0,0x00,0x06
1.424418240000000,0,0x00,0xA1
1.424515680000000,0,0x00,0xFF
1.424613120000000,0,0x00,0x1C
1.424710560000000,0,0x00,0x07
1.424807840000000,0,0x00,0xA1
1.424905280000000,0,0x00,0xFF
1.425002720000000,0,0x00,0xA0
1.425100160000000,0,0x00,0x06
1.425197600000000,0,0x00,0xA1
1.425294880000000,0,0x00,0xFF
1.425392320000000,0,0x00,0x48
1.425489760000000,0,0x00,0x08
1.425587200000000,0,0x00,0xA1
1.425684640000000,0,0x00,0xFF
1.425782080000000,0,0x00,0x28
1.425879360000000,0,0x00,0x06
1.425976800000000,0,0x00,0xA1
1.426074240000000,0,0x00,0xFF
1.426171680000000,0,0x00,0x00
1.426269120000000,0,0x00,0x00
1.426366400000000,0,0x00,0x00
1.426463840000000,0,0x00,0x00
1.426561280000000,0,0x00,0x38
1.426658720000000,0,0x00,0x00
1.426756160000000,0,0x00,0x80
1.426853600000000,0,0x00,0xFF
1.426950880000000,0,0x00,0x38
1.427048320000000,0,0x00,0x00
1.427145760000000,0,0x00,0x80
1.427243200000000,0,0x00,0xFF
1.427340640000000,0,0x00,0x40
1.427437920000000,0,0x00,0x00
1.427535360000000,0,0x00,0x80
1.427632800000000,0,0x00,0xFF
1.427730240000000,0,0x00,0x40
1.427827680000000,0,0x00,0x00
1.427925120000000,0,0x00,0x80
1.428022400000000,0,0x00,0xFF
1.428119840000000,0,0x00,0x48
1.428217280000000,0,0x00,0x00
1.428314720000000,0,0x00,0x80
1.428412160000000,0,0x00,0xFF
1.428509600000000,0,0x00,0x48
1.428606880000000,0,0x00,0x00
1.428704320000000,0,0x00,0x80
1.428801760000000,0,0x00,0xFF
1.428899200000000,0,0x00,0x50
1.428996640000000,0,0x00,0x00
1.429093920000000,0,0x00,0x80
1.429191360000000,0,0x00,0xFF
1.429288800000000,0,0x00,0x50
1.429386240000000,0,0x00,0x00
1.429483680000000,0,0x00,0x80
1.429581120000000,0,0x00,0xFF
1.429678400000000,0,0x00,0x58
1.429775840000000,0,0x00,0x00
1.429873280000000,0,0x00,0x80
1.429970720000000,0,0x00,0xFF
1.430068160000000,0,0x00,0x58
1.430165440000000,0,0x00,0x00
1.430262880000000,0,0x00,0x80
1.430360320000000,0,0x00,0xFF
1.430457760000000,0,0x00,0x60
1.430555200000000,0,0x00,0x00
1.430652640000000,0,0x00,0x80
1.430749920000000,0,0x00,0xFF
1.430847360000000,0,0x00,0x60
1.430944800000000,0,0x00,0x00
1.431042240000000,0,0x00,0x80
1.431139680000000,0,0x00,0xFF
1.431236960000000,0,0x00,0x68
1.431334400000000,0,0x00,0x00
1.431431840000000,0,0x00,0x80
1.431529280000000,0,0x00,0xFF
1.431626720000000,0,0x00,0x68
1.431724160000000,0,0x00,0x00
1.431821440000000,0,0x00,0x80
1.431918880000000,0,0x00,0xFF
1.432016320000000,0,0x00,0x70
1.432113760000000,0,0x00,0x00
1.432211200000000,0,0x00,0x80
1.432308480000000,0,0x00,0xFF
1.432405920000000,0,0x00,0x70
1.432503360000000,0,0x00,0x00
1.432600800000000,0,0x00,0x80
1.432698240000000,0,0x00,0xFF
1.432795680000000,0,0x00,0x78
1.432892960000000,0,0x00,0x00
1.432990400000000,0,0x00,0x80
1.433087840000000,0,0x00,0xFF
1.433185280000000,0,0x00,0x78
1.433282720000000,0,0x00,0x00
1.433380000000000,0,0x00,0x80
1.433477440000000,0,0x00,0xFF
1.433574880000000,0,0x00,0x80
1.433672320000000,0,0x00,0x00
1.433769760000000,0,0x00,0x80
1.433867200000000,0,0x00,0xFF
1.433964480000000,0,0x00,0x80
1.434061920000000,0,0x00,0x00
1.434159360000000,0,0x00,0x80
1.434256800000000,0,0x00,0xFF
1.434354240000000,0,0x00,0x88
1.434451520000000,0,0x00,0x00
1.434548960000000,0,0x00,0x80
1.434646400000000,0,0x00,0xFF
1.434743840000000,0,0x00,0x88
1.434841280000000,0,0x00,0x00
1.434938720000000,0,0x00,0x80
1.435036000000000,0,0x00,0xFF
1.435133440000000,0,0x00,0x90
1.435230880000000,0,0x00,0x00
1.435328320000000,0,0x00,0x80
1.435425760000000,0,0x00,0xFF
1.435523040000000,0,0x00,0x90
1.435620480000000,0,0x00,0x00
1.435717920000000,0,0x00,0x80
1.435815360000000,0,0x00,0xFF
1.435912800000000,0,0x00,0x98
1.436010240000000,0,0x00,0x00
1.436107520000000,0,0x00,0x80
1.436204960000000,0,0x00,0xFF
1.436302400000000,0,0x00,0x98
1.436399840000000,0,0x00,0x00
1.436497280000000,0,0x00,0x80
1.436594560000000,0,0x00,0xFF
1.436692000000000,0,0x00,0xA0
1.436789440000000,0,0x00,0x00
1.436886880000000,0,0x00,0x80
1.436984320000000,0,0x00,0xFF
1.437081760000000,0,0x00,0xA0
1.437179040000000,0,0x00,0x00
1.437276480000000,0,0x00,0x80
1.437373920000000,0,0x00,0xFF
1.437471360000000,0,0x00,0xA8
1.437568800000000,0,0x00,0x00
1.437666080000000,0,0x00,0x80
1.437763520000000,0,0x00,0xFF
1.437860960000000,0,0x00,0xA8
1.437958400000000,0,0x00,0x00
1.438055840000000,0,0x00,0x80
1.438153280000000,0,0x00,0xFF
1.438250560000000,0,0x00,0xB0
1.438348000000000,0,0x00,0x00
1.438445440000000,0,0x00,0x80
1.438542880000000,0,0x00,0xFF
1.438640320000000,0,0x00,0xB0
1.438737600000000,0,0x00,0x00
1.438835040000000,0,0x00,0x80
1.438932480000000,0,0x00,0xFF
1.439029920000000,0,0x00,0xB8
1.439127360000000,0,0x00,0x00
1.439224800000000,0,0x00,0x80
1.439322080000000,0,0x00,0xFF
1.439419520000000,0,0x00,0xB8
1.439516960000000,0,0x00,0x00
1.439614400000000,0,0x00,0x80
1.439711840000000,0,0x00,0xFF
1.439809280000000,0,0x00,0xC0
1.439906560000000,0,0x00,0x00
1.440004000000000,0,0x00,0x80
1.440101440000000,0,0x00,0xFF
1.440198880000000,0,0x00,0xC0
1.440296320000000,0,0x00,0x00
1.440393600000000,0,0x00,0x80
1.440491040000000,0,0x00,0xFF
1.440588480000000,0,0x00,0xC8
1.440685920000000,0,0x00,0x00
1.440783360000000,0,0x00,0x80
1.440880800000000,0,0x00,0xFF
1.440978080000000,0,0x00,0xC8
1.441075520000000,0,0x00,0x00
1.441172960000000,0,0x00,0x80
1.441270400000000,0,0x00,0xFF
1.441367840000000,0,0x00,0xD0
1.441465120000000,0,0x00,0x00
1.441562560000000,0,0x00,0x80
1.441660000000000,0,0x00,0xFF
1.441757440000000,0,0x00,0xD0
1.441854880000000,0,0x00,0x00
1.441952320000000,0,0x00,0x80
1.442049600000000,0,0x00,0xFF
1.442147040000000,0,0x00,0xD8
1.442244480000000,0,0x00,0x00
1.442341920000000,0,0x00,0x80
1.442439360000000,0,0x00,0xFF
1.442536640000000,0,0x00,0xD8
1.442634080000000,0,0x00,0x00
1.442731520000000,0,0x00,0x80
1.442828960000000,0,0x00,0xFF
1.442926400000000,0,0x00,0xE0
1.443023840000000,0,0x00,0x00
1.443121120000000,0,0x00,0x80
1.443218560000000,0,0x00,0xFF
1.443316000000000,0,0x00,0xE0
1.443413440000000,0,0x00,0x00
1.443510880000000,0,0x00,0x80
1.443608160000000,0,0x00,0xFF
1.443705600000000,0,0x00,0xE8
1.443803040000000,0,0x00,0x00
1.443900480000000,0,0x00,0x80
1.443997920000000,0,0x00,0xFF
1.444095360000000,0,0x00,0xE8
1.444192640000000,0,0x00,0x00
1.444290080000000,0,0x00,0x80
1.444387520000000,0,0x00,0xFF
1.444484960000000,0,0x00,0xF0
1.444582400000000,0,0x00,0x00
1.444679680000000,0,0x00,0x80
1.444777120000000,0,0x00,0xFF
1.444874560000000,0,0x00,0xF0
1.444972000000000,0,0x00,0x00
1.445069440000000,0,0x00,0x80
1.445166880000000,0,0x00,0xFF
1.445264160000000,0,0x00,0xF8
1.445361600000000,0,0x00,0x00
1.445459040000000,0,0x00,0x80
1.445556480000000,0,0x00,0xFF
1.445653920000000,0,0x00,0xF8
1.445751200000000,0,0x00,0x00
1.445848640000000,0,0x00,0x80
1.445946080000000,0,0x00,0xFF
1.446043520000000,0,0x00,0x00
1.446140960000000,0,0x00,0x01
1.446238400000000,0,0x00,0x80
1.446335680000000,0,0x00,0xFF
1.446411520000000,0,0x00,0x80
1.446508960000000,0,0x00,0x00
1.446606400000000,0,0x00,0xC0
1.446703680000000,0,0x00,0x7F
1.446801120000000,0,0x00,0x84
1.446898560000000,0,0x00,0x00
1.446996000000000,0,0x00,0xC0
1.447093440000000,0,0x00,0x7F
1.447190720000000,0,0x00,0x84
1.447288160000000,0,0x00,0x00
1.447385600000000,0,0x00,0xC0
1.447483040000000,0,0x00,0x7F
1.447580480000000,0,0x00,0x88
1.447677920000000,0,0x00,0x00
1.447775200000000,0,0x00,0xC0
1.447872640000000,0,0x00,0x7F
1.447970080000000,0,0x00,0x88
1.448067520000000,0,0x00,0x00
1.448164960000000,0,0x00,0xC0
1.448262240000000,0,0x00,0x7F
1.448359680000000,0,0x00,0x8C
1.448457120000000,0,0x00,0x00
1.448554560000000,0,0x00,0xC0
1.448652000000000,0,0x00,0x7F
1.448749440000000,0,0x00,0x8C
1.448846720000000,0,0x00,0x00
1.448944160000000,0,0x00,0xC0
1.449041600000000,0,0x00,0x7F
1.449139040000000,0,0x00,0x90
1.449236480000000,0,0x00,0x00
1.449333760000000,0,0x00,0xC0
1.449431200000000,0,0x00,0x7F
1.449528640000000,0,0x00,0x90
1.449626080000000,0,0x00,0x00
1.449723520000000,0,0x00,0xC0
1.449820960000000,0,0x00,0x7F
1.449918240000000,0,0x00,0x94
1.450015680000000,0,0x00,0x00
1.450113120000000,0,0x00,0xC0
1.450210560000000,0,0x00,0x7F
1.450308000000000,0,0x00,0x94
1.450405280000000,0,0x00,0x00
1.450502720000000,0,0x00,0xC0
1.450600160000000,0,0x00,0x7F
1.450697600000000,0,0x00,0x98
1.450795040000000,0,0x00,0x00
1.450892480000000,0,0x00,0xC0
1.450989760000000,0,0x00,0x7F
1.451087200000000,0,0x00,0x98
1.451184640000000,0,0x00,0x00
1.451282080000000,0,0x00,0xC0
1.451379520000000,0,0x00,0x7F
1.451476800000000,0,0x00,0xE4
1.451574240000000,0,0x00,0x03
1.451671680000000,0,0x00,0xD8
1.451769120000000,0,0x00,0x7F
1.451866560000000,0,0x00,0x80
1.451964000000000,0,0x00,0x00
1.452061280000000,0,0x00,0x00
1.452158720000000,0,0x00,0x00
1.452256160000000,0,0x00,0x00
1.452353600000000,0,0x00,0x00
1.452451040000000,0,0x00,0x00
1.452548320000000,0,0x00,0x00
1.452645760000000,0,0x00,0x26
1.452743200000000,0,0x00,0x04
1.452840640000000,0,0x00,0xD0
1.452938080000000,0,0x00,0xFF
1.453035520000000,0,0x00,0x80
1.453132800000000,0,0x00,0x7F
1.453230240000000,0,0x00,0x80
1.453327680000000,0,0x00,0x05
1.453425120000000,0,0x00,0xA6
1.453522560000000,0,0x00,0x00
1.453620000000000,0,0x00,0xC0
1.453717280000000,0,0x00,0x7F
1.453814720000000,0,0x00,0xA6
1.453912160000000,0,0x00,0x00
1.454009600000000,0,0x00,0xC0
1.454107040000000,0,0x00,0x7F
1.454204320000000,0,0x00,0x80
1.454301760000000,0,0x00,0x00
1.454399200000000,0,0x00,0x00
1.454496640000000,0,0x00,0x00
1.454594080000000,0,0x00,0x00
1.454691520000000,0,0x00,0x00
1.454788800000000,0,0x00,0x00
1.454886240000000,0,0x00,0x00
1.454983680000000,0,0x00,0x00
1.455081120000000,0,0x00,0x00
1.455178560000000,0,0x00,0x00
1.455275840000000,0,0x00,0x00
1.455373280000000,0,0x00,0x00
1.455470720000000,0,0x00,0x00
1.455568160000000,0,0x00,0x00
1.455665600000000,0,0x00,0x00
1.455763040000000,0,0x00,0x00
1.455860320000000,0,0x00,0x00
1.455957760000000,0,0x00,0x78
1.456055200000000,0,0x00,0x1F
1.456152640000000,0,0x00,0x80
1.456250080000000,0,0x00,0x00
1.456347360000000,0,0x00,0x00
1.456444800000000,0,0x00,0x00
1.456542240000000,0,0x00,0x00
1.456639680000000,0,0x00,0x00
1.456737120000000,0,0x00,0x70
1.456834560000000,0,0x00,0x1F
1.456931840000000,0,0x00,0x80
1.457029280000000,0,0x00,0x00
1.457126720000000,0,0x00,0x00
1.457224160000000,0,0x00,0x00
1.457321600000000,0,0x00,0x00
1.457418880000000,0,0x00,0x00
1.457516320000000,0,0x00,0x00
1.457613760000000,0,0x00,0x60
1.457711200000000,0,0x00,0x00
1.457808640000000,0,0x00,0x00
1.457906080000000,0,0x00,0x00
1.458003360000000,0,0x00,0x00
1.458100800000000,0,0x00,0x00
1.458198240000000,0,0x00,0x00
1.458295680000000,0,0x00,0x70
1.458393120000000,0,0x00,0x1F
1.458490400000000,0,0x00,0x80
1.458587840000000,0,0x00,0x00
1.458685280000000,0,0x00,0x00
1.458782720000000,0,0x00,0x00
1.458880160000000,0,0x00,0x00
1.458977600000000,0,0x00,0x00
1.459074880000000,0,0x00,0x78
1.459172320000000,0,0x00,0x1F
1.459269760000000,0,0x00,0xE2
1.459367200000000,0,0x00,0x01
1.459464640000000,0,0x00,0x00
1.459561920000000,0,0x00,0x00
1.459659360000000,0,0x00,0x00
1.459756800000000,0,0x00,0x00
1.459854240000000,0,0x00,0x28
1.459951680000000,0,0x00,0x1F
1.460049120000000,0,0x00,0x0C
1.460146400000000,0,0x00,0x16
1.460243840000000,0,0x00,0xA2
1.460341280000000,0,0x00,0x2A
1.460438720000000,0,0x00,0x7D
1.460536160000000,0,0x00,0x90
1.460633440000000,0,0x00,0xF4
1.460730880000000,0,0x00,0x9F
1.460828320000000,0,0x00,0x8C
1.460925760000000,0,0x00,0x16
1.461023200000000,0,0x00,0xA2
1.461120640000000,0,0x00,0x2A
1.461217920000000,0,0x00,0x7D
1.461315360000000,0,0x00,0x90
1.461412800000000,0,0x00,0xF4
1.461510240000000,0,0x00,0x9F
1.461607680000000,0,0x00,0x8C
1.461704960000000,0,0x00,0x16
1.461802400000000,0,0x00,0xA2
1.461899840000000,0,0x00,0x2A
1.461997280000000,0,0x00,0x7D
1.462094720000000,0,0x00,0x90
1.462192160000000,0,0x00,0xF4
1.462289440000000,0,0x00,0x9F
1.462386880000000,0,0x00,0xB2
1.462484320000000,0,0x00,0x8F
1.462581760000000,0,0x00,0x73
1.462679200000000,0,0x00,0x5A
1.462776480000000,0,0x00,0xDE
1.462873920000000,0,0x00,0xA5
1.462971360000000,0,0x00,0xF3
1.463064640000000,0,0x00,0x2F
1.463155360000000,0,0x00,0xC9
1.463252800000000,0,0x00,0xCE
1.463350240000000,0,0x00,0x7B
1.463447680000000,0,0x00,0x19
1.463544960000000,0,0x00,0x05
1.463642400000000,0,0x00,0xD3
1.463739840000000,0,0x00,0x89
1.463837280000000,0,0x00,0x10
1.463934720000000,0,0x00,0x27
1.464032000000000,0,0x00,0xF6
1.464129440000000,0,0x00,0xA9
1.464226880000000,0,0x00,0xAA
1.464324320000000,0,0x00,0x4B
1.464421760000000,0,0x00,0x36
1.464519200000000,0,0x00,0x10
1.464616480000000,0,0x00,0xF0
1.464713920000000,0,0x00,0x22
1.464811360000000,0,0x00,0xB5
1.464908800000000,0,0x00,0x02
1.465006240000000,0,0x00,0x8D
1.465103680000000,0,0x00,0xA9
1.465200960000000,0,0x00,0xE6
1.465298400000000,0,0x00,0x93
1.465395840000000,0,0x00,0x10
1.465493280000000,0,0x00,0x18
1.465590720000000,0,0x00,0x82
1.465688000000000,0,0x00,0x8E
1.465785440000000,0,0x00,0xAA
1.465882880000000,0,0x00,0x15
1.465980320000000,0,0x00,0x57
1.466077760000000,0,0x00,0x8E
1.466175200000000,0,0x00,0xF0
1.466272480000000,0,0x00,0x07
1.466369920000000,0,0x00,0xE1
1.466467360000000,0,0x00,0xBE
1.466564800000000,0,0x00,0x5B
1.466662240000000,0,0x00,0xBA
1.466759520000000,0,0x00,0x34
1.466856960000000,0,0x00,0x8D
1.466954400000000,0,0x00,0xF0
1.467051840000000,0,0x00,0x1C
1.467149280000000,0,0x00,0x07
1.467246720000000,0,0x00,0x16
1.467344000000000,0,0x00,0x65
1.467441440000000,0,0x00,0x9F
1.467538880000000,0,0x00,0x37
1.467636320000000,0,0x00,0x98
1.467733760000000,0,0x00,0x90
1.467831040000000,0,0x00,0x12
1.467928480000000,0,0x00,0x2A
1.468025920000000,0,0x00,0x15
1.468123360000000,0,0x00,0xBF
1.468220800000000,0,0x00,0x33
1.468318240000000,0,0x00,0xB7
1.468415520000000,0,0x00,0x5D
1.468512960000000,0,0x00,0xF0
1.468610400000000,0,0x00,0x10
1.468707840000000,0,0x00,0xEE
1.468805280000000,0,0x00,0x07
1.468902560000000,0,0x00,0x84
1.469000000000000,0,0x00,0x13
1.469097440000000,0,0x00,0xC4
1.469194880000000,0,0x00,0x9E
1.469292320000000,0,0x00,0x90
1.469389760000000,0,0x00,0x33
1.469487040000000,0,0x00,0x21
1.469584480000000,0,0x00,0xCA
1.469681920000000,0,0x00,0xCF
1.469779360000000,0,0x00,0xB0
1.469876800000000,0,0x00,0x21
1.469974080000000,0,0x00,0x99
1.470071520000000,0,0x00,0x30
1.470168960000000,0,0x00,0x06
1.470266400000000,0,0x00,0x0B
1.470363840000000,0,0x00,0x51
1.470461280000000,0,0x00,0x15
1.470558560000000,0,0x00,0x3E
1.470656000000000,0,0x00,0xC8
1.470753440000000,0,0x00,0x7E
1.470850880000000,0,0x00,0x4F
1.470948320000000,0,0x00,0xC6
1.471045600000000,0,0x00,0x0B
1.471143040000000,0,0x00,0x51
1.471240480000000,0,0x00,0x15
1.471337920000000,0,0x00,0x3E
1.471435360000000,0,0x00,0xC8
1.471532800000000,0,0x00,0x7E
1.471630080000000,0,0x00,0x4F
1.471727520000000,0,0x00,0xC6
1.471824960000000,0,0x00,0x0B
1.471922400000000,0,0x00,0x51
1.472019840000000,0,0x00,0x15
1.472117120000000,0,0x00,0x3E
1.472214560000000,0,0x00,0xC8
1.472312000000000,0,0x00,0x7A
1.472409440000000,0,0x00,0x4F
1.472506880000000,0,0x00,0xC6
1.472604320000000,0,0x00,0x0B
1.472701600000000,0,0x00,0x51
1.472799040000000,0,0x00,0x15
1.472896480000000,0,0x00,0x3E
1.472993920000000,0,0x00,0xC8
1.473091360000000,0,0x00,0x7A
1.473188640000000,0,0x00,0x4F
1.473286080000000,0,0x00,0xC6
1.473383520000000,0,0x00,0x0B
1.473480960000000,0,0x00,0x51
1.473578400000000,0,0x00,0x15
1.473675840000000,0,0x00,0x3E
1.473773120000000,0,0x00,0xC8
1.473870560000000,0,0x00,0x7A
1.473968000000000,0,0x00,0x4F
1.474065440000000,0,0x00,0xC6
1.474162880000000,0,0x00,0x0B
1.474260160000000,0,0x00,0x51
1.474357600000000,0,0x00,0x15
1.474455040000000,0,0x00,0x3E
1.474552480000000,0,0x00,0xC8
1.474649920000000,0,0x00,0x7A
1.474747360000000,0,0x00,0x4F
1.474844640000000,0,0x00,0xC5
1.474942080000000,0,0x00,0x95
1.475039520000000,0,0x00,0x6D
1.475136960000000,0,0x00,0x6E
1.475234400000000,0,0x00,0xEC
1.475331680000000,0,0x00,0x5A
1.475429120000000,0,0x00,0xC0
1.475526560000000,0,0x00,0x90
1.475624000000000,0,0x00,0x00
1.475721440000000,0,0x00,0x00
1.475818880000000,0,0x00,0x00
1.475916160000000,0,0x00,0x00
1.476013600000000,0,0x00,0x00
1.476111040000000,0,0x00,0x00
1.476208480000000,0,0x00,0x38
1.476305920000000,0,0x00,0x0F
1.476403360000000,0,0x00,0xC0
1.476500640000000,0,0x00,0x00
1.476598080000000,0,0x00,0x00
1.476695520000000,0,0x00,0x00
1.476792960000000,0,0x00,0x00
1.476890400000000,0,0x00,0x00
1.476987680000000,0,0x00,0x38
1.477085120000000,0,0x00,0x0F
1.477182560000000,0,0x00,0xC0
1.477280000000000,0,0x00,0x00
1.477377440000000,0,0x00,0x00
1.477474880000000,0,0x00,0x00
1.477572160000000,0,0x00,0x00
1.477669600000000,0,0x00,0x00
1.477767040000000,0,0x00,0x00
1.477864480000000,0,0x00,0x30
1.477961920000000,0,0x00,0x00
1.478059200000000,0,0x00,0x00
1.478156640000000,0,0x00,0x00
1.478254080000000,0,0x00,0x00
1.478351520000000,0,0x00,0x00
1.478448960000000,0,0x00,0x00
1.478546400000000,0,0x00,0x38
1.478643680000000,0,0x00,0x0F
1.478741120000000,0,0x00,0xC0
1.478838560000000,0,0x00,0x00
1.478936000000000,0,0x00,0x00
1.479033440000000,0,0x00,0x00
1.479130720000000,0,0x00,0x00
1.479228160000000,0,0x00,0x00
1.479325600000000,0,0x00,0x3C
1.479423040000000,0,0x00,0x0F
1.479520480000000,0,0x00,0xF1
1.479617920000000,0,0x00,0x00
1.479715200000000,0,0x00,0x80
1.479812640000000,0,0x00,0x00
1.479910080000000,0,0x00,0x00
1.480007520000000,0,0x00,0x00
1.480104960000000,0,0x00,0x14
1.480202240000000,0,0x00,0x0F
1.480299680000000,0,0x00,0x99
1.480397120000000,0,0x00,0x47
1.480494560000000,0,0x00,0xB9
1.480592000000000,0,0x00,0xAD
1.480689440000000,0,0x00,0x6F
1.480786720000000,0,0x00,0x52
1.480884160000000,0,0x00,0xF9
1.480981600000000,0,0x00,0xAF
1.481079040000000,0,0x00,0xC9
1.481176480000000,0,0x00,0xCE
1.481273760000000,0,0x00,0x7B
1.481371200000000,0,0x00,0x19
1.481468640000000,0,0x00,0x05
1.481566080000000,0,0x00,0xD3
1.481663520000000,0,0x00,0x89
1.481760960000000,0,0x00,0x10
1.481858240000000,0,0x00,0x27
1.481955680000000,0,0x00,0xF6
1.482053120000000,0,0x00,0xA9
1.482150560000000,0,0x00,0xAA
1.482248000000000,0,0x00,0x4B
1.482345280000000,0,0x00,0x36
1.482442720000000,0,0x00,0x10
1.482540160000000,0,0x00,0xF0
1.482637600000000,0,0x00,0x22
1.482735040000000,0,0x00,0xB5
1.482832480000000,0,0x00,0x02
1.482929760000000,0,0x00,0x8D
1.483027200000000,0,0x00,0xA9
1.483124640000000,0,0x00,0xE6
1.483222080000000,0,0x00,0x93
1.483319520000000,0,0x00,0x10
1.483416800000000,0,0x00,0x18
1.483514240000000,0,0x00,0x82
1.483611680000000,0,0x00,0x8E
1.483709120000000,0,0x00,0xAA
1.483806560000000,0,0x00,0x15
1.483904000000000,0,0x00,0x57
1.484001280000000,0,0x00,0x8E
1.484098720000000,0,0x00,0xF0
1.484196160000000,0,0x00,0x07
1.484293600000000,0,0x00,0xE1
1.484391040000000,0,0x00,0xBE
1.484488320000000,0,0x00,0x5B
1.484585760000000,0,0x00,0xBA
1.484683200000000,0,0x00,0x34
1.484780640000000,0,0x00,0x8D
1.484878080000000,0,0x00,0xF0
1.484975520000000,0,0x00,0x1C
1.485072800000000,0,0x00,0x07
1.485170240000000,0,0x00,0x16
1.485267680000000,0,0x00,0x65
1.485365120000000,0,0x00,0x9F
1.485462560000000,0,0x00,0x37
1.485559840000000,0,0x00,0x98
1.485657280000000,0,0x00,0x90
1.485754720000000,0,0x00,0x12
1.485852160000000,0,0x00,0x2A
1.485949600000000,0,0x00,0x15
1.486047040000000,0,0x00,0xBF
1.486144320000000,0,0x00,0x33
1.486241760000000,0,0x00,0xB7
1.486339200000000,0,0x00,0x5D
1.486436640000000,0,0x00,0xF0
1.486534080000000,0,0x00,0x10
1.486631520000000,0,0x00,0xEE
1.486728800000000,0,0x00,0x07
1.486826240000000,0,0x00,0x84
1.486923680000000,0,0x00,0x13
1.487021120000000,0,0x00,0xC4
1.487118560000000,0,0x00,0x9E
1.487215840000000,0,0x00,0x90
1.487313280000000,0,0x00,0x33
1.487410720000000,0,0x00,0x21
1.487508160000000,0,0x00,0xCA
1.487605600000000,0,0x00,0xCF
1.487703040000000,0,0x00,0xB0
1.487800320000000,0,0x00,0x21
1.487897760000000,0,0x00,0x99
1.487995200000000,0,0x00,0x30
1.488092640000000,0,0x00,0x06
1.488190080000000,0,0x00,0x0B
1.488287360000000,0,0x00,0x51
1.488384800000000,0,0x00,0x15
1.488482240000000,0,0x00,0x3E
1.488579680000000,0,0x00,0xC8
1.488677120000000,0,0x00,0x7A
1.488774560000000,0,0x00,0x4F
1.488871840000000,0,0x00,0xC6
1.488969280000000,0,0x00,0x0B
1.489066720000000,0,0x00,0x51
1.489164160000000,0,0x00,0x15
1.489261600000000,0,0x00,0x3E
1.489358880000000,0,0x00,0xC8
1.489456320000000,0,0x00,0x7A
1.489553760000000,0,0x00,0x4F
1.489651200000000,0,0x00,0xC0
1.489748640000000,0,0x00,0x00
1.489846080000000,0,0x00,0x00
1.489943360000000,0,0x00,0x00
1.490040800000000,0,0x00,0x00
1.490138240000000,0,0x00,0x00
1.490235680000000,0,0x00,0x3C
1.490333120000000,0,0x00,0x2F
1.490430400000000,0,0x00,0xC0
1.490527840000000,0,0x00,0x00
1.490625280000000,0,0x00,0x00
1.490722720000000,0,0x00,0x00
1.490820160000000,0,0x00,0x00
1.490917600000000,0,0x00,0x00
1.491014880000000,0,0x00,0x3C
1.491112320000000,0,0x00,0x0F
1.491209760000000,0,0x00,0xC0
1.491307200000000,0,0x00,0x00
1.491404640000000,0,0x00,0x00
1.491501920000000,0,0x00,0x00
1.491599360000000,0,0x00,0x24
1.491696800000000,0,0x00,0x82
1.491794240000000,0,0x00,0x81
1.491891680000000,0,0x00,0x8F
1.491989120000000,0,0x00,0xF6
1.492086400000000,0,0x00,0xC3
1.492183840000000,0,0x00,0xF2
1.492281280000000,0,0x00,0x4F
1.492378720000000,0,0x00,0xE4
1.492476160000000,0,0x00,0x82
1.492573440000000,0,0x00,0xA1
1.492670880000000,0,0x00,0x8F
1.492768320000000,0,0x00,0xD5
1.492865760000000,0,0x00,0xB3
1.492963200000000,0,0x00,0x67
1.493060640000000,0,0x00,0x97
1.493157920000000,0,0x00,0x85
1.493255360000000,0,0x00,0x09
1.493352800000000,0,0x00,0xB4
1.493450240000000,0,0x00,0x4F
1.493547680000000,0,0x00,0xF1
1.493644960000000,0,0x00,0x00
1.493742400000000,0,0x00,0x80
1.493839840000000,0,0x00,0x00
1.493937280000000,0,0x00,0x00
1.494034720000000,0,0x00,0x00
1.494132160000000,0,0x00,0x14
1.494229440000000,0,0x00,0x0F
1.494326880000000,0,0x00,0x86
1.494424320000000,0,0x00,0x0B
1.494521760000000,0,0x00,0x51
1.494619200000000,0,0x00,0x15
1.494716480000000,0,0x00,0x3E
1.494813920000000,0,0x00,0xC8
1.494911360000000,0,0x00,0x42
1.495008800000000,0,0x00,0x50
1.495106240000000,0,0x00,0x2F
1.495203680000000,0,0x00,0x61
1.495300960000000,0,0x00,0xEC
1.495398400000000,0,0x00,0x76
1.495495840000000,0,0x00,0x5E
1.495593280000000,0,0x00,0xB3
1.495690720000000,0,0x00,0x7A
1.495788000000000,0,0x00,0xAF
1.495885440000000,0,0x00,0xD8
1.495982880000000,0,0x00,0xDA
1.496080320000000,0,0x00,0xA3
1.496177760000000,0,0x00,0x57
1.496275200000000,0,0x00,0x0F
1.496372480000000,0,0x00,0xFF
1.496469920000000,0,0x00,0x48
1.496567360000000,0,0x00,0x30
1.496664800000000,0,0x00,0x32
1.496762240000000,0,0x00,0xEF
1.496859520000000,0,0x00,0x38
1.496956960000000,0,0x00,0xAE
1.497054400000000,0,0x00,0x5F
1.497151840000000,0,0x00,0xE0
1.497249280000000,0,0x00,0x4D
1.497346720000000,0,0x00,0x30
1.497444000000000,0,0x00,0x38
1.497541440000000,0,0x00,0x87
1.497638880000000,0,0x00,0x01
1.497736320000000,0,0x00,0x94
1.497833760000000,0,0x00,0x69
1.497931200000000,0,0x00,0x98
1.498028480000000,0,0x00,0x0A
1.498125920000000,0,0x00,0xF0
1.498223360000000,0,0x00,0x04
1.498320800000000,0,0x00,0x31
1.498418240000000,0,0x00,0xD2
1.498515520000000,0,0x00,0xB8
1.498612960000000,0,0x00,0x52
1.498710400000000,0,0x00,0x43
1.498807840000000,0,0x00,0x0B
1.498905280000000,0,0x00,0x90
1.499002720000000,0,0x00,0x35
1.499100000000000,0,0x00,0xE8
1.499197440000000,0,0x00,0xC3
1.499294880000000,0,0x00,0x4C
1.499392320000000,0,0x00,0x82
1.499489760000000,0,0x00,0xB2
1.499587040000000,0,0x00,0x93
1.499684480000000,0,0x00,0x50
1.499781920000000,0,0x00,0x29
1.499879360000000,0,0x00,0x5B
1.499976800000000,0,0x00,0x42
1.500074240000000,0,0x00,0xC1
1.500171520000000,0,0x00,0x04
1.500268960000000,0,0x00,0xA2
1.500366400000000,0,0x00,0x95
1.500463840000000,0,0x00,0x50
1.500561280000000,0,0x00,0x2A
1.500658560000000,0,0x00,0x65
1.500756000000000,0,0x00,0x71
1.500853440000000,0,0x00,0x2F
1.500950880000000,0,0x00,0x1F
1.501048320000000,0,0x00,0x22
1.501145760000000,0,0x00,0x11
1.501243040000000,0,0x00,0x10
1.501340480000000,0,0x00,0x15
1.501437920000000,0,0x00,0x66
1.501535360000000,0,0x00,0x6C
1.501632800000000,0,0x00,0x34
1.501730080000000,0,0x00,0x3D
1.501827520000000,0,0x00,0x5B
1.501924960000000,0,0x00,0x39
1.502022400000000,0,0x00,0xCF
1.502119840000000,0,0x00,0xC0
1.502217280000000,0,0x00,0x00
1.502314560000000,0,0x00,0x00
1.502412000000000,0,0x00,0x00
1.502509440000000,0,0x00,0x00
1.502606880000000,0,0x00,0x00
1.502704320000000,0,0x00,0x38
1.502801600000000,0,0x00,0x0F
1.502899040000000,0,0x00,0xC0
1.502996480000000,0,0x00,0x00
1.503093920000000,0,0x00,0x00
1.503191360000000,0,0x00,0x00
1.503288800000000,0,0x00,0x00
1.503386080000000,0,0x00,0x00
1.503483520000000,0,0x00,0x38
1.503580960000000,0,0x00,0x0F
1.503678400000000,0,0x00,0xEA
1.503775840000000,0,0x00,0x93
1.503873120000000,0,0x00,0x16
1.503970560000000,0,0x00,0x3A
1.504068000000000,0,0x00,0x1E
1.504165440000000,0,0x00,0xAD
1.504262880000000,0,0x00,0xBE
1.504360320000000,0,0x00,0xCF
1.504457600000000,0,0x00,0xC6
1.504555040000000,0,0x00,0x0B
1.504652480000000,0,0x00,0x51
1.504749920000000,0,0x00,0x15
1.504847360000000,0,0x00,0x3E
1.504944640000000,0,0x00,0xC8
1.505042080000000,0,0x00,0x7E
1.505139520000000,0,0x00,0x4F
1.505236960000000,0,0x00,0xC6
1.505334400000000,0,0x00,0x0B
1.505431840000000,0,0x00,0x51
1.505529120000000,0,0x00,0x15
1.505626560000000,0,0x00,0x3E
1.505724000000000,0,0x00,0xC8
1.505821440000000,0,0x00,0x7E
1.505918880000000,0,0x00,0x6F
1.506016160000000,0,0x00,0xC0
1.506113600000000,0,0x00,0x00
1.506211040000000,0,0x00,0x00
1.506308480000000,0,0x00,0x00
1.506405920000000,0,0x00,0x00
1.506503360000000,0,0x00,0x00
1.506600640000000,0,0x00,0x00
1.506698080000000,0,0x00,0x00
1.506795520000000,0,0x00,0x19
1.506892960000000,0,0x00,0x9C
1.506990400000000,0,0x00,0xCB
1.507087680000000,0,0x00,0x4E
1.507185120000000,0,0x00,0x14
1.507282560000000,0,0x00,0xB0
1.507380000000000,0,0x00,0x78
1.507477440000000,0,0x00,0x0F
1.507574880000000,0,0x00,0xC6
1.507672160000000,0,0x00,0x0B
1.507769600000000,0,0x00,0x51
1.507867040000000,0,0x00,0x15
1.507964480000000,0,0x00,0x3E
1.508061920000000,0,0x00,0xC8
1.508159360000000,0,0x00,0x7E
1.508256640000000,0,0x00,0x4F
1.508354080000000,0,0x00,0xD9
1.508451520000000,0,0x00,0x9C
1.508548960000000,0,0x00,0xCB
1.508646400000000,0,0x00,0x4E
1.508743680000000,0,0x00,0x14
1.508841120000000,0,0x00,0xB0
1.508938560000000,0,0x00,0x7C
1.509036000000000,0,0x00,0x0F
1.509133440000000,0,0x00,0xC0
1.509230880000000,0,0x00,0x00
1.509328160000000,0,0x00,0x00
1.509425600000000,0,0x00,0x00
1.509523040000000,0,0x00,0x24
1.509620480000000,0,0x00,0x82
1.509717920000000,0,0x00,0x81
1.509815200000000,0,0x00,0x8F
1.509912640000000,0,0x00,0xF6
1.510010080000000,0,0x00,0xC3
1.510107520000000,0,0x00,0xF2
1.510204960000000,0,0x00,0x4F
1.510302400000000,0,0x00,0xE4
1.510399680000000,0,0x00,0x82
1.510497120000000,0,0x00,0xA1
1.510594560000000,0,0x00,0x8F
1.510692000000000,0,0x00,0xC0
1.510789440000000,0,0x00,0x00
1.510886720000000,0,0x00,0x00
1.510984160000000,0,0x00,0x00
1.511081600000000,0,0x00,0x00
1.511179040000000,0,0x00,0x00
1.511276480000000,0,0x00,0x3C
1.511373920000000,0,0x00,0x0F
1.511471200000000,0,0x00,0xD5
1.511568640000000,0,0x00,0xB3
1.511666080000000,0,0x00,0x67
1.511763520000000,0,0x00,0x97
1.511860960000000,0,0x00,0x85
1.511958240000000,0,0x00,0x09
1.512055680000000,0,0x00,0xB4
1.512153120000000,0,0x00,0x4F
1.512250560000000,0,0x00,0xF1
1.512348000000000,0,0x00,0x00
1.512445440000000,0,0x00,0x80
1.512542720000000,0,0x00,0x00
1.512640160000000,0,0x00,0x00
1.512737600000000,0,0x00,0x00
1.512835040000000,0,0x00,0x14
1.512932480000000,0,0x00,0x0F
1.513029760000000,0,0x00,0xAF
1.513127200000000,0,0x00,0x61
1.513224640000000,0,0x00,0xEC
1.513322080000000,0,0x00,0x76
1.513419520000000,0,0x00,0x5E
1.513516960000000,0,0x00,0xB3
1.513614240000000,0,0x00,0x7A
1.513711680000000,0,0x00,0xAF
1.513809120000000,0,0x00,0xD8
1.513906560000000,0,0x00,0xDA
1.514004000000000,0,0x00,0xA3
1.514101280000000,0,0x00,0x57
1.514198720000000,0,0x00,0x0F
1.514296160000000,0,0x00,0xFF
1.514393600000000,0,0x00,0x48
1.514491040000000,0,0x00,0x30
1.514588480000000,0,0x00,0x32
1.514685760000000,0,0x00,0xEF
1.514783200000000,0,0x00,0x38
1.514880640000000,0,0x00,0xAE
1.514978080000000,0,0x00,0x5F
1.515075520000000,0,0x00,0xE0
1.515172800000000,0,0x00,0x4D
1.515270240000000,0,0x00,0x30
1.515367680000000,0,0x00,0x38
1.515465120000000,0,0x00,0x87
1.515562560000000,0,0x00,0x01
1.515660000000000,0,0x00,0x94
1.515757280000000,0,0x00,0x69
1.515854720000000,0,0x00,0x98
1.515952160000000,0,0x00,0x0A
1.516049600000000,0,0x00,0xF0
1.516147040000000,0,0x00,0x04
1.516244320000000,0,0x00,0x31
1.516341760000000,0,0x00,0xD2
1.516439200000000,0,0x00,0xB8
1.516536640000000,0,0x00,0x52
1.516634080000000,0,0x00,0x43
1.516731520000000,0,0x00,0x0B
1.516828800000000,0,0x00,0x90
1.516926240000000,0,0x00,0x35
1.517023680000000,0,0x00,0xE8
1.517121120000000,0,0x00,0xC3
1.517218560000000,0,0x00,0x4C
1.517315840000000,0,0x00,0x82
1.517413280000000,0,0x00,0xB2
1.517510720000000,0,0x00,0x93
1.517608160000000,0,0x00,0x50
1.517705600000000,0,0x00,0x29
1.517803040000000,0,0x00,0x5B
1.517900320000000,0,0x00,0x42
1.517997760000000,0,0x00,0xC1
1.518095200000000,0,0x00,0x04
1.518192640000000,0,0x00,0xA2
1.518290080000000,0,0x00,0x95
1.518387360000000,0,0x00,0x50
1.518484800000000,0,0x00,0x2A
1.518582240000000,0,0x00,0x65
1.518679680000000,0,0x00,0x71
1.518777120000000,0,0x00,0x2F
1.518874560000000,0,0x00,0x1F
1.518971840000000,0,0x00,0x22
1.519069280000000,0,0x00,0x11
1.519166720000000,0,0x00,0x10
1.519264160000000,0,0x00,0x15
1.519361600000000,0,0x00,0x66
1.519459040000000,0,0x00,0x6C
1.519556320000000,0,0x00,0x34
1.519653760000000,0,0x00,0x3D
1.519751200000000,0,0x00,0x5B
1.519848640000000,0,0x00,0x39
1.519946080000000,0,0x00,0xCF
1.520043360000000,0,0x00,0xC0
1.520140800000000,0,0x00,0x00
1.520238240000000,0,0x00,0x00
1.520335680000000,0,0x00,0x00
1.520433120000000,0,0x00,0x00
1.520530560000000,0,0x00,0x00
1.520627840000000,0,0x00,0x38
1.520725280000000,0,0x00,0x0F
1.520822720000000,0,0x00,0xC0
1.520920160000000,0,0x00,0x00
1.521017600000000,0,0x00,0x00
1.521114880000000,0,0x00,0x00
1.521212320000000,0,0x00,0x00
1.521309760000000,0,0x00,0x00
1.521407200000000,0,0x00,0x38
1.521504640000000,0,0x00,0x0F
1.521602080000000,0,0x00,0xEA
1.521699360000000,0,0x00,0x93
1.521796800000000,0,0x00,0x16
1.521894240000000,0,0x00,0x3A
1.521991680000000,0,0x00,0x1E
1.522089120000000,0,0x00,0xAD
1.522186400000000,0,0x00,0xBE
1.522283840000000,0,0x00,0xCF
1.522381280000000,0,0x00,0xC0
1.522478720000000,0,0x00,0x00
1.522576160000000,0,0x00,0x00
1.522673600000000,0,0x00,0x00
1.522770880000000,0,0x00,0x00
1.522868320000000,0,0x00,0x00
1.522965760000000,0,0x00,0x3C
1.523063200000000,0,0x00,0x0F
1.523160640000000,0,0x00,0xC0
1.523257920000000,0,0x00,0x00
1.523355360000000,0,0x00,0x00
1.523452800000000,0,0x00,0x00
1.523550240000000,0,0x00,0x00
1.523647680000000,0,0x00,0x00
1.523745120000000,0,0x00,0x00
1.523842400000000,0,0x00,0x00
1.523939840000000,0,0x00,0x19
1.524037280000000,0,0x00,0x9C
1.524134720000000,0,0x00,0xCB
1.524232160000000,0,0x00,0x4E
1.524329440000000,0,0x00,0x14
1.524426880000000,0,0x00,0xB0
1.524524320000000,0,0x00,0x78
1.524621760000000,0,0x00,0x0F
1.524719200000000,0,0x00,0xC6
1.524816640000000,0,0x00,0x0B
1.524913920000000,0,0x00,0x51
1.525011360000000,0,0x00,0x15
1.525108800000000,0,0x00,0x3E
1.525206240000000,0,0x00,0xC8
1.525303680000000,0,0x00,0x7E
1.525400960000000,0,0x00,0x4F
1.525498400000000,0,0x00,0xD9
1.525595840000000,0,0x00,0x9C
1.525693280000000,0,0x00,0xCB
1.525790720000000,0,0x00,0x4E
1.525888160000000,0,0x00,0x14
1.525985440000000,0,0x00,0xB0
1.526082880000000,0,0x00,0x7C
1.526180320000000,0,0x00,0x0F
1.526277760000000,0,0x00,0xC0
1.526375200000000,0,0x00,0x00
1.526472480000000,0,0x00,0x00
1.526569920000000,0,0x00,0x00
1.526667360000000,0,0x00,0x00
1.526764800000000,0,0x00,0x00
1.526862240000000,0,0x00,0x3C
1.526959680000000,0,0x00,0x0F
1.527056960000000,0,0x00,0xC0
1.527154400000000,0,0x00,0x00
1.527251840000000,0,0x00,0x00
1.527349280000000,0,0x00,0x00
1.527446720000000,0,0x00,0x00
1.527544000000000,0,0x00,0x00
1.527641440000000,0,0x00,0x3C
1.527738880000000,0,0x00,0x0F
1.527836320000000,0,0x00,0xC0
1.527933760000000,0,0x00,0x00
1.528031200000000,0,0x00,0x00
1.528128480000000,0,0x00,0x00
1.528225920000000,0,0x00,0x00
1.528323360000000,0,0x00,0x00
1.528420800000000,0,0x00,0x3C
1.528518240000000,0,0x00,0x0F
1.528615520000000,0,0x00,0xC0
1.528712960000000,0,0x00,0x00
1.528810400000000,0,0x00,0x00
1.528907840000000,0,0x00,0x00
1.529005280000000,0,0x00,0x00
1.529102720000000,0,0x00,0x00
1.529200000000000,0,0x00,0x3C
1.529297440000000,0,0x00,0x0F
1.529394880000000,0,0x00,0xC0
1.529492320000000,0,0x00,0x00
1.529589760000000,0,0x00,0x00
1.529687200000000,0,0x00,0x00
1.529784480000000,0,0x00,0x00
1.529881920000000,0,0x00,0x00
1.529979360000000,0,0x00,0x3C
1.530076800000000,0,0x00,0x0F
1.530174240000000,0,0x00,0xC0
1.530271520000000,0,0x00,0x00
1.530368960000000,0,0x00,0x00
1.530466400000000,0,0x00,0x00
1.530563840000000,0,0x00,0x00
1.530661280000000,0,0x00,0x00
1.530758720000000,0,0x00,0x3C
1.530856000000000,0,0x00,0x0F
1.530953440000000,0,0x00,0xC6
1.531050880000000,0,0x00,0x0B
1.531148320000000,0,0x00,0x51
1.531245760000000,0,0x00,0x15
1.531343040000000,0,0x00,0x3E
1.531440480000000,0,0x00,0xC8
1.531537920000000,0,0x00,0x7E
1.531635360000000,0,0x00,0x4F
1.531732800000000,0,0x00,0xC0
1.531830240000000,0,0x00,0x00
1.531927520000000,0,0x00,0x00
1.532024960000000,0,0x00,0x14
1.532122400000000,0,0x00,0xBE
1.532219840000000,0,0x00,0xC8
1.532317280000000,0,0x00,0x72
1.532414560000000,0,0x00,0x50
1.532512000000000,0,0x00,0x60
1.532609440000000,0,0x00,0xF2
1.532706880000000,0,0x00,0x32
1.532804320000000,0,0x00,0x5B
1.532901760000000,0,0x00,0x4C
1.532999040000000,0,0x00,0x17
1.533096480000000,0,0x00,0xF5
1.533193920000000,0,0x00,0x0F
1.533291360000000,0,0x00,0xC0
1.533388800000000,0,0x00,0x00
1.533486080000000,0,0x00,0x00
1.533583520000000,0,0x00,0x00
1.533680960000000,0,0x00,0x00
1.533778400000000,0,0x00,0x00
1.533875840000000,0,0x00,0x38
1.533973280000000,0,0x00,0x0F
1.534070560000000,0,0x00,0xF1
1.534168000000000,0,0x00,0x00
1.534265440000000,0,0x00,0x80
1.534362880000000,0,0x00,0x00
1.534460320000000,0,0x00,0x00
1.534557600000000,0,0x00,0x00
1.534655040000000,0,0x00,0x14
1.534752480000000,0,0x00,0x0F
1.534849920000000,0,0x00,0x80
1.534947360000000,0,0x00,0x00
1.535044800000000,0,0x00,0x00
1.535142080000000,0,0x00,0x00
1.535239520000000,0,0x00,0x00
1.535336960000000,0,0x00,0x00
1.535434400000000,0,0x00,0x38
1.535531840000000,0,0x00,0x0F
1.535629120000000,0,0x00,0xC0
1.535726560000000,0,0x00,0x00
1.535824000000000,0,0x00,0x00
1.535921440000000,0,0x00,0x00
1.536018880000000,0,0x00,0x00
1.536116320000000,0,0x00,0x08
1.536213600000000,0,0x00,0x82
1.536311040000000,0,0x00,0x50
1.536408480000000,0,0x00,0x00
1.536505920000000,0,0x00,0x00
1.536603360000000,0,0x00,0x00
1.536700640000000,0,0x00,0x14
1.536798080000000,0,0x00,0x3B
1.536895520000000,0,0x00,0xEB
1.536992960000000,0,0x00,0xB8
1.537090400000000,0,0x00,0xAF
1.537187840000000,0,0x00,0x85
1.537285120000000,0,0x00,0xF1
1.537382560000000,0,0x00,0x63
1.537480000000000,0,0x00,0x22
1.537577440000000,0,0x00,0x5A
1.537674880000000,0,0x00,0x61
1.537772160000000,0,0x00,0x10
1.537869600000000,0,0x00,0x4F
1.537967040000000,0,0x00,0x40
1.538064480000000,0,0x00,0x00
1.538161920000000,0,0x00,0x00
1.538259360000000,0,0x00,0x00
1.538356640000000,0,0x00,0x00
1.538454080000000,0,0x00,0x00
1.538551520000000,0,0x00,0x3C
1.538648960000000,0,0x00,0x0F
1.538746400000000,0,0x00,0xC0
1.538843680000000,0,0x00,0x00
1.538941120000000,0,0x00,0x00
1.539038560000000,0,0x00,0x00
1.539136000000000,0,0x00,0x00
1.539233440000000,0,0x00,0x00
1.539330880000000,0,0x00,0x3C
1.539428160000000,0,0x00,0x2F
1.539525600000000,0,0x00,0xE5
1.539623040000000,0,0x00,0x77
1.539720480000000,0,0x00,0xE4
1.539817920000000,0,0x00,0xDA
1.539915200000000,0,0x00,0x7F
1.540012640000000,0,0x00,0xE0
1.540110080000000,0,0x00,0x3A
1.540207520000000,0,0x00,0x0F
1.540304960000000,0,0x00,0x27
1.540402400000000,0,0x00,0x12
1.540499680000000,0,0x00,0x42
1.540597120000000,0,0x00,0x37
1.540694560000000,0,0x00,0x08
1.540792000000000,0,0x00,0x39
1.540889440000000,0,0x00,0x1A
1.540986880000000,0,0x00,0xAF
1.541084160000000,0,0x00,0x4C
1.541181600000000,0,0x00,0x35
1.541279040000000,0,0x00,0x1A
1.541376480000000,0,0x00,0x9A
1.541473920000000,0,0x00,0x0F
1.541571200000000,0,0x00,0x04
1.541668640000000,0,0x00,0xB9
1.541766080000000,0,0x00,0x8F
1.541863520000000,0,0x00,0x6A
1.541960960000000,0,0x00,0xF0
1.542058400000000,0,0x00,0x17
1.542155680000000,0,0x00,0x52
1.542253120000000,0,0x00,0xD1
1.542350560000000,0,0x00,0x79
1.542448000000000,0,0x00,0x96
1.542545440000000,0,0x00,0xAF
1.542642720000000,0,0x00,0x98
1.542740160000000,0,0x00,0xFC
1.542837600000000,0,0x00,0x09
1.542935040000000,0,0x00,0x29
1.543032480000000,0,0x00,0x78
1.543129920000000,0,0x00,0xC7
1.543227200000000,0,0x00,0x71
1.543324640000000,0,0x00,0xCF
1.543422080000000,0,0x00,0x86
1.543519520000000,0,0x00,0x8F
1.543616960000000,0,0x00,0x80
1.543714240000000,0,0x00,0x46
1.543811680000000,0,0x00,0xA8
1.543909120000000,0,0x00,0x00
1.544006560000000,0,0x00,0x4A
1.544104000000000,0,0x00,0xAF
1.544201440000000,0,0x00,0xEC
1.544298720000000,0,0x00,0x04
1.544396160000000,0,0x00,0x04
1.544493600000000,0,0x00,0x44
1.544591040000000,0,0x00,0x44
1.544688480000000,0,0x00,0x44
1.544785760000000,0,0x00,0x60
1.544883200000000,0,0x00,0x4F
1.544980640000000,0,0x00,0xD5
1.545078080000000,0,0x00,0x55
1.545175520000000,0,0x00,0x55
1.545272960000000,0,0x00,0x55
1.545370240000000,0,0x00,0x55
1.545467680000000,0,0x00,0x55
1.545565120000000,0,0x00,0x71
1.545662560000000,0,0x00,0x6F
1.545760000000000,0,0x00,0xC0
1.545857280000000,0,0x00,0x00
1.545954720000000,0,0x00,0x00
1.546052160000000,0,0x00,0x00
1.546149600000000,0,0x00,0x00
1.546247040000000,0,0x00,0x00
1.546344480000000,0,0x00,0x3C
1.546441760000000,0,0x00,0x2F
1.546539200000000,0,0x00,0xC0
1.546636640000000,0,0x00,0x00
1.546734080000000,0,0x00,0x00
1.546831520000000,0,0x00,0x00
1.546928800000000,0,0x00,0x00
1.547026240000000,0,0x00,0x00
1.547123680000000,0,0x00,0x3C
1.547221120000000,0,0x00,0x0F
1.547318560000000,0,0x00,0xDF
1.547416000000000,0,0x00,0x0E
1.547513280000000,0,0x00,0xBE
1.547610720000000,0,0x00,0xBF
1.547708160000000,0,0x00,0x90
1.547805600000000,0,0x00,0x8B
1.547903040000000,0,0x00,0xA1
1.548000320000000,0,0x00,0x90
1.548097760000000,0,0x00,0x00
1.548195200000000,0,0x00,0x00
1.548292640000000,0,0x00,0x00
1.548390080000000,0,0x00,0x00
1.548487520000000,0,0x00,0x18
1.548584800000000,0,0x00,0x0B
1.548682240000000,0,0x00,0xB9
1.548779680000000,0,0x00,0x8F
1.548877120000000,0,0x00,0xDF
1.548974560000000,0,0x00,0x0E
1.549071840000000,0,0x00,0xBE
1.549169280000000,0,0x00,0xBF
1.549266720000000,0,0x00,0x90
1.549364160000000,0,0x00,0x8B
1.549461600000000,0,0x00,0xA1
1.549559040000000,0,0x00,0x90
1.549656320000000,0,0x00,0x35
1.549753760000000,0,0x00,0x80
1.549851200000000,0,0x00,0x80
1.549948640000000,0,0x00,0xBA
1.550046080000000,0,0x00,0xC4
1.550143360000000,0,0x00,0x80
1.550240800000000,0,0x00,0x7B
1.550338240000000,0,0x00,0x4F
1.550435680000000,0,0x00,0x80
1.550533120000000,0,0x00,0x00
1.550630560000000,0,0x00,0x00
1.550727840000000,0,0x00,0x00
1.550825280000000,0,0x00,0x00
1.550922720000000,0,0x00,0x00
1.551020160000000,0,0x00,0x38
1.551117600000000,0,0x00,0x0F
1.551215040000000,0,0x00,0xC0
1.551312320000000,0,0x00,0x00
1.551409760000000,0,0x00,0x00
1.551507200000000,0,0x00,0x00
1.551604640000000,0,0x00,0x00
1.551702080000000,0,0x00,0x00
1.551799360000000,0,0x00,0x38
1.551896800000000,0,0x00,0x0F
1.551994240000000,0,0x00,0xFF
1.552091680000000,0,0x00,0xFF
1.552189120000000,0,0x00,0xFF
1.552286560000000,0,0x00,0xFF
1.552383840000000,0,0x00,0xFF
1.552481280000000,0,0x00,0xFF
1.552578720000000,0,0x00,0xFB
1.552676160000000,0,0x00,0xDF
1.552773600000000,0,0x00,0xC0
1.552870880000000,0,0x00,0x00
1.552968320000000,0,0x00,0x00
1.553065760000000,0,0x00,0x14
1.553163200000000,0,0x00,0x3E
1.553260640000000,0,0x00,0xC8
1.553358080000000,0,0x00,0x6E
1.553455360000000,0,0x00,0x50
1.553552800000000,0,0x00,0x40
1.553650240000000,0,0x00,0x00
1.553747680000000,0,0x00,0x00
1.553845120000000,0,0x00,0x14
1.553942400000000,0,0x00,0x3E
1.554039840000000,0,0x00,0xC8
1.554137280000000,0,0x00,0x6E
1.554234720000000,0,0x00,0x70
1.554332160000000,0,0x00,0x40
1.554429600000000,0,0x00,0x00
1.554526880000000,0,0x00,0x00
1.554624320000000,0,0x00,0x00
1.554721760000000,0,0x00,0x00
1.554819200000000,0,0x00,0x08
1.554916640000000,0,0x00,0xBE
1.555013920000000,0,0x00,0x4F
1.555111360000000,0,0x00,0xC0
1.555208800000000,0,0x00,0x00
1.555306240000000,0,0x00,0x00
1.555403680000000,0,0x00,0x14
1.555501120000000,0,0x00,0x3B
1.555598400000000,0,0x00,0xEB
1.555695840000000,0,0x00,0xB4
1.555793280000000,0,0x00,0xAF
1.555890720000000,0,0x00,0x85
1.555988160000000,0,0x00,0xF1
1.556085440000000,0,0x00,0x63
1.556182880000000,0,0x00,0x22
1.556280320000000,0,0x00,0x5A
1.556377760000000,0,0x00,0x61
1.556475200000000,0,0x00,0x0C
1.556572640000000,0,0x00,0x4F
1.556669920000000,0,0x00,0x48
1.556767360000000,0,0x00,0xF1
1.556864800000000,0,0x00,0xE8
1.556962240000000,0,0x00,0x8B
1.557059680000000,0,0x00,0xAD
1.557156960000000,0,0x00,0xEE
1.557254400000000,0,0x00,0xBC
1.557351840000000,0,0x00,0xAF
1.557449280000000,0,0x00,0xB7
1.557546720000000,0,0x00,0xEA
1.557644160000000,0,0x00,0x8E
1.557741440000000,0,0x00,0xE9
1.557838880000000,0,0x00,0xA0
1.557936320000000,0,0x00,0x83
1.558033760000000,0,0x00,0x9B
1.558131200000000,0,0x00,0x0F
1.558228480000000,0,0x00,0xC0
1.558325920000000,0,0x00,0x02
1.558423360000000,0,0x00,0x53
1.558520800000000,0,0x00,0x79
1.558618240000000,0,0x00,0x6D
1.558715680000000,0,0x00,0x44
1.558812960000000,0,0x00,0xB0
1.558910400000000,0,0x00,0x6F
1.559007840000000,0,0x00,0xFA
1.559105280000000,0,0x00,0x5E
1.559202720000000,0,0x00,0x1D
1.559300000000000,0,0x00,0xBC
1.559397440000000,0,0x00,0x1D
1.559494880000000,0,0x00,0x2D
1.559592320000000,0,0x00,0xE8
1.559689760000000,0,0x00,0x0F
1.559787200000000,0,0x00,0x90
1.559884480000000,0,0x00,0x52
1.559981920000000,0,0x00,0x02
1.560079360000000,0,0x00,0x66
1.560176800000000,0,0x00,0x59
1.560274240000000,0,0x00,0x1B
1.560371520000000,0,0x00,0xCD
1.560468960000000,0,0x00,0x2F
1.560566400000000,0,0x00,0xD6
1.560663840000000,0,0x00,0x48
1.560761280000000,0,0x00,0x5F
1.560858720000000,0,0x00,0xA8
1.560956000000000,0,0x00,0x67
1.561053440000000,0,0x00,0x91
1.561150880000000,0,0x00,0xE6
1.561248320000000,0,0x00,0x8F
1.561345760000000,0,0x00,0xF5
1.561443040000000,0,0x00,0x76
1.561540480000000,0,0x00,0x7E
1.561637920000000,0,0x00,0xD1
1.561735360000000,0,0x00,0xEC
1.561832800000000,0,0x00,0x37
1.561930240000000,0,0x00,0xB7
1.562027520000000,0,0x00,0x6F
1.562124960000000,0,0x00,0xC0
1.562222400000000,0,0x00,0x00
1.562319840000000,0,0x00,0x00
1.562417280000000,0,0x00,0x00
1.562514720000000,0,0x00,0x00
1.562612000000000,0,0x00,0x00
1.562709440000000,0,0x00,0x3C
1.562806880000000,0,0x00,0x0F
1.562904320000000,0,0x00,0xC0
1.563001760000000,0,0x00,0x00
1.563099040000000,0,0x00,0x00
1.563196480000000,0,0x00,0x00
1.563293920000000,0,0x00,0x00
1.563391360000000,0,0x00,0x00
1.563488800000000,0,0x00,0x3C
1.563586240000000,0,0x00,0x0F
1.563683520000000,0,0x00,0xF1
1.563780960000000,0,0x00,0x00
1.563878400000000,0,0x00,0x80
1.563975840000000,0,0x00,0x00
1.564073280000000,0,0x00,0x00
1.564170560000000,0,0x00,0x00
1.564268000000000,0,0x00,0x14
1.564365440000000,0,0x00,0x0F
1.564462880000000,0,0x00,0xA0
1.564560320000000,0,0x00,0xF2
1.564657760000000,0,0x00,0x32
1.564755040000000,0,0x00,0x5B
1.564852480000000,0,0x00,0x4C
1.564949920000000,0,0x00,0x17
1.565047360000000,0,0x00,0xF9
1.565144800000000,0,0x00,0x0F
1.565242080000000,0,0x00,0xC0
1.565339520000000,0,0x00,0x00
1.565436960000000,0,0x00,0x00
1.565534400000000,0,0x00,0x00
1.565631840000000,0,0x00,0x00
1.565729280000000,0,0x00,0x00
1.565826560000000,0,0x00,0x38
1.565924000000000,0,0x00,0x0F
1.566021440000000,0,0x00,0xC0
1.566118880000000,0,0x00,0x00
1.566216320000000,0,0x00,0x00
1.566313600000000,0,0x00,0x00
1.566411040000000,0,0x00,0x00
1.566508480000000,0,0x00,0x00
1.566605920000000,0,0x00,0x38
1.566703360000000,0,0x00,0x2F
1.566800800000000,0,0x00,0xC0
1.566898080000000,0,0x00,0x00
1.566995520000000,0,0x00,0x00
1.567092960000000,0,0x00,0x00
1.567190400000000,0,0x00,0x00
1.567287840000000,0,0x00,0x00
1.567385120000000,0,0x00,0x3C
1.567482560000000,0,0x00,0x0F
1.567580000000000,0,0x00,0xC0
1.567677440000000,0,0x00,0x00
1.567774880000000,0,0x00,0x00
1.567872320000000,0,0x00,0x00
1.567969600000000,0,0x00,0x00
1.568067040000000,0,0x00,0x00
1.568164480000000,0,0x00,0x3C
1.568261920000000,0,0x00,0x0F
1.568359360000000,0,0x00,0xDF
1.568456640000000,0,0x00,0x0E
1.568554080000000,0,0x00,0xBE
1.568651520000000,0,0x00,0xBF
1.568748960000000,0,0x00,0x90
1.568846400000000,0,0x00,0x8B
1.568943840000000,0,0x00,0xA1
1.569041120000000,0,0x00,0x90
1.569138560000000,0,0x00,0x03
1.569236000000000,0,0x00,0xAF
1.569333440000000,0,0x00,0x9E
1.569430880000000,0,0x00,0xB7
1.569528160000000,0,0x00,0x4A
1.569625600000000,0,0x00,0xC8
1.569723040000000,0,0x00,0xE1
1.569820480000000,0,0x00,0xB0
1.569917920000000,0,0x00,0x00
1.570015360000000,0,0x00,0x00
1.570112640000000,0,0x00,0x00
1.570210080000000,0,0x00,0x00
1.570307520000000,0,0x00,0x00
1.570404960000000,0,0x00,0x00
1.570502400000000,0,0x00,0x2C
1.570599680000000,0,0x00,0x0F
1.570697120000000,0,0x00,0x3F
1.570794560000000,0,0x00,0xA0
1.570892000000000,0,0x00,0x8A
1.570989440000000,0,0x00,0xD9
1.571086880000000,0,0x00,0x51
1.571184160000000,0,0x00,0xC5
1.571281600000000,0,0x00,0x7D
1.571379040000000,0,0x00,0xCF
1.571476480000000,0,0x00,0xC0
1.571573920000000,0,0x00,0x00
1.571671200000000,0,0x00,0x00
1.571768640000000,0,0x00,0x00
1.571866080000000,0,0x00,0x00
1.571963520000000,0,0x00,0x00
1.572060960000000,0,0x00,0x38
1.572158400000000,0,0x00,0x2F
1.572255680000000,0,0x00,0xC0
1.572353120000000,0,0x00,0x00
1.572450560000000,0,0x00,0x00
1.572548000000000,0,0x00,0x00
1.572645440000000,0,0x00,0x00
1.572742720000000,0,0x00,0x00
1.572840160000000,0,0x00,0x38
1.572937600000000,0,0x00,0x0F
1.573035040000000,0,0x00,0xC0
1.573132480000000,0,0x00,0x00
1.573229920000000,0,0x00,0x00
1.573327200000000,0,0x00,0x00
1.573424640000000,0,0x00,0x00
1.573522080000000,0,0x00,0x0C
1.573619520000000,0,0x00,0x39
1.573716960000000,0,0x00,0x8F
1.573814400000000,0,0x00,0xFA
1.573911680000000,0,0x00,0x90
1.574009120000000,0,0x00,0x90
1.574106560000000,0,0x00,0x97
1.574204000000000,0,0x00,0x04
1.574301440000000,0,0x00,0x34
1.574398720000000,0,0x00,0x0A
1.574496160000000,0,0x00,0xEF
1.574593600000000,0,0x00,0xD5
1.574691040000000,0,0x00,0xA1
1.574788480000000,0,0x00,0xFE
1.574885920000000,0,0x00,0xD7
1.574983200000000,0,0x00,0x6F
1.575080640000000,0,0x00,0xB2
1.575178080000000,0,0x00,0x4B
1.575275520000000,0,0x00,0xAF
1.575372960000000,0,0x00,0x47
1.575470240000000,0,0x00,0xA4
1.575567680000000,0,0x00,0xB9
1.575665120000000,0,0x00,0x8A
1.575762560000000,0,0x00,0x91
1.575860000000000,0,0x00,0x22
1.575957440000000,0,0x00,0xC0
1.576054720000000,0,0x00,0x0F
1.576152160000000,0,0x00,0xE9
1.576249600000000,0,0x00,0x84
1.576347040000000,0,0x00,0x8A
1.576444480000000,0,0x00,0xBC
1.576541760000000,0,0x00,0x92
1.576639200000000,0,0x00,0xC1
1.576736640000000,0,0x00,0xDF
1.576834080000000,0,0x00,0xCF
1.576931520000000,0,0x00,0xC0
1.577028960000000,0,0x00,0x00
1.577126240000000,0,0x00,0x00
1.577223680000000,0,0x00,0x00
1.577321120000000,0,0x00,0x00
1.577418560000000,0,0x00,0x00
1.577516000000000,0,0x00,0x34
1.577613280000000,0,0x00,0x0F
1.577710720000000,0,0x00,0xD5
1.577808160000000,0,0x00,0x41
1.577905600000000,0,0x00,0x39
1.578003040000000,0,0x00,0x43
1.578100480000000,0,0x00,0x18
1.578197760000000,0,0x00,0xCC
1.578295200000000,0,0x00,0xEA
1.578392640000000,0,0x00,0x4F
1.578490080000000,0,0x00,0xB7
1.578587520000000,0,0x00,0xF5
1.578684800000000,0,0x00,0x0A
1.578782240000000,0,0x00,0x17
1.578879680000000,0,0x00,0x03
1.578977120000000,0,0x00,0x2B
1.579074560000000,0,0x00,0xD1
1.579172000000000,0,0x00,0x0F
1.579269280000000,0,0x00,0xFF
1.579366720000000,0,0x00,0xF6
1.579464160000000,0,0x00,0x77
1.579561600000000,0,0x00,0xD4
1.579659040000000,0,0x00,0x4A
1.579756320000000,0,0x00,0x05
1.579853760000000,0,0x00,0xEB
1.579951200000000,0,0x00,0x4F
1.580048640000000,0,0x00,0xC0
1.580146080000000,0,0x00,0x00
1.580243520000000,0,0x00,0x00
1.580340800000000,0,0x00,0x00
1.580438240000000,0,0x00,0x00
1.580535680000000,0,0x00,0x00
1.580633120000000,0,0x00,0x38
1.580730560000000,0,0x00,0x0F
1.580827840000000,0,0x00,0xC0
1.580925280000000,0,0x00,0x00
1.581022720000000,0,0x00,0x00
1.581120160000000,0,0x00,0x00
1.581217600000000,0,0x00,0x00
1.581315040000000,0,0x00,0x00
1.581412320000000,0,0x00,0x38
1.581509760000000,0,0x00,0x0F
1.581607200000000,0,0x00,0xFF
1.581704640000000,0,0x00,0xFF
1.581802080000000,0,0x00,0xFF
1.581899360000000,0,0x00,0xFF
1.581996800000000,0,0x00,0xFF
1.582094240000000,0,0x00,0xFF
1.582191680000000,0,0x00,0xFB
1.582289120000000,0,0x00,0xDF
1.582386560000000,0,0x00,0xC0
1.582483840000000,0,0x00,0x00
1.582581280000000,0,0x00,0x00
1.582678720000000,0,0x00,0x00
1.582776160000000,0,0x00,0x00
1.582873600000000,0,0x00,0x00
1.582970880000000,0,0x00,0x3C
1.583068320000000,0,0x00,0x0F
1.583165760000000,0,0x00,0xC0
1.583263200000000,0,0x00,0x00
1.583360640000000,0,0x00,0x00
1.583458080000000,0,0x00,0x00
1.583555360000000,0,0x00,0x00
1.583652800000000,0,0x00,0x00
1.583750240000000,0,0x00,0x3C
1.583847680000000,0,0x00,0x0F
1.583945120000000,0,0x00,0xED
1.584042560000000,0,0x00,0x6C
1.584139840000000,0,0x00,0xAB
1.584237280000000,0,0x00,0xEB
1.584334720000000,0,0x00,0x6A
1.584432160000000,0,0x00,0xAA
1.584529600000000,0,0x00,0x29
1.584626880000000,0,0x00,0xA8
1.584724320000000,0,0x00,0xE8
1.584821760000000,0,0x00,0x67
1.584919200000000,0,0x00,0xE7
1.585016640000000,0,0x00,0xA7
1.585114080000000,0,0x00,0x26
1.585211360000000,0,0x00,0xA6
1.585308800000000,0,0x00,0x25
1.585406240000000,0,0x00,0xA5
1.585503680000000,0,0x00,0x64
1.585601120000000,0,0x00,0xE4
1.585698400000000,0,0x00,0xA4
1.585795840000000,0,0x00,0x23
1.585893280000000,0,0x00,0xE3
1.585990720000000,0,0x00,0xA3
1.586088160000000,0,0x00,0x22
1.586185600000000,0,0x00,0xE2
1.586282880000000,0,0x00,0xA2
1.586380320000000,0,0x00,0x21
1.586477760000000,0,0x00,0xE1
1.586575200000000,0,0x00,0xA1
1.586672640000000,0,0x00,0x61
1.586769920000000,0,0x00,0x20
1.586867360000000,0,0x00,0xE0
1.586964800000000,0,0x00,0xA0
1.587062240000000,0,0x00,0x60
1.587159680000000,0,0x00,0x1F
1.587257120000000,0,0x00,0xDF
1.587354400000000,0,0x00,0x9F
1.587451840000000,0,0x00,0x5F
1.587549280000000,0,0x00,0x1E
1.587646720000000,0,0x00,0xDE
1.587744160000000,0,0x00,0x9E
1.587841440000000,0,0x00,0x5E
1.587938880000000,0,0x00,0x1D
1.588036320000000,0,0x00,0xDD
1.588133760000000,0,0x00,0xDD
1.588231200000000,0,0x00,0x9D
1.588328640000000,0,0x00,0x5D
1.588425920000000,0,0x00,0x1C
1.588523360000000,0,0x00,0xDC
1.588620800000000,0,0x00,0xDC
1.588718240000000,0,0x00,0x9C
1.588815680000000,0,0x00,0x5C
1.588912960000000,0,0x00,0x5C
1.589010400000000,0,0x00,0x1B
1.589107840000000,0,0x00,0xDB
1.589205280000000,0,0x00,0xDB
1.589302720000000,0,0x00,0x9B
1.589400160000000,0,0x00,0x5B
1.589497440000000,0,0x00,0x5B
1.589594880000000,0,0x00,0x1A
1.589692320000000,0,0x00,0xDA
1.589789760000000,0,0x00,0xDA
1.589887200000000,0,0x00,0x9A
1.589984480000000,0,0x00,0x9A
1.590081920000000,0,0x00,0x5A
1.590179360000000,0,0x00,0x5A
1.590276800000000,0,0x00,0x19
1.590374240000000,0,0x00,0xD9
1.590471680000000,0,0x00,0xD9
1.590568960000000,0,0x00,0x99
1.590666400000000,0,0x00,0x99
1.590763840000000,0,0x00,0x59
1.590861280000000,0,0x00,0x59
1.590958720000000,0,0x00,0x19
1.591056000000000,0,0x00,0x18
1.591153440000000,0,0x00,0xD8
1.591250880000000,0,0x00,0xD8
1.591348320000000,0,0x00,0x98
1.591445760000000,0,0x00,0x98
1.591543200000000,0,0x00,0x98
1.591640480000000,0,0x00,0x58
1.591737920000000,0,0x00,0x58
1.591835360000000,0,0x00,0x18
1.591932800000000,0,0x00,0x17
1.592030240000000,0,0x00,0xD7
1.592127520000000,0,0x00,0xD7
1.592224960000000,0,0x00,0xD7
1.592322400000000,0,0x00,0x97
1.592419840000000,0,0x00,0x97
1.592517280000000,0,0x00,0x57
1.592614720000000,0,0x00,0x57
1.592712000000000,0,0x00,0x57
1.592809440000000,0,0x00,0x17
1.592906880000000,0,0x00,0x16
1.593004320000000,0,0x00,0xD6
1.593101760000000,0,0x00,0xD6
1.593199040000000,0,0x00,0xD6
1.593296480000000,0,0x00,0x96
1.593393920000000,0,0x00,0x96
1.593491360000000,0,0x00,0x96
1.593588800000000,0,0x00,0x56
1.593686240000000,0,0x00,0x56
1.593783520000000,0,0x00,0x56
1.593880960000000,0,0x00,0x16
1.593978400000000,0,0x00,0x16
1.594075840000000,0,0x00,0x15
1.594173280000000,0,0x00,0xD5
1.594270560000000,0,0x00,0xD5
1.594368000000000,0,0x00,0xD5
1.594465440000000,0,0x00,0x95
1.594562880000000,0,0x00,0x95
1.594660320000000,0,0x00,0x95
1.594757760000000,0,0x00,0x55
1.594855040000000,0,0x00,0x55
1.594952480000000,0,0x00,0x55
1.595049920000000,0,0x00,0x55
1.595147360000000,0,0x00,0x15
1.595244800000000,0,0x00,0x15
1.595342240000000,0,0x00,0x14
1.595439520000000,0,0x00,0xD4
1.595536960000000,0,0x00,0xD4
1.595634400000000,0,0x00,0xD4
1.595731840000000,0,0x00,0xD4
1.595829280000000,0,0x00,0x94
1.595926560000000,0,0x00,0x94
1.596024000000000,0,0x00,0x94
1.596121440000000,0,0x00,0x54
1.596218880000000,0,0x00,0x54
1.596316320000000,0,0x00,0x54
1.596413760000000,0,0x00,0x54
1.596511040000000,0,0x00,0x14
1.596608480000000,0,0x00,0x14
1.596705920000000,0,0x00,0x14
1.596803360000000,0,0x00,0x13
1.596900800000000,0,0x00,0xD3
1.596998080000000,0,0x00,0xD3
1.597095520000000,0,0x00,0xD3
1.597192960000000,0,0x00,0xD3
1.597290400000000,0,0x00,0xD3
1.597387840000000,0,0x00,0x93
1.597485280000000,0,0x00,0x93
1.597582560000000,0,0x00,0x93
1.597680000000000,0,0x00,0x93
1.597777440000000,0,0x00,0x53
1.597874880000000,0,0x00,0x53
1.597972320000000,0,0x00,0x53
1.598069600000000,0,0x00,0x53
1.598167040000000,0,0x00,0x13
1.598264480000000,0,0x00,0x13
1.598361920000000,0,0x00,0x13
1.598459360000000,0,0x00,0x13
1.598556800000000,0,0x00,0x12
1.598654080000000,0,0x00,0xD2
1.598751520000000,0,0x00,0xD2
1.598848960000000,0,0x00,0xD2
1.598946400000000,0,0x00,0xD2
1.599043840000000,0,0x00,0xD2
1.599141120000000,0,0x00,0x92
1.599238560000000,0,0x00,0x92
1.599336000000000,0,0x00,0x92
1.599433440000000,0,0x00,0x92
1.599530880000000,0,0x00,0x92
1.599628320000000,0,0x00,0x52
1.599725600000000,0,0x00,0x52
1.599823040000000,0,0x00,0x52
1.599920480000000,0,0x00,0x52
1.600017920000000,0,0x00,0x52
1.600115360000000,0,0x00,0x12
1.600212640000000,0,0x00,0x12
1.600310080000000,0,0x00,0x12
1.600407520000000,0,0x00,0x12
1.600504960000000,0,0x00,0x12
1.600602400000000,0,0x00,0x11
1.600699840000000,0,0x00,0xD1
1.600797120000000,0,0x00,0xD1
1.600894560000000,0,0x00,0xD1
1.600992000000000,0,0x00,0xD1
1.601089440000000,0,0x00,0xD1
1.601186880000000,0,0x00,0xD1
1.601284160000000,0,0x00,0x91
1.601381600000000,0,0x00,0x91
1.601479040000000,0,0x00,0x91
1.601576480000000,0,0x00,0x91
1.601673920000000,0,0x00,0x91
1.601771360000000,0,0x00,0x51
1.601868640000000,0,0x00,0x51
1.601966080000000,0,0x00,0x51
1.602063520000000,0,0x00,0x51
1.602160960000000,0,0x00,0x51
1.602258400000000,0,0x00,0x51
1.602355680000000,0,0x00,0x51
1.602453120000000,0,0x00,0x11
1.602550560000000,0,0x00,0x11
1.602648000000000,0,0x00,0x11
1.602745440000000,0,0x00,0x11
1.602842880000000,0,0x00,0x11
1.602940160000000,0,0x00,0x10
1.603037600000000,0,0x00,0xD0
1.603135040000000,0,0x00,0xD0
1.603232480000000,0,0x00,0xD0
1.603329920000000,0,0x00,0xD0
1.603427200000000,0,0x00,0xD0
1.603524640000000,0,0x00,0xD0
1.603622080000000,0,0x00,0xD0
1.603719520000000,0,0x00,0x90
1.603816960000000,0,0x00,0x90
1.603914400000000,0,0x00,0x90
1.604011680000000,0,0x00,0x90
1.604109120000000,0,0x00,0x90
1.604206560000000,0,0x00,0x90
1.604304000000000,0,0x00,0x90
1.604401440000000,0,0x00,0x50
1.604498720000000,0,0x00,0x50
1.604596160000000,0,0x00,0x50
1.604693600000000,0,0x00,0x50
1.604791040000000,0,0x00,0x50
1.604888480000000,0,0x00,0x50
1.604985920000000,0,0x00,0x50
1.605083200000000,0,0x00,0x50
1.605180640000000,0,0x00,0x10
1.605278080000000,0,0x00,0x10
1.605375520000000,0,0x00,0x10
1.605472960000000,0,0x00,0x10
1.605570400000000,0,0x00,0x10
1.605667680000000,0,0x00,0x10
1.605765120000000,0,0x00,0x00
1.605862560000000,0,0x00,0x00
1.605960000000000,0,0x00,0x00
1.606057440000000,0,0x00,0x00
1.606154720000000,0,0x00,0x00
1.606252160000000,0,0x00,0x00
1.606349600000000,0,0x00,0x38
1.606447040000000,0,0x00,0x0F
1.606544480000000,0,0x00,0xC0
1.606641920000000,0,0x00,0x00
1.606739200000000,0,0x00,0x00
1.606836640000000,0,0x00,0x00
1.606934080000000,0,0x00,0x00
1.607031520000000,0,0x00,0x00
1.607128960000000,0,0x00,0x38
1.607226240000000,0,0x00,0x0F
1.607323680000000,0,0x00,0xC0
1.607421120000000,0,0x00,0x00
1.607518560000000,0,0x00,0x00
1.607616000000000,0,0x00,0x18
1.607713440000000,0,0x00,0x27
1.607810720000000,0,0x00,0xA8
1.607908160000000,0,0x00,0x39
1.608005600000000,0,0x00,0x8F
1.608103040000000,0,0x00,0xC0
1.608200480000000,0,0x00,0x00
1.608297760000000,0,0x00,0x00
1.608395200000000,0,0x00,0x00
1.608492640000000,0,0x00,0x00
1.608590080000000,0,0x00,0x0C
1.608687520000000,0,0x00,0x39
1.608784960000000,0,0x00,0x8F
1.608882240000000,0,0x00,0xC0
1.608979680000000,0,0x00,0x00
1.609077120000000,0,0x00,0x00
1.609174560000000,0,0x00,0x00
1.609272000000000,0,0x00,0x00
1.609369280000000,0,0x00,0x00
1.609466720000000,0,0x00,0x38
1.609564160000000,0,0x00,0x0F
1.609661600000000,0,0x00,0xC0
1.609759040000000,0,0x00,0x00
1.609856480000000,0,0x00,0x00
1.609953760000000,0,0x00,0x00
1.610051200000000,0,0x00,0x00
1.610148640000000,0,0x00,0x00
1.610246080000000,0,0x00,0x38
1.610343520000000,0,0x00,0x0F
1.610440800000000,0,0x00,0xCA
1.610538240000000,0,0x00,0x6F
1.610635680000000,0,0x00,0x55
1.610733120000000,0,0x00,0xAC
1.610830560000000,0,0x00,0xC5
1.610928000000000,0,0x00,0x51
1.611025280000000,0,0x00,0x3A
1.611122720000000,0,0x00,0x6F
1.611220160000000,0,0x00,0xFB
1.611317600000000,0,0x00,0x6B
1.611415040000000,0,0x00,0xC5
1.611512320000000,0,0x00,0x88
1.611609760000000,0,0x00,0x12
1.611707200000000,0,0x00,0x98
1.611804640000000,0,0x00,0x8C
1.611902080000000,0,0x00,0x10
1.611999520000000,0,0x00,0x26
1.612096800000000,0,0x00,0xAD
1.612194240000000,0,0x00,0x6C
1.612291680000000,0,0x00,0xC4
1.612389120000000,0,0x00,0xBF
1.612486560000000,0,0x00,0xC1
1.612583840000000,0,0x00,0xD4
1.612681280000000,0,0x00,0x30
1.612778720000000,0,0x00,0x03
1.612876160000000,0,0x00,0xF3
1.612973600000000,0,0x00,0x99
1.613071040000000,0,0x00,0xD2
1.613168320000000,0,0x00,0xE0
1.613265760000000,0,0x00,0x35
1.613363200000000,0,0x00,0x50
1.613460640000000,0,0x00,0x70
1.613558080000000,0,0x00,0x1F
1.613655360000000,0,0x00,0x89
1.613752800000000,0,0x00,0x85
1.613850240000000,0,0x00,0x7E
1.613947680000000,0,0x00,0xA0
1.614045120000000,0,0x00,0xE0
1.614142560000000,0,0x00,0x1C
1.614239840000000,0,0x00,0xD0
1.614337280000000,0,0x00,0x1D
1.614434720000000,0,0x00,0xE4
1.614532160000000,0,0x00,0x03
1.614629600000000,0,0x00,0x67
1.614726880000000,0,0x00,0x3F
1.614824320000000,0,0x00,0x82
1.614921760000000,0,0x00,0xE2
1.615019200000000,0,0x00,0x30
1.615116640000000,0,0x00,0x3A
1.615214080000000,0,0x00,0x90
1.615311360000000,0,0x00,0x90
1.615408800000000,0,0x00,0x97
1.615506240000000,0,0x00,0x04
1.615603680000000,0,0x00,0x34
1.615701120000000,0,0x00,0x0A
1.615798400000000,0,0x00,0xEF
1.615895840000000,0,0x00,0xD5
1.615993280000000,0,0x00,0xA1
1.616090720000000,0,0x00,0xFE
1.616188160000000,0,0x00,0xD7
1.616285600000000,0,0x00,0x6F
1.616382880000000,0,0x00,0xB2
1.616480320000000,0,0x00,0x4B
1.616577760000000,0,0x00,0xAF
1.616675200000000,0,0x00,0x43
1.616772640000000,0,0x00,0xB9
1.616870080000000,0,0x00,0x49
1.616967360000000,0,0x00,0x85
1.617064800000000,0,0x00,0x5E
1.617162240000000,0,0x00,0xF2
1.617259680000000,0,0x00,0xF6
1.617357120000000,0,0x00,0xCF
1.617454400000000,0,0x00,0xFF
1.617551840000000,0,0x00,0xFF
1.617649280000000,0,0x00,0xFF
1.617746720000000,0,0x00,0xFF
1.617844160000000,0,0x00,0xFF
1.617941600000000,0,0x00,0xFF
1.618038880000000,0,0x00,0xFB
1.618136320000000,0,0x00,0xFF
1.618233760000000,0,0x00,0xC0
1.618331200000000,0,0x00,0x00
1.618428640000000,0,0x00,0x00
1.618525920000000,0,0x00,0x00
1.618623360000000,0,0x00,0x00
1.618720800000000,0,0x00,0x00
1.618818240000000,0,0x00,0x38
1.618915680000000,0,0x00,0x0F
1.619013120000000,0,0x00,0xC0
1.619110400000000,0,0x00,0x00
1.619207840000000,0,0x00,0x00
1.619305280000000,0,0x00,0x00
1.619402720000000,0,0x00,0x00
1.619500160000000,0,0x00,0x00
1.619597440000000,0,0x00,0x38
1.619694880000000,0,0x00,0x0F
1.619792320000000,0,0x00,0xC0
1.619889760000000,0,0x00,0x00
1.619987200000000,0,0x00,0x00
1.620084640000000,0,0x00,0x18
1.620181920000000,0,0x00,0x27
1.620279360000000,0,0x00,0xA8
1.620376800000000,0,0x00,0x39
1.620474240000000,0,0x00,0x8F
1.620571680000000,0,0x00,0xC0
1.620668960000000,0,0x00,0x00
1.620766400000000,0,0x00,0x00
1.620863840000000,0,0x00,0x00
1.620961280000000,0,0x00,0x00
1.621058720000000,0,0x00,0x0C
1.621156160000000,0,0x00,0x39
1.621253440000000,0,0x00,0x8F
1.621350880000000,0,0x00,0xC0
1.621448320000000,0,0x00,0x00
1.621545760000000,0,0x00,0x00
1.621643200000000,0,0x00,0x00
1.621740480000000,0,0x00,0x00
1.621837920000000,0,0x00,0x00
1.621935360000000,0,0x00,0x38
1.622032800000000,0,0x00,0x0F
1.622130240000000,0,0x00,0xC0
1.622227680000000,0,0x00,0x00
1.622324960000000,0,0x00,0x00
1.622422400000000,0,0x00,0x00
1.622519840000000,0,0x00,0x00
1.622617280000000,0,0x00,0x00
1.622714720000000,0,0x00,0x38
1.622812000000000,0,0x00,0x0F
1.622909440000000,0,0x00,0xCA
1.623006880000000,0,0x00,0x6F
1.623104320000000,0,0x00,0x55
1.623201760000000,0,0x00,0xAC
1.623299200000000,0,0x00,0xC5
1.623396480000000,0,0x00,0x51
1.623493920000000,0,0x00,0x3A
1.623591360000000,0,0x00,0x6F
1.623688800000000,0,0x00,0xFB
1.623786240000000,0,0x00,0x6B
1.623883520000000,0,0x00,0xC5
1.623980960000000,0,0x00,0x88
1.624078400000000,0,0x00,0x12
1.624175840000000,0,0x00,0x98
1.624273280000000,0,0x00,0x8C
1.624370720000000,0,0x00,0x10
1.624468000000000,0,0x00,0x26
1.624565440000000,0,0x00,0xAD
1.624662880000000,0,0x00,0x6C
1.624760320000000,0,0x00,0xC4
1.624857760000000,0,0x00,0xBF
1.624955040000000,0,0x00,0xC1
1.625052480000000,0,0x00,0xD4
1.625149920000000,0,0x00,0x30
1.625247360000000,0,0x00,0x03
1.625344800000000,0,0x00,0xF3
1.625442240000000,0,0x00,0x99
1.625539520000000,0,0x00,0xD2
1.625636960000000,0,0x00,0xE0
1.625734400000000,0,0x00,0x35
1.625831840000000,0,0x00,0x50
1.625929280000000,0,0x00,0x70
1.626026560000000,0,0x00,0x1F
1.626124000000000,0,0x00,0x89
1.626221440000000,0,0x00,0x85
1.626318880000000,0,0x00,0x7E
1.626416320000000,0,0x00,0xA0
1.626513760000000,0,0x00,0xE0
1.626611040000000,0,0x00,0x1C
1.626708480000000,0,0x00,0xD0
1.626805920000000,0,0x00,0x1D
1.626903360000000,0,0x00,0xE4
1.627000800000000,0,0x00,0x03
1.627098240000000,0,0x00,0x67
1.627195520000000,0,0x00,0x3F
1.627292960000000,0,0x00,0x82
1.627390400000000,0,0x00,0xE2
1.627487840000000,0,0x00,0x30
1.627585280000000,0,0x00,0x3A
1.627682560000000,0,0x00,0x90
1.627780000000000,0,0x00,0x90
1.627877440000000,0,0x00,0x97
1.627974880000000,0,0x00,0x04
1.628072320000000,0,0x00,0x34
1.628169760000000,0,0x00,0x0A
1.628267040000000,0,0x00,0xEF
1.628364480000000,0,0x00,0xD5
1.628461920000000,0,0x00,0xA1
1.628559360000000,0,0x00,0xFE
1.628656800000000,0,0x00,0xD7
1.628754080000000,0,0x00,0x6F
1.628851520000000,0,0x00,0xB2
1.628948960000000,0,0x00,0x4B
1.629046400000000,0,0x00,0xAF
1.629143840000000,0,0x00,0x7F
1.629241280000000,0,0x00,0xFF
1.629338560000000,0,0x00,0xFF
1.629436000000000,0,0x00,0xFF
1.629533440000000,0,0x00,0xFF
1.629630880000000,0,0x00,0xFF
1.629728320000000,0,0x00,0xFB
1.629825600000000,0,0x00,0xFF
1.629923040000000,0,0x00,0xC0
1.630020480000000,0,0x00,0x00
1.630117920000000,0,0x00,0x00
1.630215360000000,0,0x00,0x00
1.630312800000000,0,0x00,0x00
1.630410080000000,0,0x00,0x00
1.630507520000000,0,0x00,0x20
1.630604960000000,0,0x00,0x0F
1.630702400000000,0,0x00,0xDF
1.630799840000000,0,0x00,0x49
1.630897120000000,0,0x00,0x5D
1.630994560000000,0,0x00,0x4F
1.631092000000000,0,0x00,0xF1
1.631189440000000,0,0x00,0xB0
1.631286880000000,0,0x00,0x1A
1.631384320000000,0,0x00,0x8F
1.631481600000000,0,0x00,0xF7
1.631579040000000,0,0x00,0xB3
1.631676480000000,0,0x00,0x18
1.631773920000000,0,0x00,0x0F
1.631871360000000,0,0x00,0xFF
1.631968640000000,0,0x00,0x11
1.632066080000000,0,0x00,0x15
1.632163520000000,0,0x00,0xCF
1.632260960000000,0,0x00,0xE3
1.632358400000000,0,0x00,0x09
1.632455840000000,0,0x00,0x13
1.632553120000000,0,0x00,0x8F
1.632650560000000,0,0x00,0xCA
1.632748000000000,0,0x00,0x99
1.632845440000000,0,0x00,0xD1
1.632942880000000,0,0x00,0x4F
1.633040160000000,0,0x00,0xE8
1.633137600000000,0,0x00,0xC2
1.633235040000000,0,0x00,0x0F
1.633332480000000,0,0x00,0x4F
1.633429920000000,0,0x00,0xFC
1.633527360000000,0,0x00,0xC1
1.633624640000000,0,0x00,0x0D
1.633722080000000,0,0x00,0x4F
1.633819520000000,0,0x00,0xCF
1.633916960000000,0,0x00,0x96
1.634014400000000,0,0x00,0x0B
1.634111680000000,0,0x00,0x4F
1.634209120000000,0,0x00,0xF5
1.634306560000000,0,0x00,0xBF
1.634404000000000,0,0x00,0x89
1.634501440000000,0,0x00,0x4F
1.634598880000000,0,0x00,0xCC
1.634696160000000,0,0x00,0xBD
1.634793600000000,0,0x00,0x47
1.634891040000000,0,0x00,0x8F
1.634988480000000,0,0x00,0xFC
1.635085920000000,0,0x00,0x0D
1.635183200000000,0,0x00,0xC6
1.635280640000000,0,0x00,0x0F
1.635378080000000,0,0x00,0xF4
1.635475520000000,0,0x00,0xF0
1.635572960000000,0,0x00,0xC4
1.635670400000000,0,0x00,0x4F
1.635767680000000,0,0x00,0xF0
1.635865120000000,0,0x00,0x65
1.635962560000000,0,0x00,0x42
1.636060000000000,0,0x00,0xCF
1.636157440000000,0,0x00,0xF0
1.636254720000000,0,0x00,0xEA
1.636352160000000,0,0x00,0x81
1.636449600000000,0,0x00,0x4F
1.636547040000000,0,0x00,0xC0
1.636644480000000,0,0x00,0x00
1.636741920000000,0,0x00,0x00
1.636839200000000,0,0x00,0x0F
1.636936640000000,0,0x00,0xC0
1.637034080000000,0,0x00,0x00
1.637131520000000,0,0x00,0x00
1.637228960000000,0,0x00,0x00
1.637326240000000,0,0x00,0x0D
1.637423680000000,0,0x00,0x89
1.637521120000000,0,0x00,0x2A
1.637618560000000,0,0x00,0x4C
1.637716000000000,0,0x00,0x65
1.637813440000000,0,0x00,0x0A
1.637910720000000,0,0x00,0x9B
1.638008160000000,0,0x00,0x0C
1.638105600000000,0,0x00,0xC9
1.638203040000000,0,0x00,0x3F
1.638300480000000,0,0x00,0x2A
1.638397920000000,0,0x00,0x0C
1.638495200000000,0,0x00,0x43
1.638592640000000,0,0x00,0x16
1.638690080000000,0,0x00,0x07
1.638787520000000,0,0x00,0xCC
1.638884960000000,0,0x00,0xE8
1.638982240000000,0,0x00,0x50
1.639079680000000,0,0x00,0x9A
1.639177120000000,0,0x00,0x8C
1.639274560000000,0,0x00,0xD0
1.639372000000000,0,0x00,0x88
1.639469440000000,0,0x00,0xF0
1.639566720000000,0,0x00,0x4C
1.639664160000000,0,0x00,0x88
1.639761600000000,0,0x00,0xD5
1.639859040000000,0,0x00,0xB9
1.639956480000000,0,0x00,0xCC
1.640053760000000,0,0x00,0xA4
1.640151200000000,0,0x00,0x26
1.640248640000000,0,0x00,0x33
1.640346080000000,0,0x00,0xCC
1.640443520000000,0,0x00,0x80
1.640540960000000,0,0x00,0x00
1.640638240000000,0,0x00,0x00
1.640735680000000,0,0x00,0x00
1.640833120000000,0,0x00,0x00
1.640930560000000,0,0x00,0x00
1.641028000000000,0,0x00,0x00
1.641125280000000,0,0x00,0x10
1.641222720000000,0,0x00,0x00
1.641320160000000,0,0x00,0x00
1.641417600000000,0,0x00,0x00
1.641515040000000,0,0x00,0x00
1.641612480000000,0,0x00,0x00
1.641709760000000,0,0x00,0x00
1.641807200000000,0,0x00,0x2C
1.641904640000000,0,0x00,0x0F
1.642002080000000,0,0x00,0xC0
1.642099520000000,0,0x00,0x00
1.642196800000000,0,0x00,0x00
1.642294240000000,0,0x00,0x00
1.642391680000000,0,0x00,0x00
1.642489120000000,0,0x00,0x00
1.642586560000000,0,0x00,0x0C
1.642684000000000,0,0x00,0x10
1.642781280000000,0,0x00,0x00
1.642878720000000,0,0x00,0x00
1.642976160000000,0,0x00,0x00
1.643073600000000,0,0x00,0x00
1.643171040000000,0,0x00,0x00
1.643268320000000,0,0x00,0x00
1.643365760000000,0,0x00,0x2C
1.643463200000000,0,0x00,0x0F
1.643560640000000,0,0x00,0xCA
1.643658080000000,0,0x00,0x3F
1.643755520000000,0,0x00,0x12
1.643852800000000,0,0x00,0xB6
1.643950240000000,0,0x00,0xFF
1.644047680000000,0,0x00,0x5E
1.644145120000000,0,0x00,0x0F
1.644242560000000,0,0x00,0x0F
1.644339840000000,0,0x00,0xEB
1.644437280000000,0,0x00,0x23
1.644534720000000,0,0x00,0x49
1.644632160000000,0,0x00,0xCB
1.644729600000000,0,0x00,0x89
1.644827040000000,0,0x00,0x12
1.644924320000000,0,0x00,0x58
1.645021760000000,0,0x00,0x8F
1.645119200000000,0,0x00,0xC3
1.645216640000000,0,0x00,0x82
1.645314080000000,0,0x00,0x27
1.645411360000000,0,0x00,0xA6
1.645508800000000,0,0x00,0x66
1.645606240000000,0,0x00,0x66
1.645703680000000,0,0x00,0x62
1.645801120000000,0,0x00,0x4F
1.645898560000000,0,0x00,0xD3
1.645995840000000,0,0x00,0x55
1.646093280000000,0,0x00,0x55
1.646190720000000,0,0x00,0x55
1.646288160000000,0,0x00,0x55
1.646385600000000,0,0x00,0x55
1.646482880000000,0,0x00,0x6D
1.646580320000000,0,0x00,0x4F
1.646677760000000,0,0x00,0xFE
1.646775200000000,0,0x00,0x02
1.646872640000000,0,0x00,0xEB
1.646970080000000,0,0x00,0xA5
1.647067360000000,0,0x00,0x07
1.647164800000000,0,0x00,0x55
1.647262240000000,0,0x00,0x77
1.647359680000000,0,0x00,0x0F
1.647457120000000,0,0x00,0xFE
1.647554400000000,0,0x00,0x02
1.647651840000000,0,0x00,0xEB
1.647749280000000,0,0x00,0xA5
1.647846720000000,0,0x00,0x07
1.647944160000000,0,0x00,0x55
1.648041600000000,0,0x00,0x77
1.648138880000000,0,0x00,0x0F
1.648236320000000,0,0x00,0xC0
1.648333760000000,0,0x00,0x00
1.648431200000000,0,0x00,0x00
1.648528640000000,0,0x00,0x00
1.648625920000000,0,0x00,0x00
1.648723360000000,0,0x00,0x00
1.648820800000000,0,0x00,0x0C
1.648918240000000,0,0x00,0x10
1.649015680000000,0,0x00,0x00
1.649113120000000,0,0x00,0x00
1.649210400000000,0,0x00,0x00
1.649307840000000,0,0x00,0x00
1.649405280000000,0,0x00,0x00
1.649502720000000,0,0x00,0x00
1.649600160000000,0,0x00,0x2C
1.649697600000000,0,0x00,0x0F
1.649794880000000,0,0x00,0xC0
1.649892320000000,0,0x00,0x00
1.649989760000000,0,0x00,0x00
1.650087200000000,0,0x00,0x00
1.650184640000000,0,0x00,0x00
1.650281920000000,0,0x00,0x00
1.650379360000000,0,0x00,0x0C
1.650476800000000,0,0x00,0x10
1.650574240000000,0,0x00,0x00
1.650671680000000,0,0x00,0x00
1.650769120000000,0,0x00,0x00
1.650866400000000,0,0x00,0x00
1.650963840000000,0,0x00,0x00
1.651061280000000,0,0x00,0x00
1.651158720000000,0,0x00,0x2C
1.651256160000000,0,0x00,0x0F
1.651353440000000,0,0x00,0xC0
1.651450880000000,0,0x00,0x00
1.651548320000000,0,0x00,0x00
1.651645760000000,0,0x00,0x00
1.651743200000000,0,0x00,0x00
1.651840640000000,0,0x00,0x00
1.651937920000000,0,0x00,0x0C
1.652035360000000,0,0x00,0x10
1.652132800000000,0,0x00,0x00
1.652230240000000,0,0x00,0x00
1.652327680000000,0,0x00,0x00
1.652424960000000,0,0x00,0x00
1.652522400000000,0,0x00,0x00
1.652619840000000,0,0x00,0x00
1.652717280000000,0,0x00,0x2C
1.652814720000000,0,0x00,0x0F
1.652912160000000,0,0x00,0xC0
1.653009440000000,0,0x00,0x00
1.653106880000000,0,0x00,0x00
1.653204320000000,0,0x00,0x00
1.653301760000000,0,0x00,0x00
1.653399200000000,0,0x00,0x00
1.653496480000000,0,0x00,0x0C
1.653593920000000,0,0x00,0x10
1.653691360000000,0,0x00,0x20
1.653788800000000,0,0x00,0x33
1.653886240000000,0,0x00,0x24
1.653983680000000,0,0x00,0xB8
1.654080960000000,0,0x00,0xF7
1.654178400000000,0,0x00,0x53
1.654275840000000,0,0x00,0xBB
1.654373280000000,0,0x00,0xCF
1.654470720000000,0,0x00,0x9D
1.654568000000000,0,0x00,0x13
1.654665440000000,0,0x00,0x0E
1.654762880000000,0,0x00,0x38
1.654860320000000,0,0x00,0x1E
1.654957760000000,0,0x00,0x8B
1.655055200000000,0,0x00,0xC9
1.655152480000000,0,0x00,0x0F
1.655249920000000,0,0x00,0xE7
1.655347360000000,0,0x00,0xF3
1.655444800000000,0,0x00,0x75
1.655542240000000,0,0x00,0xC6
1.655639520000000,0,0x00,0x1F
1.655736960000000,0,0x00,0xB6
1.655834400000000,0,0x00,0x15
1.655931840000000,0,0x00,0x4F
1.656029280000000,0,0x00,0xE6
1.656126720000000,0,0x00,0x07
1.656224000000000,0,0x00,0x44
1.656321440000000,0,0x00,0xDB
1.656418880000000,0,0x00,0xAA
1.656516320000000,0,0x00,0xEC
1.656613760000000,0,0x00,0xA0
1.656711040000000,0,0x00,0xCF
1.656808480000000,0,0x00,0xDB
1.656905920000000,0,0x00,0x40
1.657003360000000,0,0x00,0x80
1.657100800000000,0,0x00,0xF5
1.657198240000000,0,0x00,0xC2
1.657295520000000,0,0x00,0x1A
1.657392960000000,0,0x00,0xEB
1.657490400000000,0,0x00,0x0F
1.657587840000000,0,0x00,0xF3
1.657685280000000,0,0x00,0xB1
1.657782560000000,0,0x00,0x20
1.657880000000000,0,0x00,0xBF
1.657977440000000,0,0x00,0xEF
1.658074880000000,0,0x00,0x6F
1.658172320000000,0,0x00,0xF3
1.658269760000000,0,0x00,0x8F
1.658367040000000,0,0x00,0xFB
1.658464480000000,0,0x00,0xCE
1.658561920000000,0,0x00,0x7E
1.658659360000000,0,0x00,0xBF
1.658756800000000,0,0x00,0x90
1.658854080000000,0,0x00,0x8B
1.658951520000000,0,0x00,0xB9
1.659048960000000,0,0x00,0x8F
1.659146400000000,0,0x00,0xC0
1.659243840000000,0,0x00,0x00
1.659341280000000,0,0x00,0x00
1.659438560000000,0,0x00,0x00
1.659536000000000,0,0x00,0x00
1.659633440000000,0,0x00,0x00
1.659730880000000,0,0x00,0x2C
1.659828320000000,0,0x00,0x0F
1.659925760000000,0,0x00,0xFF
1.660023040000000,0,0x00,0xFF
1.660120480000000,0,0x00,0xFF
1.660217920000000,0,0x00,0xFF
1.660315360000000,0,0x00,0xFF
1.660412800000000,0,0x00,0xFF
1.660510080000000,0,0x00,0xFB
1.660607520000000,0,0x00,0xFF
1.660704960000000,0,0x00,0xFF
1.660802400000000,0,0x00,0xFF
1.660899840000000,0,0x00,0xFF
1.660997280000000,0,0x00,0xFF
1.661094560000000,0,0x00,0xFF
1.661192000000000,0,0x00,0xFF
1.661289440000000,0,0x00,0xFB
1.661386880000000,0,0x00,0xDF
1.661484320000000,0,0x00,0xFF
1.661581600000000,0,0x00,0xFF
1.661679040000000,0,0x00,0xFF
1.661776480000000,0,0x00,0xFF
1.661873920000000,0,0x00,0xFF
1.661971360000000,0,0x00,0xFF
1.662068800000000,0,0x00,0xFB
1.662166080000000,0,0x00,0xDF
1.662263520000000,0,0x00,0xC0
1.662360960000000,0,0x00,0x00
1.662458400000000,0,0x00,0x00
1.662555840000000,0,0x00,0x00
1.662653120000000,0,0x00,0x00
1.662750560000000,0,0x00,0x00
1.662848000000000,0,0x00,0x3C
1.662945440000000,0,0x00,0x0F
1.663042880000000,0,0x00,0xC0
1.663140320000000,0,0x00,0x00
1.663237600000000,0,0x00,0x00
1.663335040000000,0,0x00,0x00
1.663432480000000,0,0x00,0x00
1.663529920000000,0,0x00,0x00
1.663627360000000,0,0x00,0x00
1.663724640000000,0,0x00,0x00
1.663822080000000,0,0x00,0x00
1.663919520000000,0,0x00,0x00
1.664016960000000,0,0x00,0x00
1.664114400000000,0,0x00,0x00
1.664211840000000,0,0x00,0x00
1.664309120000000,0,0x00,0x00
1.664406560000000,0,0x00,0x3C
1.664504000000000,0,0x00,0x0F
1.664601440000000,0,0x00,0xF6
1.664698880000000,0,0x00,0x64
1.664796160000000,0,0x00,0x29
1.664893600000000,0,0x00,0x28
1.664991040000000,0,0x00,0xAB
1.665088480000000,0,0x00,0xE9
1.665185920000000,0,0x00,0x3B
1.665283360000000,0,0x00,0x8F
1.665380640000000,0,0x00,0xE1
1.665478080000000,0,0x00,0xE9
1.665575520000000,0,0x00,0x3E
1.665672960000000,0,0x00,0xF7
1.665770400000000,0,0x00,0x06
1.665867680000000,0,0x00,0x16
1.665965120000000,0,0x00,0x3B
1.666062560000000,0,0x00,0x4F
1.666160000000000,0,0x00,0xE7
1.666257440000000,0,0x00,0x14
1.666354880000000,0,0x00,0xA1
1.666452160000000,0,0x00,0x77
1.666549600000000,0,0x00,0x66
1.666647040000000,0,0x00,0xC6
1.666744480000000,0,0x00,0x7B
1.666841920000000,0,0x00,0x0F
1.666939200000000,0,0x00,0xEB
1.667036640000000,0,0x00,0x74
1.667134080000000,0,0x00,0xD6
1.667231520000000,0,0x00,0xA6
1.667328960000000,0,0x00,0x67
1.667426400000000,0,0x00,0xFA
1.667523680000000,0,0x00,0x3A
1.667621120000000,0,0x00,0x8F
1.667718560000000,0,0x00,0xE4
1.667816000000000,0,0x00,0x3C
1.667913440000000,0,0x00,0x28
1.668010720000000,0,0x00,0xE0
1.668108160000000,0,0x00,0xA4
1.668205600000000,0,0x00,0x71
1.668303040000000,0,0x00,0x3A
1.668400480000000,0,0x00,0x4F
1.668497920000000,0,0x00,0xF6
1.668595200000000,0,0x00,0xE8
1.668692640000000,0,0x00,0x0A
1.668790080000000,0,0x00,0x90
1.668887520000000,0,0x00,0xB9
1.668984960000000,0,0x00,0x6B
1.669082240000000,0,0x00,0x3A
1.669179680000000,0,0x00,0x0F
1.669277120000000,0,0x00,0xE1
1.669374560000000,0,0x00,0x80
1.669472000000000,0,0x00,0x7A
1.669569440000000,0,0x00,0xDC
1.669666720000000,0,0x00,0xC5
1.669764160000000,0,0x00,0x28
1.669861600000000,0,0x00,0x79
1.669959040000000,0,0x00,0xCF
1.670056480000000,0,0x00,0xF3
1.670153760000000,0,0x00,0x0E
1.670251200000000,0,0x00,0xDF
1.670348640000000,0,0x00,0xD9
1.670446080000000,0,0x00,0xA7
1.670543520000000,0,0x00,0xA8
1.670640960000000,0,0x00,0x39
1.670738240000000,0,0x00,0x8F
1.670835680000000,0,0x00,0xCA
1.670933120000000,0,0x00,0x55
1.671030560000000,0,0x00,0x12
1.671128000000000,0,0x00,0x37
1.671225440000000,0,0x00,0x41
1.671322720000000,0,0x00,0xEA
1.671420160000000,0,0x00,0xF9
1.671517600000000,0,0x00,0x4F
1.671615040000000,0,0x00,0xC9
1.671712480000000,0,0x00,0xCA
1.671809760000000,0,0x00,0x8D
1.671907200000000,0,0x00,0xB5
1.672004640000000,0,0x00,0x76
1.672102080000000,0,0x00,0xAF
1.672199520000000,0,0x00,0xF9
1.672296960000000,0,0x00,0x0F
1.672394240000000,0,0x00,0xC8
1.672491680000000,0,0x00,0x8D
1.672589120000000,0,0x00,0x04
1.672686560000000,0,0x00,0x93
1.672784000000000,0,0x00,0x29
1.672881280000000,0,0x00,0xB7
1.672978720000000,0,0x00,0xB8
1.673076160000000,0,0x00,0xCF
1.673173600000000,0,0x00,0xC5
1.673271040000000,0,0x00,0x6D
1.673368480000000,0,0x00,0xCC
1.673465760000000,0,0x00,0x42
1.673563200000000,0,0x00,0xBF
1.673660640000000,0,0x00,0x81
1.673758080000000,0,0x00,0xB8
1.673855520000000,0,0x00,0xCF
1.673952800000000,0,0x00,0xCE
1.674050240000000,0,0x00,0x18
1.674147680000000,0,0x00,0x9D
1.674245120000000,0,0x00,0x5B
1.674342560000000,0,0x00,0x9E
1.674440000000000,0,0x00,0x8E
1.674537280000000,0,0x00,0x38
1.674634720000000,0,0x00,0x8F
1.674732160000000,0,0x00,0xDE
1.674829600000000,0,0x00,0x94
1.674927040000000,0,0x00,0x5F
1.675024320000000,0,0x00,0x4F
1.675121760000000,0,0x00,0x2E
1.675219200000000,0,0x00,0x1C
1.675316640000000,0,0x00,0xB8
1.675414080000000,0,0x00,0x4F
1.675511520000000,0,0x00,0xC3
1.675608800000000,0,0x00,0xE2
1.675706240000000,0,0x00,0x7E
1.675803680000000,0,0x00,0x5B
1.675901120000000,0,0x00,0x16
1.675998560000000,0,0x00,0x2D
1.676095840000000,0,0x00,0x78
1.676193280000000,0,0x00,0x0F
1.676290720000000,0,0x00,0xC0
1.676388160000000,0,0x00,0x00
1.676485600000000,0,0x00,0x00
1.676583040000000,0,0x00,0x00
1.676680320000000,0,0x00,0x00
1.676777760000000,0,0x00,0x00
1.676875200000000,0,0x00,0x38
1.676972640000000,0,0x00,0x0F
1.677070080000000,0,0x00,0xC0
1.677167360000000,0,0x00,0x00
1.677264800000000,0,0x00,0x00
1.677362240000000,0,0x00,0x00
1.677459680000000,0,0x00,0x00
1.677557120000000,0,0x00,0x00
1.677654560000000,0,0x00,0x00
1.677751840000000,0,0x00,0x00
1.677849280000000,0,0x00,0x00
1.677946720000000,0,0x00,0x00
1.678044160000000,0,0x00,0x0C
1.678141600000000,0,0x00,0x9D
1.678238880000000,0,0x00,0x3B
1.678336320000000,0,0x00,0xAC
1.678433760000000,0,0x00,0x64
1.678531200000000,0,0x00,0x0F
1.678628640000000,0,0x00,0x00
1.678726080000000,0,0x00,0x00
1.678823360000000,0,0x00,0x14
1.678920800000000,0,0x00,0x22
1.679018240000000,0,0x00,0x59
1.679115680000000,0,0x00,0x44
1.679213120000000,0,0x00,0x1C
1.679310400000000,0,0x00,0x4F
1.679407840000000,0,0x00,0x00
1.679505280000000,0,0x00,0x00
1.679602720000000,0,0x00,0x1C
1.679700160000000,0,0x00,0x2C
1.679797600000000,0,0x00,0x11
1.679894880000000,0,0x00,0x9F
1.679992320000000,0,0x00,0x1B
1.680089760000000,0,0x00,0x0F
1.680187200000000,0,0x00,0x00
1.680284640000000,0,0x00,0x00
1.680381920000000,0,0x00,0x1F
1.680479360000000,0,0x00,0xC1
1.680576800000000,0,0x00,0x28
1.680674240000000,0,0x00,0xBE
1.680771680000000,0,0x00,0xA6
1.680869120000000,0,0x00,0x8F
1.680966400000000,0,0x00,0x00
1.681063840000000,0,0x00,0x00
1.681161280000000,0,0x00,0x11
1.681258720000000,0,0x00,0x81
1.681356160000000,0,0x00,0x53
1.681453600000000,0,0x00,0x0C
1.681550880000000,0,0x00,0xA1
1.681648320000000,0,0x00,0x8F
1.681745760000000,0,0x00,0x00
1.681843200000000,0,0x00,0x00
1.681940640000000,0,0x00,0x3C
1.682037920000000,0,0x00,0x04
1.682135360000000,0,0x00,0x42
1.682232800000000,0,0x00,0x76
1.682330240000000,0,0x00,0x9E
1.682427680000000,0,0x00,0x8F
1.682525120000000,0,0x00,0x00
1.682622400000000,0,0x00,0x00
1.682719840000000,0,0x00,0x32
1.682817280000000,0,0x00,0x2D
1.682914720000000,0,0x00,0x9F
1.683012160000000,0,0x00,0xAC
1.683109440000000,0,0x00,0x22
1.683206880000000,0,0x00,0x4F
1.683304320000000,0,0x00,0x00
1.683401760000000,0,0x00,0x00
1.683499200000000,0,0x00,0x37
1.683596640000000,0,0x00,0x12
1.683693920000000,0,0x00,0x8B
1.683791360000000,0,0x00,0xA9
1.683888800000000,0,0x00,0xA2
1.683986240000000,0,0x00,0x0F
1.684083680000000,0,0x00,0x00
1.684180960000000,0,0x00,0x00
1.684278400000000,0,0x00,0x00
1.684375840000000,0,0x00,0x00
1.684473280000000,0,0x00,0x00
1.684570720000000,0,0x00,0x00
1.684668160000000,0,0x00,0x00
1.684765440000000,0,0x00,0x0C
1.684862880000000,0,0x00,0x00
1.684960320000000,0,0x00,0x00
1.685057760000000,0,0x00,0x00
1.685155200000000,0,0x00,0x14
1.685252480000000,0,0x00,0xBE
1.685349920000000,0,0x00,0xC8
1.685447360000000,0,0x00,0x72
1.685544800000000,0,0x00,0x50
1.685642240000000,0,0x00,0x71
1.685739680000000,0,0x00,0x00
1.685836960000000,0,0x00,0x80
1.685934400000000,0,0x00,0x00
1.686031840000000,0,0x00,0x00
1.686129280000000,0,0x00,0x00
1.686226720000000,0,0x00,0x14
1.686324000000000,0,0x00,0x0F
1.686421440000000,0,0x00,0xA0
1.686518880000000,0,0x00,0xF2
1.686616320000000,0,0x00,0x32
1.686713760000000,0,0x00,0x5B
1.686811200000000,0,0x00,0x4C
1.686908480000000,0,0x00,0x17
1.687005920000000,0,0x00,0xF5
1.687103360000000,0,0x00,0x0F
1.687200800000000,0,0x00,0xC0
1.687298240000000,0,0x00,0x00
1.687395520000000,0,0x00,0x00
1.687492960000000,0,0x00,0x00
1.687590400000000,0,0x00,0x00
1.687687840000000,0,0x00,0x00
1.687785280000000,0,0x00,0x38
1.687882720000000,0,0x00,0x0F
1.687980000000000,0,0x00,0xC0
1.688077440000000,0,0x00,0x00
1.688174880000000,0,0x00,0x00
1.688272320000000,0,0x00,0x00
1.688369760000000,0,0x00,0x00
1.688467040000000,0,0x00,0x08
1.688564480000000,0,0x00,0x82
1.688661920000000,0,0x00,0x50
1.688759360000000,0,0x00,0x00
1.688856800000000,0,0x00,0x00
1.688954240000000,0,0x00,0x00
1.689051520000000,0,0x00,0x14
1.689148960000000,0,0x00,0x3B
1.689246400000000,0,0x00,0xEB
1.689343840000000,0,0x00,0xB8
1.689441280000000,0,0x00,0xAF
1.689538560000000,0,0x00,0x85
1.689636000000000,0,0x00,0xF1
1.689733440000000,0,0x00,0x63
1.689830880000000,0,0x00,0x22
1.689928320000000,0,0x00,0x5A
1.690025760000000,0,0x00,0x61
1.690123040000000,0,0x00,0x10
1.690220480000000,0,0x00,0x4F
1.690317920000000,0,0x00,0x65
1.690415360000000,0,0x00,0x77
1.690512800000000,0,0x00,0xE4
1.690610080000000,0,0x00,0xDA
1.690707520000000,0,0x00,0x7F
1.690804960000000,0,0x00,0xE0
1.690902400000000,0,0x00,0x3A
1.690999840000000,0,0x00,0x0F
1.691097280000000,0,0x00,0x27
1.691194560000000,0,0x00,0x12
1.691292000000000,0,0x00,0x42
1.691389440000000,0,0x00,0x37
1.691486880000000,0,0x00,0x08
1.691584320000000,0,0x00,0x39
1.691681600000000,0,0x00,0x1A
1.691779040000000,0,0x00,0xAF
1.691876480000000,0,0x00,0x4C
1.691973920000000,0,0x00,0x35
1.692071360000000,0,0x00,0x1A
1.692168800000000,0,0x00,0x9A
1.692266080000000,0,0x00,0x0F
1.692363520000000,0,0x00,0x04
1.692460960000000,0,0x00,0xB9
1.692558400000000,0,0x00,0x8F
1.692655840000000,0,0x00,0x6A
1.692753280000000,0,0x00,0xF0
1.692850560000000,0,0x00,0x17
1.692948000000000,0,0x00,0x52
1.693045440000000,0,0x00,0xD1
1.693142880000000,0,0x00,0x79
1.693240320000000,0,0x00,0x96
1.693337600000000,0,0x00,0xAF
1.693435040000000,0,0x00,0x98
1.693532480000000,0,0x00,0xFC
1.693629920000000,0,0x00,0x09
1.693727360000000,0,0x00,0x29
1.693824800000000,0,0x00,0x78
1.693922080000000,0,0x00,0xC7
1.694019520000000,0,0x00,0x71
1.694116960000000,0,0x00,0xCF
1.694214400000000,0,0x00,0x86
1.694311840000000,0,0x00,0x8F
1.694409120000000,0,0x00,0x80
1.694506560000000,0,0x00,0x46
1.694604000000000,0,0x00,0xA8
1.694701440000000,0,0x00,0x00
1.694798880000000,0,0x00,0x4A
1.694896320000000,0,0x00,0xAF
1.694993600000000,0,0x00,0xEC
1.695091040000000,0,0x00,0x04
1.695188480000000,0,0x00,0x04
1.695285920000000,0,0x00,0x44
1.695383360000000,0,0x00,0x44
1.695480640000000,0,0x00,0x44
1.695578080000000,0,0x00,0x60
1.695675520000000,0,0x00,0x4F
1.695772960000000,0,0x00,0xD5
1.695870400000000,0,0x00,0x55
1.695967840000000,0,0x00,0x55
1.696065120000000,0,0x00,0x55
1.696162560000000,0,0x00,0x55
1.696260000000000,0,0x00,0x55
1.696357440000000,0,0x00,0x71
1.696454880000000,0,0x00,0x6F
1.696552160000000,0,0x00,0xC0
1.696649600000000,0,0x00,0x00
1.696747040000000,0,0x00,0x00
1.696844480000000,0,0x00,0x00
1.696941920000000,0,0x00,0x00
1.697039360000000,0,0x00,0x00
1.697136640000000,0,0x00,0x3C
1.697234080000000,0,0x00,0x2F
1.697331520000000,0,0x00,0xC0
1.697428960000000,0,0x00,0x00
1.697526400000000,0,0x00,0x00
1.697623680000000,0,0x00,0x00
1.697721120000000,0,0x00,0x00
1.697818560000000,0,0x00,0x00
1.697916000000000,0,0x00,0x3C
1.698013440000000,0,0x00,0x0F
1.698110880000000,0,0x00,0xC0
1.698208160000000,0,0x00,0x00
1.698305600000000,0,0x00,0x00
1.698403040000000,0,0x00,0x00
1.698500480000000,0,0x00,0x00
1.698597920000000,0,0x00,0x00
1.698695200000000,0,0x00,0x3C
1.698792640000000,0,0x00,0x0F
1.698890080000000,0,0x00,0xDF
1.698987520000000,0,0x00,0x0E
1.699084960000000,0,0x00,0xBE
1.699182400000000,0,0x00,0xBF
1.699279680000000,0,0x00,0x90
1.699377120000000,0,0x00,0x8B
1.699474560000000,0,0x00,0xA1
1.699572000000000,0,0x00,0x90
1.699669440000000,0,0x00,0x00
1.699766720000000,0,0x00,0x00
1.699864160000000,0,0x00,0x00
1.699961600000000,0,0x00,0x00
1.700059040000000,0,0x00,0x18
1.700156480000000,0,0x00,0x0B
1.700253920000000,0,0x00,0xB9
1.700351200000000,0,0x00,0x8F
1.700448640000000,0,0x00,0xDF
1.700546080000000,0,0x00,0x0E
1.700643520000000,0,0x00,0xBE
1.700740960000000,0,0x00,0xBF
1.700838240000000,0,0x00,0x90
1.700935680000000,0,0x00,0x8B
1.701033120000000,0,0x00,0xA1
1.701130560000000,0,0x00,0x90
1.701228000000000,0,0x00,0x00
1.701325440000000,0,0x00,0x00
1.701422720000000,0,0x00,0x00
1.701520160000000,0,0x00,0x00
1.701617600000000,0,0x00,0x00
1.701715040000000,0,0x00,0x00
1.701812480000000,0,0x00,0x2C
1.701909760000000,0,0x00,0x0F
1.702007200000000,0,0x00,0x3F
1.702104640000000,0,0x00,0xFF
1.702202080000000,0,0x00,0xFF
1.702299520000000,0,0x00,0xFF
1.702396960000000,0,0x00,0xFF
1.702494240000000,0,0x00,0xFF
1.702591680000000,0,0x00,0xFB
1.702689120000000,0,0x00,0xFF
1.702786560000000,0,0x00,0xFF
1.702884000000000,0,0x00,0xFF
1.702981280000000,0,0x00,0xFF
1.703078720000000,0,0x00,0xFF
1.703176160000000,0,0x00,0xFF
1.703273600000000,0,0x00,0xFF
1.703371040000000,0,0x00,0xFB
1.703468480000000,0,0x00,0xDF
1.703565760000000,0,0x00,0xF5
1.703663200000000,0,0x00,0x80
1.703760640000000,0,0x00,0x80
1.703858080000000,0,0x00,0xBA
1.703955520000000,0,0x00,0xC4
1.704052960000000,0,0x00,0x80
1.704150240000000,0,0x00,0x7B
1.704247680000000,0,0x00,0x4F
1.704345120000000,0,0x00,0x80
1.704442560000000,0,0x00,0x00
1.704540000000000,0,0x00,0x00
1.704637280000000,0,0x00,0x00
1.704734720000000,0,0x00,0x00
1.704832160000000,0,0x00,0x00
1.704929600000000,0,0x00,0x38
1.705027040000000,0,0x00,0x0F
1.705124480000000,0,0x00,0xC0
1.705221760000000,0,0x00,0x00
1.705319200000000,0,0x00,0x00
1.705416640000000,0,0x00,0x00
1.705514080000000,0,0x00,0x00
1.705611520000000,0,0x00,0x00
1.705708800000000,0,0x00,0x38
1.705806240000000,0,0x00,0x2F
1.705903680000000,0,0x00,0xC6
1.706001120000000,0,0x00,0xF2
1.706098560000000,0,0x00,0x1B
1.706196000000000,0,0x00,0xEE
1.706293280000000,0,0x00,0x39
1.706390720000000,0,0x00,0xD1
1.706488160000000,0,0x00,0x3A
1.706585600000000,0,0x00,0x6F
1.706683040000000,0,0x00,0xD2
1.706780320000000,0,0x00,0xAF
1.706877760000000,0,0x00,0xA1
1.706975200000000,0,0x00,0x58
1.707072640000000,0,0x00,0xD0
1.707170080000000,0,0x00,0x5E
1.707267520000000,0,0x00,0x19
1.707364800000000,0,0x00,0x30
1.707462240000000,0,0x00,0x24
1.707559680000000,0,0x00,0x05
1.707657120000000,0,0x00,0x25
1.707754560000000,0,0x00,0x2D
1.707851840000000,0,0x00,0xB0
1.707949280000000,0,0x00,0xA5
1.708046720000000,0,0x00,0x71
1.708144160000000,0,0x00,0xB0
1.708241600000000,0,0x00,0x06
1.708339040000000,0,0x00,0x4D
1.708436320000000,0,0x00,0x14
1.708533760000000,0,0x00,0xD5
1.708631200000000,0,0x00,0x84
1.708728640000000,0,0x00,0xDE
1.708826080000000,0,0x00,0x45
1.708923360000000,0,0x00,0x70
1.709020800000000,0,0x00,0x7C
1.709118240000000,0,0x00,0x9F
1.709215680000000,0,0x00,0xF2
1.709313120000000,0,0x00,0x60
1.709410560000000,0,0x00,0x70
1.709507840000000,0,0x00,0xD6
1.709605280000000,0,0x00,0xDC
1.709702720000000,0,0x00,0x70
1.709800160000000,0,0x00,0x31
1.709897600000000,0,0x00,0xD7
1.709994880000000,0,0x00,0xAD
1.710092320000000,0,0x00,0x88
1.710189760000000,0,0x00,0xD5
1.710287200000000,0,0x00,0xEA
1.710384640000000,0,0x00,0x38
1.710482080000000,0,0x00,0x50
1.710579360000000,0,0x00,0x04
1.710676800000000,0,0x00,0xD9
1.710774240000000,0,0x00,0xEF
1.710871680000000,0,0x00,0xA0
1.710969120000000,0,0x00,0x33
1.711066400000000,0,0x00,0x86
1.711163840000000,0,0x00,0x90
1.711261280000000,0,0x00,0x30
1.711358720000000,0,0x00,0x40
1.711456160000000,0,0x00,0x00
1.711553600000000,0,0x00,0x00
1.711650880000000,0,0x00,0x00
1.711748320000000,0,0x00,0x00
1.711845760000000,0,0x00,0x00
1.711943200000000,0,0x00,0x3C
1.712040640000000,0,0x00,0x2F
1.712137920000000,0,0x00,0xC0
1.712235360000000,0,0x00,0x00
1.712332800000000,0,0x00,0x00
1.712430240000000,0,0x00,0x00
1.712527680000000,0,0x00,0x00
1.712625120000000,0,0x00,0x00
1.712722400000000,0,0x00,0x3C
1.712819840000000,0,0x00,0x0F
1.712917280000000,0,0x00,0xD0
1.713014720000000,0,0x00,0x4B
1.713112160000000,0,0x00,0x73
1.713209440000000,0,0x00,0xB4
1.713306880000000,0,0x00,0xBA
1.713404320000000,0,0x00,0x39
1.713501760000000,0,0x00,0xD2
1.713599200000000,0,0x00,0x3E
1.713696640000000,0,0x00,0x1F
1.713793920000000,0,0x00,0x2B
1.713891360000000,0,0x00,0x10
1.713988800000000,0,0x00,0x8B
1.714086240000000,0,0x00,0x4C
1.714183680000000,0,0x00,0x4B
1.714281120000000,0,0x00,0x57
1.714378400000000,0,0x00,0x7A
1.714475840000000,0,0x00,0x88
1.714573280000000,0,0x00,0x44
1.714670720000000,0,0x00,0x27
1.714768160000000,0,0x00,0xBE
1.714865440000000,0,0x00,0x00
1.714962880000000,0,0x00,0x00
1.715060320000000,0,0x00,0x00
1.715157760000000,0,0x00,0x00
1.715255200000000,0,0x00,0x00
1.715352640000000,0,0x00,0x00
1.715449920000000,0,0x00,0x00
1.715547360000000,0,0x00,0x0C
1.715644800000000,0,0x00,0x00
1.715742240000000,0,0x00,0x00
1.715839680000000,0,0x00,0x00
1.715936960000000,0,0x00,0x14
1.716034400000000,0,0x00,0x3E
1.716131840000000,0,0x00,0xC8
1.716229280000000,0,0x00,0x6E
1.716326720000000,0,0x00,0x50
1.716424160000000,0,0x00,0x40
1.716521440000000,0,0x00,0x00
1.716618880000000,0,0x00,0x00
1.716716320000000,0,0x00,0x14
1.716813760000000,0,0x00,0x3E
1.716911200000000,0,0x00,0xC8
1.717008480000000,0,0x00,0x6E
1.717105920000000,0,0x00,0x70
1.717203360000000,0,0x00,0x71
1.717300800000000,0,0x00,0x00
1.717398240000000,0,0x00,0x80
1.717495680000000,0,0x00,0x00
1.717592960000000,0,0x00,0x00
1.717690400000000,0,0x00,0x00
1.717787840000000,0,0x00,0x14
1.717885280000000,0,0x00,0x0F
1.717982720000000,0,0x00,0xA0
1.718080000000000,0,0x00,0xF2
1.718177440000000,0,0x00,0x32
1.718274880000000,0,0x00,0x5B
1.718372320000000,0,0x00,0x4C
1.718469760000000,0,0x00,0x17
1.718567200000000,0,0x00,0xF9
1.718664480000000,0,0x00,0x0F
1.718761920000000,0,0x00,0xC0
1.718859360000000,0,0x00,0x00
1.718956800000000,0,0x00,0x00
1.719054240000000,0,0x00,0x00
1.719151520000000,0,0x00,0x00
1.719248960000000,0,0x00,0x00
1.719346400000000,0,0x00,0x38
1.719443840000000,0,0x00,0x2F
1.719541280000000,0,0x00,0xC0
1.719638720000000,0,0x00,0x00
1.719736000000000,0,0x00,0x00
1.719833440000000,0,0x00,0x00
1.719930880000000,0,0x00,0x00
1.720028320000000,0,0x00,0x00
1.720125760000000,0,0x00,0x38
1.720223040000000,0,0x00,0x0F
1.720320480000000,0,0x00,0xC0
1.720417920000000,0,0x00,0x00
1.720515360000000,0,0x00,0x00
1.720612800000000,0,0x00,0x00
1.720710240000000,0,0x00,0x00
1.720807520000000,0,0x00,0x08
1.720904960000000,0,0x00,0xBE
1.721002400000000,0,0x00,0x4F
1.721099840000000,0,0x00,0xC0
1.721197280000000,0,0x00,0x00
1.721294560000000,0,0x00,0x00
1.721392000000000,0,0x00,0x14
1.721489440000000,0,0x00,0x3B
1.721586880000000,0,0x00,0xEB
1.721684320000000,0,0x00,0xB4
1.721781760000000,0,0x00,0xAF
1.721879040000000,0,0x00,0x85
1.721976480000000,0,0x00,0xF1
1.722073920000000,0,0x00,0x63
1.722171360000000,0,0x00,0x22
1.722268800000000,0,0x00,0x5A
1.722366080000000,0,0x00,0x61
1.722463520000000,0,0x00,0x0C
1.722560960000000,0,0x00,0x4F
1.722658400000000,0,0x00,0x7A
1.722755840000000,0,0x00,0x5E
1.722853280000000,0,0x00,0x1D
1.722950560000000,0,0x00,0xBC
1.723048000000000,0,0x00,0x1D
1.723145440000000,0,0x00,0x2D
1.723242880000000,0,0x00,0xE8
1.723340320000000,0,0x00,0x0F
1.723437600000000,0,0x00,0x90
1.723535040000000,0,0x00,0x52
1.723632480000000,0,0x00,0x02
1.723729920000000,0,0x00,0x66
1.723827360000000,0,0x00,0x59
1.723924800000000,0,0x00,0x1B
1.724022080000000,0,0x00,0xCD
1.724119520000000,0,0x00,0x2F
1.724216960000000,0,0x00,0xD6
1.724314400000000,0,0x00,0x48
1.724411840000000,0,0x00,0x5F
1.724509120000000,0,0x00,0xA8
1.724606560000000,0,0x00,0x67
1.724704000000000,0,0x00,0x91
1.724801440000000,0,0x00,0xE6
1.724898880000000,0,0x00,0x8F
1.724996320000000,0,0x00,0xF5
1.725093600000000,0,0x00,0x76
1.725191040000000,0,0x00,0x7E
1.725288480000000,0,0x00,0xD1
1.725385920000000,0,0x00,0xEC
1.725483360000000,0,0x00,0x37
1.725580800000000,0,0x00,0xB7
1.725678080000000,0,0x00,0x6F
1.725775520000000,0,0x00,0xC0
1.725872960000000,0,0x00,0x00
1.725970400000000,0,0x00,0x00
1.726067840000000,0,0x00,0x00
1.726165120000000,0,0x00,0x00
1.726262560000000,0,0x00,0x00
1.726360000000000,0,0x00,0x3C
1.726457440000000,0,0x00,0x0F
1.726554880000000,0,0x00,0xC8
1.726652320000000,0,0x00,0xF1
1.726749600000000,0,0x00,0xE8
1.726847040000000,0,0x00,0x8B
1.726944480000000,0,0x00,0xAD
1.727041920000000,0,0x00,0xEE
1.727139360000000,0,0x00,0xBC
1.727236640000000,0,0x00,0xAF
1.727334080000000,0,0x00,0xB7
1.727431520000000,0,0x00,0xEA
1.727528960000000,0,0x00,0x8E
1.727626400000000,0,0x00,0xE9
1.727723840000000,0,0x00,0xA0
1.727821120000000,0,0x00,0x83
1.727918560000000,0,0x00,0x9B
1.728016000000000,0,0x00,0x0F
1.728113440000000,0,0x00,0xC0
1.728210880000000,0,0x00,0x02
1.728308160000000,0,0x00,0x53
1.728405600000000,0,0x00,0x79
1.728503040000000,0,0x00,0x6D
1.728600480000000,0,0x00,0x44
1.728697920000000,0,0x00,0xB0
1.728795360000000,0,0x00,0x6F
1.728892640000000,0,0x00,0xC0
1.728990080000000,0,0x00,0x00
1.729087520000000,0,0x00,0x00
1.729184960000000,0,0x00,0x00
1.729282400000000,0,0x00,0x00
1.729379680000000,0,0x00,0x00
1.729477120000000,0,0x00,0x3C
1.729574560000000,0,0x00,0x2F
1.729672000000000,0,0x00,0xE4
1.729769440000000,0,0x00,0x8E
1.729866880000000,0,0x00,0x49
1.729964160000000,0,0x00,0xDE
1.730061600000000,0,0x00,0xD3
1.730159040000000,0,0x00,0xD7
1.730256480000000,0,0x00,0x8C
1.730353920000000,0,0x00,0x90
1.730451200000000,0,0x00,0x02
1.730548640000000,0,0x00,0xC0
1.730646080000000,0,0x00,0xEB
1.730743520000000,0,0x00,0x5E
1.730840960000000,0,0x00,0xBA
1.730938400000000,0,0x00,0xA4
1.731035680000000,0,0x00,0xF8
1.731133120000000,0,0x00,0x4F
1.731230560000000,0,0x00,0xC0
1.731328000000000,0,0x00,0x00
1.731425440000000,0,0x00,0x00
1.731522720000000,0,0x00,0x00
1.731620160000000,0,0x00,0x00
1.731717600000000,0,0x00,0x00
1.731815040000000,0,0x00,0x2C
1.731912480000000,0,0x00,0x0F
1.732009920000000,0,0x00,0x00
1.732107200000000,0,0x00,0x00
1.732204640000000,0,0x00,0x00
1.732302080000000,0,0x00,0x00
1.732399520000000,0,0x00,0x00
1.732496960000000,0,0x00,0x00
1.732594240000000,0,0x00,0x3C
1.732691680000000,0,0x00,0x0F
1.732789120000000,0,0x00,0xC0
1.732886560000000,0,0x00,0x00
1.732984000000000,0,0x00,0x00
1.733081440000000,0,0x00,0x00
1.733178720000000,0,0x00,0x00
1.733276160000000,0,0x00,0x00
1.733373600000000,0,0x00,0x00
1.733471040000000,0,0x00,0x10
1.733568480000000,0,0x00,0x00
1.733665760000000,0,0x00,0x00
1.733763200000000,0,0x00,0x00
1.733860640000000,0,0x00,0x00
1.733958080000000,0,0x00,0x00
1.734055520000000,0,0x00,0x00
1.734152960000000,0,0x00,0x3C
1.734250240000000,0,0x00,0x0F
1.734347680000000,0,0x00,0xDF
1.734445120000000,0,0x00,0xE9
1.734542560000000,0,0x00,0xFE
1.734640000000000,0,0x00,0xF3
1.734737280000000,0,0x00,0x8A
1.734834720000000,0,0x00,0x37
1.734932160000000,0,0x00,0x3B
1.735029600000000,0,0x00,0xAF
1.735127040000000,0,0x00,0xF3
1.735224480000000,0,0x00,0x17
1.735321760000000,0,0x00,0x2E
1.735419200000000,0,0x00,0xA8
1.735516640000000,0,0x00,0x5D
1.735614080000000,0,0x00,0x73
1.735711520000000,0,0x00,0x96
1.735808960000000,0,0x00,0x30
1.735906240000000,0,0x00,0x06
1.736003680000000,0,0x00,0x07
1.736101120000000,0,0x00,0xAF
1.736198560000000,0,0x00,0xB2
1.736296000000000,0,0x00,0x69
1.736393280000000,0,0x00,0x4D
1.736490720000000,0,0x00,0x66
1.736588160000000,0,0x00,0x70
1.736685600000000,0,0x00,0x3E
1.736783040000000,0,0x00,0xBD
1.736880480000000,0,0x00,0xFA
1.736977760000000,0,0x00,0xF8
1.737075200000000,0,0x00,0x6A
1.737172640000000,0,0x00,0x4B
1.737270080000000,0,0x00,0xD7
1.737367520000000,0,0x00,0x10
1.737464800000000,0,0x00,0x3C
1.737562240000000,0,0x00,0xFC
1.737659680000000,0,0x00,0x00
1.737757120000000,0,0x00,0x53
1.737854560000000,0,0x00,0x62
1.737952000000000,0,0x00,0xDC
1.738049280000000,0,0x00,0xE8
1.738146720000000,0,0x00,0x50
1.738244160000000,0,0x00,0x24
1.738341600000000,0,0x00,0xE5
1.738439040000000,0,0x00,0x93
1.738536320000000,0,0x00,0x95
1.738633760000000,0,0x00,0xCF
1.738731200000000,0,0x00,0x3A
1.738828640000000,0,0x00,0x2C
1.738926080000000,0,0x00,0x90
1.739023520000000,0,0x00,0x00
1.739120800000000,0,0x00,0x00
1.739218240000000,0,0x00,0x00
1.739315680000000,0,0x00,0x00
1.739413120000000,0,0x00,0x00
1.739510560000000,0,0x00,0x00
1.739607840000000,0,0x00,0x3C
1.739705280000000,0,0x00,0x2F
1.739802720000000,0,0x00,0xC0
1.739900160000000,0,0x00,0x00
1.739997600000000,0,0x00,0x00
1.740095040000000,0,0x00,0x00
1.740192320000000,0,0x00,0x00
1.740289760000000,0,0x00,0x00
1.740387200000000,0,0x00,0x3C
1.740484640000000,0,0x00,0x0F
1.740582080000000,0,0x00,0xCF
1.740679360000000,0,0x00,0xD4
1.740776800000000,0,0x00,0x44
1.740874240000000,0,0x00,0xC1
1.740971680000000,0,0x00,0x27
1.741069120000000,0,0x00,0x3C
1.741166560000000,0,0x00,0xE6
1.741263840000000,0,0x00,0xD3
1.741361280000000,0,0x00,0x5C
1.741458720000000,0,0x00,0xA5
1.741556160000000,0,0x00,0x8E
1.741653600000000,0,0x00,0x50
1.741750880000000,0,0x00,0x6D
1.741848320000000,0,0x00,0x8A
1.741945760000000,0,0x00,0xE5
1.742043200000000,0,0x00,0xEB
1.742140640000000,0,0x00,0x70
1.742238080000000,0,0x00,0x17
1.742335360000000,0,0x00,0x68
1.742432800000000,0,0x00,0xCB
1.742530240000000,0,0x00,0x41
1.742627680000000,0,0x00,0x27
1.742725120000000,0,0x00,0xE5
1.742822400000000,0,0x00,0x53
1.742919840000000,0,0x00,0xCF
1.743017280000000,0,0x00,0xD4
1.743114720000000,0,0x00,0x44
1.743212160000000,0,0x00,0xC1
1.743309600000000,0,0x00,0x27
1.743406880000000,0,0x00,0x3C
1.743504320000000,0,0x00,0xE6
1.743601760000000,0,0x00,0xD3
1.743699200000000,0,0x00,0x5C
1.743796640000000,0,0x00,0xA5
1.743893920000000,0,0x00,0x8E
1.743991360000000,0,0x00,0x50
1.744088800000000,0,0x00,0x6D
1.744186240000000,0,0x00,0x8A
1.744283680000000,0,0x00,0xE5
1.744381120000000,0,0x00,0xEB
1.744478400000000,0,0x00,0x70
1.744575840000000,0,0x00,0x17
1.744673280000000,0,0x00,0x68
1.744770720000000,0,0x00,0xCB
1.744868160000000,0,0x00,0x41
1.744965440000000,0,0x00,0x27
1.745062880000000,0,0x00,0xE5
1.745160320000000,0,0x00,0x53
1.745257760000000,0,0x00,0xEF
1.745355200000000,0,0x00,0x8A
1.745452640000000,0,0x00,0x3E
1.745549920000000,0,0x00,0xFF
1.745647360000000,0,0x00,0xEB
1.745744800000000,0,0x00,0xBC
1.745842240000000,0,0x00,0x9B
1.745939680000000,0,0x00,0xBF
1.746036960000000,0,0x00,0x96
1.746134400000000,0,0x00,0xC3
1.746231840000000,0,0x00,0x64
1.746329280000000,0,0x00,0x7D
1.746426720000000,0,0x00,0x8F
1.746524160000000,0,0x00,0xC0
1.746621440000000,0,0x00,0x80
1.746718880000000,0,0x00,0x00
1.746816320000000,0,0x00,0x38
1.746913760000000,0,0x00,0xDF
1.747011200000000,0,0x00,0xE4
1.747108640000000,0,0x00,0x80
1.747205920000000,0,0x00,0x49
1.747303360000000,0,0x00,0xB3
1.747400800000000,0,0x00,0x58
1.747498240000000,0,0x00,0x44
1.747595680000000,0,0x00,0xD6
1.747692960000000,0,0x00,0x01
1.747790400000000,0,0x00,0xCD
1.747887840000000,0,0x00,0x3E
1.747985280000000,0,0x00,0xE0
1.748082720000000,0,0x00,0x19
1.748180160000000,0,0x00,0x16
1.748277440000000,0,0x00,0x40
1.748374880000000,0,0x00,0x13
1.748472320000000,0,0x00,0x75
1.748569760000000,0,0x00,0x54
1.748667200000000,0,0x00,0x80
1.748764480000000,0,0x00,0xA2
1.748861920000000,0,0x00,0x00
1.748959360000000,0,0x00,0xC0
1.749056800000000,0,0x00,0x00
1.749154240000000,0,0x00,0x00
1.749251680000000,0,0x00,0x00
1.749348960000000,0,0x00,0x00
1.749446400000000,0,0x00,0x40
1.749543840000000,0,0x00,0x40
1.749641280000000,0,0x00,0x80
1.749738720000000,0,0x00,0x80
1.749836000000000,0,0x00,0x80
1.749933440000000,0,0x00,0x80
1.750030880000000,0,0x00,0xC0
1.750128320000000,0,0x00,0xC0
1.750225760000000,0,0x00,0xC0
1.750323200000000,0,0x00,0xC0
1.750420480000000,0,0x00,0xC0
1.750517920000000,0,0x00,0xC0
1.750615360000000,0,0x00,0xC0
1.750712800000000,0,0x00,0xC1
1.750810240000000,0,0x00,0x01
1.750907520000000,0,0x00,0x01
1.751004960000000,0,0x00,0x01
1.751102400000000,0,0x00,0x01
1.751199840000000,0,0x00,0x01
1.751297280000000,0,0x00,0x01
1.751394720000000,0,0x00,0x01
1.751492000000000,0,0x00,0x01
1.751589440000000,0,0x00,0x01
1.751686880000000,0,0x00,0x01
1.751784320000000,0,0x00,0x01
1.751881760000000,0,0x00,0x01
1.751979040000000,0,0x00,0x01
1.752076480000000,0,0x00,0x01
1.752173920000000,0,0x00,0x01
1.752271360000000,0,0x00,0x01
1.752368800000000,0,0x00,0x41
1.752466240000000,0,0x00,0x41
1.752563520000000,0,0x00,0x41
1.752660960000000,0,0x00,0x41
1.752758400000000,0,0x00,0x41
1.752855840000000,0,0x00,0x41
1.752953280000000,0,0x00,0x41
1.753050560000000,0,0x00,0x41
1.753148000000000,0,0x00,0x41
1.753245440000000,0,0x00,0x41
1.753342880000000,0,0x00,0x41
1.753440320000000,0,0x00,0x41
1.753537760000000,0,0x00,0x41
1.753635040000000,0,0x00,0x41
1.753732480000000,0,0x00,0x41
1.753829920000000,0,0x00,0x41
1.753927360000000,0,0x00,0x41
1.754024800000000,0,0x00,0x41
1.754122080000000,0,0x00,0x41
1.754219520000000,0,0x00,0x41
1.754316960000000,0,0x00,0x41
1.754414400000000,0,0x00,0x41
1.754511840000000,0,0x00,0x41
1.754609280000000,0,0x00,0x41
1.754706560000000,0,0x00,0x41
1.754804000000000,0,0x00,0x41
1.754901440000000,0,0x00,0x41
1.754998880000000,0,0x00,0x41
1.755096320000000,0,0x00,0x41
1.755193600000000,0,0x00,0x41
1.755291040000000,0,0x00,0x41
1.755388480000000,0,0x00,0x41
1.755485920000000,0,0x00,0x81
1.755583360000000,0,0x00,0x81
1.755680800000000,0,0x00,0x81
1.755778080000000,0,0x00,0x81
1.755875520000000,0,0x00,0x81
1.755972960000000,0,0x00,0x81
1.756070400000000,0,0x00,0x81
1.756167840000000,0,0x00,0x81
1.756265120000000,0,0x00,0x81
1.756362560000000,0,0x00,0x81
1.756460000000000,0,0x00,0x81
1.756557440000000,0,0x00,0x81
1.756654880000000,0,0x00,0x81
1.756752320000000,0,0x00,0x81
1.756849600000000,0,0x00,0x81
1.756947040000000,0,0x00,0x81
1.757044480000000,0,0x00,0x81
1.757141920000000,0,0x00,0x81
1.757239360000000,0,0x00,0x81
1.757336640000000,0,0x00,0x81
1.757434080000000,0,0x00,0x81
1.757531520000000,0,0x00,0x81
1.757628960000000,0,0x00,0x81
1.757726400000000,0,0x00,0x81
1.757823840000000,0,0x00,0x81
1.757921120000000,0,0x00,0x81
1.758018560000000,0,0x00,0x81
1.758116000000000,0,0x00,0x81
1.758213440000000,0,0x00,0x81
1.758310880000000,0,0x00,0x81
1.758408320000000,0,0x00,0x81
1.758505600000000,0,0x00,0x81
1.758603040000000,0,0x00,0x81
1.758700480000000,0,0x00,0x81
1.758797920000000,0,0x00,0x81
1.758895360000000,0,0x00,0x81
1.758992640000000,0,0x00,0x81
1.759090080000000,0,0x00,0x81
1.759187520000000,0,0x00,0x81
1.759284960000000,0,0x00,0x81
1.759382400000000,0,0x00,0x81
1.759479840000000,0,0x00,0x81
1.759577120000000,0,0x00,0x81
1.759674560000000,0,0x00,0x81
1.759772000000000,0,0x00,0x81
1.759869440000000,0,0x00,0x81
1.759966880000000,0,0x00,0x81
1.760064160000000,0,0x00,0x81
1.760161600000000,0,0x00,0x81
1.760259040000000,0,0x00,0x81
1.760356480000000,0,0x00,0x81
1.760453920000000,0,0x00,0x81
1.760551360000000,0,0x00,0x81
1.760648640000000,0,0x00,0x81
1.760746080000000,0,0x00,0x81
1.760843520000000,0,0x00,0x81
1.760940960000000,0,0x00,0x81
1.761038400000000,0,0x00,0x81
1.761135680000000,0,0x00,0x81
1.761233120000000,0,0x00,0x81
1.761330560000000,0,0x00,0x81
1.761428000000000,0,0x00,0x81
1.761525440000000,0,0x00,0x81
1.761622880000000,0,0x00,0x81
1.761720160000000,0,0x00,0xC1
1.761817600000000,0,0x00,0xC1
1.761915040000000,0,0x00,0xC1
1.762012480000000,0,0x00,0xC1
1.762109920000000,0,0x00,0xC1
1.762207200000000,0,0x00,0xC1
1.762304640000000,0,0x00,0xC1
1.762402080000000,0,0x00,0xC1
1.762499520000000,0,0x00,0xC1
1.762596960000000,0,0x00,0xC1
1.762694400000000,0,0x00,0xC1
1.762791680000000,0,0x00,0xC1
1.762889120000000,0,0x00,0xC1
1.762986560000000,0,0x00,0xC1
1.763084000000000,0,0x00,0xC1
1.763181440000000,0,0x00,0xC1
1.763278720000000,0,0x00,0xC1
1.763376160000000,0,0x00,0xC1
1.763473600000000,0,0x00,0xC1
1.763571040000000,0,0x00,0xC1
1.763668480000000,0,0x00,0xC1
1.763765920000000,0,0x00,0xC1
1.763863200000000,0,0x00,0xC1
1.763960640000000,0,0x00,0xC1
1.764058080000000,0,0x00,0xC1
1.764155520000000,0,0x00,0xC1
1.764252960000000,0,0x00,0xC1
1.764350240000000,0,0x00,0xC1
1.764447680000000,0,0x00,0xC1
1.764545120000000,0,0x00,0xC1
1.764642560000000,0,0x00,0xC1
1.764740000000000,0,0x00,0xC1
1.764837440000000,0,0x00,0xC1
1.764934720000000,0,0x00,0xC1
1.765032160000000,0,0x00,0xC1
1.765129600000000,0,0x00,0xC1
1.765227040000000,0,0x00,0xC1
1.765324480000000,0,0x00,0xC1
1.765421760000000,0,0x00,0xC1
1.765519200000000,0,0x00,0xC1
1.765616640000000,0,0x00,0xC1
1.765714080000000,0,0x00,0xC1
1.765811520000000,0,0x00,0xC1
1.765908960000000,0,0x00,0xC1
1.766006240000000,0,0x00,0xC1
1.766103680000000,0,0x00,0xC1
1.766201120000000,0,0x00,0xC1
1.766298560000000,0,0x00,0xC1
1.766396000000000,0,0x00,0xC1
1.766493280000000,0,0x00,0xC1
1.766590720000000,0,0x00,0xC1
1.766688160000000,0,0x00,0xC1
1.766785600000000,0,0x00,0xC1
1.766883040000000,0,0x00,0xC1
1.766980480000000,0,0x00,0xC1
1.767077760000000,0,0x00,0xC1
1.767175200000000,0,0x00,0xC1
1.767272640000000,0,0x00,0xC1
1.767370080000000,0,0x00,0xC1
1.767467520000000,0,0x00,0xC1
1.767564800000000,0,0x00,0xC1
1.767662240000000,0,0x00,0xC1
1.767759680000000,0,0x00,0xC1
1.767857120000000,0,0x00,0xC1
1.767954560000000,0,0x00,0xC1
1.768052000000000,0,0x00,0xC1
1.768149280000000,0,0x00,0xC1
1.768246720000000,0,0x00,0xC1
1.768344160000000,0,0x00,0xC1
1.768441600000000,0,0x00,0xC1
1.768539040000000,0,0x00,0xC1
1.768636480000000,0,0x00,0xC1
1.768733760000000,0,0x00,0xC1
1.768831200000000,0,0x00,0xC1
1.768928640000000,0,0x00,0xC1
1.769026080000000,0,0x00,0xC1
1.769123520000000,0,0x00,0xC1
1.769220800000000,0,0x00,0xC1
1.769318240000000,0,0x00,0xC1
1.769415680000000,0,0x00,0xC1
1.769513120000000,0,0x00,0xC1
1.769610560000000,0,0x00,0xC1
1.769708000000000,0,0x00,0xC1
1.769805280000000,0,0x00,0xC1
1.769902720000000,0,0x00,0xC1
1.770000160000000,0,0x00,0xC1
1.770097600000000,0,0x00,0xC1
1.770195040000000,0,0x00,0xC1
1.770292320000000,0,0x00,0xC1
1.770389760000000,0,0x00,0xC1
1.770487200000000,0,0x00,0xC1
1.770584640000000,0,0x00,0xC1
1.770682080000000,0,0x00,0xC1
1.770779520000000,0,0x00,0xC1
1.770876800000000,0,0x00,0xC1
1.770974240000000,0,0x00,0xC1
1.771071680000000,0,0x00,0xC1
1.771169120000000,0,0x00,0xC1
1.771266560000000,0,0x00,0xC1
1.771363840000000,0,0x00,0xC1
1.771461280000000,0,0x00,0xC1
1.771558720000000,0,0x00,0xC1
1.771656160000000,0,0x00,0xC1
1.771753600000000,0,0x00,0xC1
1.771851040000000,0,0x00,0xC1
1.771948320000000,0,0x00,0xC1
1.772045760000000,0,0x00,0xC1
1.772143200000000,0,0x00,0xC1
1.772240640000000,0,0x00,0xC1
1.772338080000000,0,0x00,0xC1
1.772435360000000,0,0x00,0xC1
1.772532800000000,0,0x00,0xC1
1.772630240000000,0,0x00,0xC1
1.772727680000000,0,0x00,0xC1
1.772825120000000,0,0x00,0xC1
1.772922560000000,0,0x00,0xC1
1.773019840000000,0,0x00,0xC1
1.773117280000000,0,0x00,0xC1
1.773214720000000,0,0x00,0xC1
1.773312160000000,0,0x00,0xC1
1.773409600000000,0,0x00,0xC1
1.773506880000000,0,0x00,0xC1
1.773604320000000,0,0x00,0xC1
1.773701760000000,0,0x00,0xC1
1.773799200000000,0,0x00,0xC1
1.773896640000000,0,0x00,0xC1
1.773994080000000,0,0x00,0xC1
1.774091360000000,0,0x00,0xE0
1.774188800000000,0,0x00,0x19
1.774286240000000,0,0x00,0x16
1.774383680000000,0,0x00,0x40
1.774481120000000,0,0x00,0x13
1.774578400000000,0,0x00,0x75
1.774675840000000,0,0x00,0x54
1.774773280000000,0,0x00,0x80
1.774870720000000,0,0x00,0xA2
1.774968160000000,0,0x00,0x00
1.775065600000000,0,0x00,0xC0
1.775162880000000,0,0x00,0x00
1.775260320000000,0,0x00,0x00
1.775357760000000,0,0x00,0x00
1.775455200000000,0,0x00,0x00
1.775552640000000,0,0x00,0x10
1.775649920000000,0,0x00,0x3F
1.775747360000000,0,0x00,0xCF
1.775844800000000,0,0x00,0xDE
1.775942240000000,0,0x00,0x06
1.776039680000000,0,0x00,0xF7
1.776137120000000,0,0x00,0xBE
1.776234400000000,0,0x00,0x58
1.776331840000000,0,0x00,0x7F
1.776474560000000,0,0x03,0xFF
1.776572000000000,0,0x00,0xFF
1.776669440000000,0,0x0E,0xFF
1.776766880000000,0,0x60,0xFF
1.776864160000000,0,0x00,0x01
1.776961600000000,0,0x00,0x00
1.777059040000000,0,0x00,0x95
1.777156480000000,0,0x00,0xAD
1.777253920000000,0,0x00,0x40
1.777351200000000,0,0x00,0x0E
1.777448640000000,0,0x00,0x80
1.777546080000000,0,0x00,0xFF
1.777643520000000,0,0x00,0x08
1.777740960000000,0,0x00,0x00
1.777838400000000,0,0x00,0x00
1.777935680000000,0,0x00,0x00
1.778033120000000,0,0x00,0x00
1.778130560000000,0,0x00,0x00
1.778228000000000,0,0x00,0x00
1.778325440000000,0,0x00,0x00
1.778445280000000,0,0x03,0xFF
1.778542560000000,0,0x00,0xFF
1.778640000000000,0,0x0E,0xFF
1.778737440000000,0,0x70,0xFF
1.778834880000000,0,0x00,0x00
1.778932320000000,0,0x00,0x00
1.779029600000000,0,0x00,0x00
1.779127040000000,0,0x00,0x00
1.779224480000000,0,0x00,0x00
1.779321920000000,0,0x00,0x00
1.779419360000000,0,0x00,0x00
1.779516800000000,0,0x00,0x00
1.779627040000000,0,0x03,0xFF
1.779724320000000,0,0x00,0xFF
1.779821760000000,0,0x0E,0xFF
1.779919200000000,0,0x78,0xFF
1.780016640000000,0,0x00,0x01
1.780114080000000,0,0x00,0x01
1.780211360000000,0,0x00,0x52
1.780308800000000,0,0x00,0xAD
1.780406240000000,0,0x00,0x48
1.780503680000000,0,0x00,0x0E
1.780601120000000,0,0x00,0x80
1.780698560000000,0,0x00,0xFF
1.780795840000000,0,0x00,0x88
1.780893280000000,0,0x00,0x4E
1.780990720000000,0,0x00,0x00
1.781088160000000,0,0x00,0x00
1.781185600000000,0,0x00,0x00
1.781282880000000,0,0x00,0x00
1.781380320000000,0,0x00,0x00
1.781477760000000,0,0x00,0x00
1.782439520000000,0,0x03,0xFF
1.782536960000000,0,0x00,0xFF
1.782634400000000,0,0x0E,0xFF
1.782731680000000,0,0x88,0xFF
1.782829120000000,0,0x00,0x01
1.782926560000000,0,0x00,0x00
1.783024000000000,0,0x00,0x5A
1.783121440000000,0,0x00,0xAD
1.783218880000000,0,0x00,0xD0
1.783316160000000,0,0x00,0x5C
1.783413600000000,0,0x00,0x80
1.783511040000000,0,0x00,0xFF
1.783608480000000,0,0x00,0x04
1.783705920000000,0,0x00,0x01
1.783803200000000,0,0x00,0x00
1.783900640000000,0,0x00,0x00
1.783998080000000,0,0x00,0x00
1.784095520000000,0,0x00,0x00
1.784192960000000,0,0x00,0x00
1.784290400000000,0,0x00,0x00
1.784410080000000,0,0x03,0xFF
1.784507520000000,0,0x00,0xFF
1.784604960000000,0,0x0E,0xFF
1.784702400000000,0,0x98,0xFF
1.784799840000000,0,0x00,0xFF
1.784897280000000,0,0x00,0xFF
1.784994560000000,0,0x00,0xFF
1.785092000000000,0,0x00,0x7F
1.785189440000000,0,0x00,0x00
1.785286880000000,0,0x00,0x00
1.785384320000000,0,0x00,0x00
1.785481600000000,0,0x00,0x00
1.785579040000000,0,0x00,0x00
1.785676480000000,0,0x00,0x00
1.785773920000000,0,0x00,0x00
1.785871360000000,0,0x00,0x00
1.785968800000000,0,0x00,0x00
1.786066080000000,0,0x00,0x00
1.786163520000000,0,0x00,0x00
1.786260960000000,0,0x00,0x00
1.786358400000000,0,0x00,0xFF
1.786455840000000,0,0x00,0xFF
1.786553120000000,0,0x00,0xFF
1.786650560000000,0,0x00,0x7F
1.786748000000000,0,0x00,0x00
1.786845440000000,0,0x00,0x00
1.786942880000000,0,0x00,0x00
1.787040320000000,0,0x00,0x00
1.787137600000000,0,0x00,0x00
1.787235040000000,0,0x00,0x00
1.787332480000000,0,0x00,0x00
1.787429920000000,0,0x00,0x00
1.787527360000000,0,0x00,0x00
1.787624640000000,0,0x00,0x00
1.787722080000000,0,0x00,0x00
1.787819520000000,0,0x00,0x00
1.787916960000000,0,0x00,0xFF
1.788014400000000,0,0x00,0xFF
1.788111840000000,0,0x00,0xFF
1.788209120000000,0,0x00,0x7F
1.788306560000000,0,0x00,0xFF
1.788404000000000,0,0x00,0xFF
1.788501440000000,0,0x00,0xFF
1.788598880000000,0,0x00,0x7F
1.788696160000000,0,0x00,0xFF
1.788793600000000,0,0x00,0xFF
1.788891040000000,0,0x00,0xFF
1.788988480000000,0,0x00,0x7F
1.789085920000000,0,0x00,0x00
1.789183360000000,0,0x00,0x00
1.789280640000000,0,0x00,0x00
1.789378080000000,0,0x00,0x00
1.789475520000000,0,0x00,0xC8
1.789572960000000,0,0x00,0x07
1.789670400000000,0,0x00,0xA0
1.789767680000000,0,0x00,0xFF
1.789865120000000,0,0x00,0xE2
1.789962560000000,0,0x00,0x07
1.790060000000000,0,0x00,0xA0
1.790157440000000,0,0x00,0xFF
1.790254880000000,0,0x00,0xEE
1.790352160000000,0,0x00,0x07
1.790449600000000,0,0x00,0xA0
1.790547040000000,0,0x00,0xFF
1.790644480000000,0,0x00,0xFE
1.790741920000000,0,0x00,0x07
1.790839360000000,0,0x00,0xA0
1.790936640000000,0,0x00,0xFF
1.791034080000000,0,0x00,0xD6
1.791131520000000,0,0x00,0x07
1.791228960000000,0,0x00,0xA0
1.791326400000000,0,0x00,0xFF
1.791423680000000,0,0x00,0x76
1.791521120000000,0,0x00,0x31
1.791618560000000,0,0x00,0x32
1.791716000000000,0,0x00,0x37
1.791813440000000,0,0x00,0x62
1.791910880000000,0,0x00,0x5F
1.792008160000000,0,0x00,0x65
1.792105600000000,0,0x00,0x68
1.792203040000000,0,0x00,0x78
1.792300480000000,0,0x00,0x31
1.792397920000000,0,0x00,0x34
1.792495200000000,0,0x00,0x0A
1.792592640000000,0,0x00,0x00
1.792690080000000,0,0x00,0x00
1.792787520000000,0,0x00,0x00
1.792884960000000,0,0x00,0x00
1.792982400000000,0,0x00,0x00
1.793079680000000,0,0x00,0x00
1.793177120000000,0,0x00,0x00
1.793274560000000,0,0x00,0x00
1.793372000000000,0,0x00,0x00
1.793469440000000,0,0x00,0x00
1.793566720000000,0,0x00,0x00
1.793664160000000,0,0x00,0x00
1.793761600000000,0,0x00,0x40
1.793859040000000,0,0x00,0x01
1.793956480000000,0,0x00,0x00
1.794053920000000,0,0x00,0x00
1.794151200000000,0,0x00,0x00
1.794248640000000,0,0x00,0x00
1.794346080000000,0,0x00,0xDE
1.794443520000000,0,0x00,0xFF
1.794540960000000,0,0x00,0x00
1.794638240000000,0,0x00,0x00
1.794735680000000,0,0x00,0x00
1.794833120000000,0,0x00,0x00
1.794930560000000,0,0x00,0x00
1.795028000000000,0,0x00,0x00
1.795125440000000,0,0x00,0x00
1.795222720000000,0,0x00,0x00
1.795320160000000,0,0x00,0x00
1.795417600000000,0,0x00,0x00
1.795515040000000,0,0x00,0x00
1.795612480000000,0,0x00,0x00
1.795709760000000,0,0x00,0x78
1.795807200000000,0,0x00,0x56
1.795904640000000,0,0x00,0x34
1.796002080000000,0,0x00,0x12
1.796099520000000,0,0x00,0xFF
1.796196960000000,0,0x00,0x7F
1.796294240000000,0,0x00,0xFF
1.796391680000000,0,0x00,0x7F
1.796489120000000,0,0x00,0xFF
1.796586560000000,0,0x00,0x7F
1.796684000000000,0,0x00,0xFF
1.796781280000000,0,0x00,0x7F
1.796878720000000,0,0x00,0x00
1.796976160000000,0,0x00,0x00
1.797073600000000,0,0x00,0x00
1.797171040000000,0,0x00,0x00
1.797268480000000,0,0x00,0x00
1.797365760000000,0,0x00,0x00
1.797463200000000,0,0x00,0x00
1.797560640000000,0,0x00,0x00
1.797658080000000,0,0x00,0x00
1.797755520000000,0,0x00,0x00
1.797852800000000,0,0x00,0x00
1.797950240000000,0,0x00,0x00
1.798047680000000,0,0x00,0x00
1.798145120000000,0,0x00,0x00
1.798242560000000,0,0x00,0x00
1.798340000000000,0,0x00,0x00
1.798437280000000,0,0x00,0x00
1.798534720000000,0,0x00,0x00
1.798632160000000,0,0x00,0x00
1.798729600000000,0,0x00,0x00
1.798827040000000,0,0x00,0x1D
1.798924320000000,0,0x00,0x3A
1.799021760000000,0,0x00,0x55
1.799119200000000,0,0x00,0x42
1.799216640000000,0,0x00,0x46
1.799314080000000,0,0x00,0x98
1.799411520000000,0,0x00,0x9D
1.799508800000000,0,0x00,0x2D
1.799606240000000,0,0x00,0x00
1.799703680000000,0,0x00,0x00
1.799801120000000,0,0x00,0x00
1.799898560000000,0,0x00,0x00
1.799995840000000,0,0x00,0x00
1.800093280000000,0,0x00,0x00
1.800190720000000,0,0x00,0x00
1.800288160000000,0,0x00,0x00
1.800385600000000,0,0x00,0x00
1.800483040000000,0,0x00,0x80
1.800580320000000,0,0x00,0x00
1.800677760000000,0,0x00,0x00
1.800775200000000,0,0x00,0x00
1.800872640000000,0,0x00,0x00
1.800970080000000,0,0x00,0x00
1.801067520000000,0,0x00,0x00
1.801164800000000,0,0x00,0x00
1.801262240000000,0,0x00,0x00
1.801359680000000,0,0x00,0x00
1.801457120000000,0,0x00,0x00
1.801554560000000,0,0x00,0x84
1.801651840000000,0,0x00,0x01
1.801749280000000,0,0x00,0x00
1.801846720000000,0,0x00,0x00
1.801944160000000,0,0x00,0xCC
1.802041600000000,0,0x00,0x47
1.802139040000000,0,0x00,0xE1
1.802236320000000,0,0x00,0x00
1.802333760000000,0,0x00,0xCC
1.802431200000000,0,0x00,0x47
1.802528640000000,0,0x00,0xE1
1.802626080000000,0,0x00,0x00
1.802723360000000,0,0x00,0x00
1.802820800000000,0,0x00,0x00
1.802918240000000,0,0x00,0x00
1.803015680000000,0,0x00,0x00
1.803113120000000,0,0x00,0x00
1.803210560000000,0,0x00,0x00
1.803307840000000,0,0x00,0x00
1.803405280000000,0,0x00,0x00
1.803502720000000,0,0x00,0x00
1.803600160000000,0,0x00,0x00
1.803697600000000,0,0x00,0x00
1.803794880000000,0,0x00,0x00
1.803892320000000,0,0x00,0x00
1.803989760000000,0,0x00,0x00
1.804087200000000,0,0x00,0x80
1.804184640000000,0,0x00,0x0C
1.804282080000000,0,0x00,0x00
1.804379360000000,0,0x00,0x00
1.804476800000000,0,0x00,0x00
1.804574240000000,0,0x00,0x00
1.804671680000000,0,0x00,0x00
1.804769120000000,0,0x00,0x00
1.804866400000000,0,0x00,0x00
1.804963840000000,0,0x00,0x00
1.805061280000000,0,0x00,0x00
1.805158720000000,0,0x00,0x00
1.805256160000000,0,0x00,0x00
1.805353600000000,0,0x00,0x00
1.805450880000000,0,0x00,0x00
1.805548320000000,0,0x00,0x00
1.805645760000000,0,0x00,0x00
1.805743200000000,0,0x00,0x00
1.805840640000000,0,0x00,0x00
1.805937920000000,0,0x00,0x00
1.806035360000000,0,0x00,0x00
1.806132800000000,0,0x00,0x00
1.806230240000000,0,0x00,0x60
1.806327680000000,0,0x00,0x79
1.806425120000000,0,0x00,0xFE
1.806522400000000,0,0x00,0xFF
1.806619840000000,0,0x00,0x60
1.806717280000000,0,0x00,0x79
1.806814720000000,0,0x00,0xFE
1.806912160000000,0,0x00,0xFF
1.807009440000000,0,0x00,0x00
1.807106880000000,0,0x00,0x00
1.807204320000000,0,0x00,0x00
1.807301760000000,0,0x00,0x00
1.807399200000000,0,0x00,0x00
1.807496640000000,0,0x00,0x00
1.807593920000000,0,0x00,0x00
1.807691360000000,0,0x00,0x00
1.807788800000000,0,0x00,0x00
1.807886240000000,0,0x00,0x00
1.807983680000000,0,0x00,0x00
1.808080960000000,0,0x00,0x00
1.808178400000000,0,0x00,0x00
1.808275840000000,0,0x00,0x00
1.808373280000000,0,0x00,0x00
1.808470720000000,0,0x00,0x00
1.808568160000000,0,0x00,0x00
1.808665440000000,0,0x00,0x00
1.808762880000000,0,0x00,0x00
1.808860320000000,0,0x00,0x00
1.808957760000000,0,0x00,0x60
1.809055200000000,0,0x00,0x79
1.809152480000000,0,0x00,0xFE
1.809249920000000,0,0x00,0xFF
1.809347360000000,0,0x00,0x60
1.809444800000000,0,0x00,0x79
1.809542240000000,0,0x00,0xFE
1.809639680000000,0,0x00,0xFF
1.809736960000000,0,0x00,0x00
1.809834400000000,0,0x00,0x00
1.809931840000000,0,0x00,0x00
1.810029280000000,0,0x00,0x00
1.810139520000000,0,0x03,0xFF
1.810236960000000,0,0x00,0xFF
1.810334240000000,0,0x0F,0xFF
1.810431680000000,0,0x9C,0xFF
1.810529120000000,0,0x00,0x01
1.810626560000000,0,0x00,0x01
1.810724000000000,0,0x00,0x17
1.810821440000000,0,0x00,0xAD
1.810918720000000,0,0x00,0xD4
1.811016160000000,0,0x00,0x5D
1.811113600000000,0,0x00,0x80
1.811211040000000,0,0x00,0xFF
1.811308480000000,0,0x00,0x4C
1.811405760000000,0,0x00,0x00
1.811503200000000,0,0x00,0x00
1.811600640000000,0,0x00,0x00
1.811698080000000,0,0x00,0x00
1.811795520000000,0,0x00,0x00
1.811892960000000,0,0x00,0x00
1.811990240000000,0,0x00,0x00
1.812136960000000,0,0x03,0xFF
1.812234400000000,0,0x00,0xFF
1.812331840000000,0,0x0F,0xFF
1.812429280000000,0,0xAC,0xFF
1.812526720000000,0,0x00,0x01
1.812624000000000,0,0x00,0x00
1.812721440000000,0,0x00,0x89
1.812818880000000,0,0x00,0xAD
1.812916320000000,0,0x00,0x20
1.813013760000000,0,0x00,0x5E
1.813111200000000,0,0x00,0x80
1.813208480000000,0,0x00,0xFF
1.813305920000000,0,0x00,0x04
1.813403360000000,0,0x00,0x20
1.813500800000000,0,0x00,0x00
1.813598240000000,0,0x00,0x00
1.813695520000000,0,0x00,0x00
1.813792960000000,0,0x00,0x00
1.813890400000000,0,0x00,0x00
1.813987840000000,0,0x00,0x00
1.814107680000000,0,0x03,0xFF
1.814205120000000,0,0x00,0xFF
1.814302560000000,0,0x0F,0xFF
1.814399840000000,0,0xBC,0xFF
1.814497280000000,0,0x00,0x00
1.814594720000000,0,0x00,0x20
1.814692160000000,0,0x00,0x03
1.814789600000000,0,0x00,0x00
1.814886880000000,0,0x00,0x00
1.814984320000000,0,0x00,0x00
1.815081760000000,0,0x00,0x00
1.815179200000000,0,0x00,0x00
1.815276640000000,0,0x00,0x00
1.815374080000000,0,0x00,0x00
1.815471360000000,0,0x00,0x00
1.815568800000000,0,0x00,0x00
1.815666240000000,0,0x00,0x00
1.815763680000000,0,0x00,0x00
1.815861120000000,0,0x00,0x00
1.815958400000000,0,0x00,0x00
1.816055840000000,0,0x00,0x00
1.816153280000000,0,0x00,0x00
1.816250720000000,0,0x00,0xE4
1.816348160000000,0,0x00,0x00
1.816445600000000,0,0x00,0xC9
1.816542880000000,0,0x00,0x01
1.816640320000000,0,0x00,0xAD
1.816737760000000,0,0x00,0x02
1.816835200000000,0,0x00,0x92
1.816932640000000,0,0x00,0x03
1.817029920000000,0,0x00,0x76
1.817127360000000,0,0x00,0x04
1.817224800000000,0,0x00,0x5B
1.817322240000000,0,0x00,0x05
1.817419680000000,0,0x00,0x40
1.817517120000000,0,0x00,0x06
1.817614400000000,0,0x00,0x24
1.817711840000000,0,0x00,0x07
1.817809280000000,0,0x00,0x09
1.817906720000000,0,0x00,0x08
1.818004160000000,0,0x00,0xED
1.818101440000000,0,0x00,0x08
1.818198880000000,0,0x00,0xD2
1.818296320000000,0,0x00,0x09
1.818393760000000,0,0x00,0xB6
1.818491200000000,0,0x00,0x0A
1.818588640000000,0,0x00,0x9B
1.818685920000000,0,0x00,0x0B
1.818783360000000,0,0x00,0x80
1.818880800000000,0,0x00,0x0C
1.818978240000000,0,0x00,0x64
1.819075680000000,0,0x00,0x0D
1.819172960000000,0,0x00,0x49
1.819270400000000,0,0x00,0x0E
1.819367840000000,0,0x00,0x2D
1.819465280000000,0,0x00,0x0F
1.819562720000000,0,0x00,0x12
1.819660160000000,0,0x00,0x10
1.819757440000000,0,0x00,0xF6
1.819854880000000,0,0x00,0x10
1.819952320000000,0,0x00,0xDB
1.820049760000000,0,0x00,0x11
1.820147200000000,0,0x00,0xC0
1.820244480000000,0,0x00,0x12
1.820341920000000,0,0x00,0xA4
1.820439360000000,0,0x00,0x13
1.820536800000000,0,0x00,0x89
1.820634240000000,0,0x00,0x14
1.820731680000000,0,0x00,0x6D
1.820828960000000,0,0x00,0x15
1.820926400000000,0,0x00,0x52
1.821023840000000,0,0x00,0x16
1.821121280000000,0,0x00,0x36
1.821218720000000,0,0x00,0x17
1.821316000000000,0,0x00,0x1B
1.821413440000000,0,0x00,0x18
1.821510880000000,0,0x00,0x00
1.821608320000000,0,0x00,0x19
1.821705760000000,0,0x00,0xE4
1.821803200000000,0,0x00,0x19
1.821900480000000,0,0x00,0xC9
1.821997920000000,0,0x00,0x1A
1.822095360000000,0,0x00,0xAD
1.822192800000000,0,0x00,0x1B
1.822290240000000,0,0x00,0x92
1.822387680000000,0,0x00,0x1C
1.822484960000000,0,0x00,0x00
1.822582400000000,0,0x00,0x00
1.822679840000000,0,0x00,0x24
1.822777280000000,0,0x00,0x39
1.822874720000000,0,0x00,0x85
1.822972000000000,0,0x00,0x69
1.823069440000000,0,0x00,0x93
1.823166880000000,0,0x00,0x71
1.823264320000000,0,0x00,0x66
1.823361760000000,0,0x00,0x74
1.823459200000000,0,0x00,0x1D
1.823556480000000,0,0x00,0x76
1.823653920000000,0,0x00,0x57
1.823751360000000,0,0x00,0x77
1.823848800000000,0,0x00,0x4C
1.823946240000000,0,0x00,0x78
1.824043520000000,0,0x00,0x14
1.824140960000000,0,0x00,0x79
1.824238400000000,0,0x00,0xBE
1.824335840000000,0,0x00,0x79
1.824433280000000,0,0x00,0x51
1.824530720000000,0,0x00,0x7A
1.824628000000000,0,0x00,0xD3
1.824725440000000,0,0x00,0x7A
1.824822880000000,0,0x00,0x47
1.824920320000000,0,0x00,0x7B
1.825017760000000,0,0x00,0xB0
1.825115040000000,0,0x00,0x7B
1.825212480000000,0,0x00,0x10
1.825309920000000,0,0x00,0x7C
1.825407360000000,0,0x00,0x68
1.825504800000000,0,0x00,0x7C
1.825602240000000,0,0x00,0xB9
1.825699520000000,0,0x00,0x7C
1.825796960000000,0,0x00,0x05
1.825894400000000,0,0x00,0x7D
1.825991840000000,0,0x00,0x4C
1.826089280000000,0,0x00,0x7D
1.826186560000000,0,0x00,0x8F
1.826284000000000,0,0x00,0x7D
1.826381440000000,0,0x00,0xCE
1.826478880000000,0,0x00,0x7D
1.826576320000000,0,0x00,0x09
1.826673760000000,0,0x00,0x7E
1.826771040000000,0,0x00,0x42
1.826868480000000,0,0x00,0x7E
1.826965920000000,0,0x00,0x78
1.827063360000000,0,0x00,0x7E
1.827160800000000,0,0x00,0xAB
1.827258080000000,0,0x00,0x7E
1.827355520000000,0,0x00,0xDC
1.827452960000000,0,0x00,0x7E
1.827550400000000,0,0x00,0x0A
1.827647840000000,0,0x00,0x7F
1.827745280000000,0,0x00,0x37
1.827842560000000,0,0x00,0x7F
1.827940000000000,0,0x00,0x62
1.828037440000000,0,0x00,0x7F
1.828134880000000,0,0x00,0x8C
1.828232320000000,0,0x00,0x7F
1.828329600000000,0,0x00,0xB4
1.828427040000000,0,0x00,0x7F
1.828524480000000,0,0x00,0xDA
1.828621920000000,0,0x00,0x7F
1.828719360000000,0,0x00,0xFF
1.828816800000000,0,0x00,0x7F
1.828914080000000,0,0x00,0x00
1.829011520000000,0,0x00,0x00
1.829108960000000,0,0x00,0x05
1.829206400000000,0,0x00,0x01
1.829303840000000,0,0x00,0x0A
1.829401120000000,0,0x00,0x02
1.829498560000000,0,0x00,0x0F
1.829596000000000,0,0x00,0x01
1.829671840000000,0,0x00,0x8A
1.829769120000000,0,0x00,0x82
1.829866560000000,0,0x00,0x0D
1.829964000000000,0,0x00,0x02
1.830061440000000,0,0x00,0x8F
1.830158880000000,0,0x00,0x83
1.830256320000000,0,0x00,0x12
1.830353600000000,0,0x00,0x03
1.830451040000000,0,0x00,0x94
1.830548480000000,0,0x00,0x84
1.830645920000000,0,0x00,0x17
1.830743360000000,0,0x00,0x84
1.830840640000000,0,0x00,0x9A
1.830938080000000,0,0x00,0x05
1.831035520000000,0,0x00,0x1C
1.831132960000000,0,0x00,0x85
1.831230400000000,0,0x00,0x9F
1.831327840000000,0,0x00,0x06
1.831425120000000,0,0x00,0x22
1.831522560000000,0,0x00,0x06
1.831620000000000,0,0x00,0xA4
1.831717440000000,0,0x00,0x87
1.831814880000000,0,0x00,0x27
1.831912160000000,0,0x00,0x07
1.832009600000000,0,0x00,0xA9
1.832107040000000,0,0x00,0x88
1.832204480000000,0,0x00,0x2C
1.832301920000000,0,0x00,0x08
1.832399360000000,0,0x00,0xAF
1.832496640000000,0,0x00,0x09
1.832594080000000,0,0x00,0x31
1.832691520000000,0,0x00,0x89
1.832788960000000,0,0x00,0xB4
1.832886400000000,0,0x00,0x0A
1.832983680000000,0,0x00,0x36
1.833081120000000,0,0x00,0x8A
1.833178560000000,0,0x00,0xB9
1.833276000000000,0,0x00,0x8B
1.833373440000000,0,0x00,0x3C
1.833470880000000,0,0x00,0x0B
1.833568160000000,0,0x00,0xBE
1.833665600000000,0,0x00,0x8C
1.833763040000000,0,0x00,0x41
1.833860480000000,0,0x00,0x0C
1.833957920000000,0,0x00,0xC3
1.834055200000000,0,0x00,0x8D
1.834152640000000,0,0x00,0x46
1.834250080000000,0,0x00,0x8D
1.834347520000000,0,0x00,0xC9
1.834444960000000,0,0x00,0x0E
1.834542400000000,0,0x00,0x4B
1.834639680000000,0,0x00,0x8E
1.834737120000000,0,0x00,0xCE
1.834834560000000,0,0x00,0x0F
1.834932000000000,0,0x00,0x51
1.835029440000000,0,0x00,0x0F
1.835126720000000,0,0x00,0xD3
1.835224160000000,0,0x00,0x90
1.835321600000000,0,0x00,0x00
1.835419040000000,0,0x00,0x00
1.835516480000000,0,0x00,0x27
1.835613920000000,0,0x00,0x20
1.835711200000000,0,0x00,0xE6
1.835808640000000,0,0x00,0xB6
1.835906080000000,0,0x00,0x36
1.836003520000000,0,0x00,0xB9
1.836100960000000,0,0x00,0x6E
1.836198400000000,0,0x00,0xBA
1.836295680000000,0,0x00,0x36
1.836393120000000,0,0x00,0xBB
1.836490560000000,0,0x00,0x49
1.836588000000000,0,0x00,0x3B
1.836685440000000,0,0x00,0xBD
1.836782720000000,0,0x00,0x3C
1.836880160000000,0,0x00,0x1D
1.836977600000000,0,0x00,0x3C
1.837075040000000,0,0x00,0xEE
1.837172480000000,0,0x00,0xBC
1.837269920000000,0,0x00,0xB5
1.837367200000000,0,0x00,0xBD
1.837464640000000,0,0x00,0x74
1.837562080000000,0,0x00,0xBD
1.837659520000000,0,0x00,0x2D
1.837756960000000,0,0x00,0x3D
1.837854240000000,0,0x00,0xE0
1.837951680000000,0,0x00,0xBD
1.838049120000000,0,0x00,0x8F
1.838146560000000,0,0x00,0x3E
1.838244000000000,0,0x00,0x3A
1.838341440000000,0,0x00,0xBE
1.838438720000000,0,0x00,0x62
1.838536160000000,0,0x00,0xBE
1.838633600000000,0,0x00,0x07
1.838731040000000,0,0x00,0xBE
1.838828480000000,0,0x00,0xAA
1.838925760000000,0,0x00,0xBE
1.839023200000000,0,0x00,0xCB
1.839120640000000,0,0x00,0xBE
1.839218080000000,0,0x00,0xEA
1.839315520000000,0,0x00,0xBE
1.839412960000000,0,0x00,0x87
1.839510240000000,0,0x00,0xBF
1.839607680000000,0,0x00,0x23
1.839705120000000,0,0x00,0xBF
1.839802560000000,0,0x00,0x3E
1.839900000000000,0,0x00,0x3F
1.839997280000000,0,0x00,0x57
1.840094720000000,0,0x00,0x3F
1.840192160000000,0,0x00,0x6F
1.840289600000000,0,0x00,0xBF
1.840387040000000,0,0x00,0x06
1.840484480000000,0,0x00,0xBF
1.840581760000000,0,0x00,0x9C
1.840679200000000,0,0x00,0xBF
1.840776640000000,0,0x00,0xB2
1.840874080000000,0,0x00,0x3F
1.840971520000000,0,0x00,0xC6
1.841068800000000,0,0x00,0xBF
1.841166240000000,0,0x00,0xDA
1.841263680000000,0,0x00,0x3F
1.841361120000000,0,0x00,0xED
1.841458560000000,0,0x00,0xBF
1.841556000000000,0,0x00,0xFF
1.841653280000000,0,0x00,0xBF
1.841750720000000,0,0x00,0x80
1.841848160000000,0,0x00,0x00
1.841945600000000,0,0x00,0x15
1.842043040000000,0,0x00,0x00
1.842140320000000,0,0x00,0xAA
1.842237760000000,0,0x00,0x81
1.842335200000000,0,0x00,0x3F
1.842432640000000,0,0x00,0x81
1.842530080000000,0,0x00,0xD5
1.842627520000000,0,0x00,0x02
1.842724800000000,0,0x00,0x6A
1.842822240000000,0,0x00,0x02
1.842919680000000,0,0x00,0xFF
1.843017120000000,0,0x00,0x83
1.843114560000000,0,0x00,0x14
1.843211840000000,0,0x00,0x84
1.843309280000000,0,0x00,0x2A
1.843406720000000,0,0x00,0x04
1.843504160000000,0,0x00,0xBF
1.843601600000000,0,0x00,0x85
1.843699040000000,0,0x00,0x54
1.843796320000000,0,0x00,0x85
1.843893760000000,0,0x00,0xEA
1.843991200000000,0,0x00,0x06
1.844088640000000,0,0x00,0x7F
1.844186080000000,0,0x00,0x06
1.844283360000000,0,0x00,0x94
1.844380800000000,0,0x00,0x87
1.844478240000000,0,0x00,0xA9
1.844575680000000,0,0x00,0x88
1.844673120000000,0,0x00,0x3F
1.844770560000000,0,0x00,0x08
1.844867840000000,0,0x00,0xD4
1.844965280000000,0,0x00,0x09
1.845062720000000,0,0x00,0x69
1.845160160000000,0,0x00,0x89
1.845257600000000,0,0x00,0xFE
1.845354880000000,0,0x00,0x8A
1.845452320000000,0,0x00,0x14
1.845549760000000,0,0x00,0x0B
1.845647200000000,0,0x00,0x29
1.845744640000000,0,0x00,0x0B
1.845842080000000,0,0x00,0xBE
1.845939360000000,0,0x00,0x8C
1.846036800000000,0,0x00,0x54
1.846134240000000,0,0x00,0x0C
1.846231680000000,0,0x00,0xE9
1.846329120000000,0,0x00,0x0D
1.846426400000000,0,0x00,0x7E
1.846523840000000,0,0x00,0x8D
1.846621280000000,0,0x00,0x93
1.846718720000000,0,0x00,0x8E
1.846816160000000,0,0x00,0xA9
1.846913600000000,0,0x00,0x0F
1.847010880000000,0,0x00,0x3E
1.847108320000000,0,0x00,0x0F
1.847205760000000,0,0x00,0xD3
1.847303200000000,0,0x00,0x90
1.847400640000000,0,0x00,0x68
1.847498080000000,0,0x00,0x90
1.847595360000000,0,0x00,0xFE
1.847692800000000,0,0x00,0x11
1.847790240000000,0,0x00,0x13
1.847887680000000,0,0x00,0x12
1.847985120000000,0,0x00,0x28
1.848082400000000,0,0x00,0x92
1.848179840000000,0,0x00,0x81
1.848277280000000,0,0x00,0x00
1.848374720000000,0,0x00,0x50
1.848472160000000,0,0x00,0x25
1.848569600000000,0,0x00,0x51
1.848666880000000,0,0x00,0xB7
1.848764320000000,0,0x00,0x07
1.848861760000000,0,0x00,0x39
1.848959200000000,0,0x00,0x9E
1.849056640000000,0,0x00,0x3A
1.849153920000000,0,0x00,0xD7
1.849251360000000,0,0x00,0x3B
1.849348800000000,0,0x00,0x61
1.849446240000000,0,0x00,0xBB
1.849543680000000,0,0x00,0xD0
1.849641120000000,0,0x00,0xBC
1.849738400000000,0,0x00,0x2C
1.849835840000000,0,0x00,0xBC
1.849933280000000,0,0x00,0xFB
1.850030720000000,0,0x00,0xBC
1.850128160000000,0,0x00,0xC0
1.850225440000000,0,0x00,0xBD
1.850322880000000,0,0x00,0x7E
1.850420320000000,0,0x00,0x3D
1.850517760000000,0,0x00,0x35
1.850615200000000,0,0x00,0x3D
1.850712640000000,0,0x00,0xE7
1.850809920000000,0,0x00,0xBD
1.850907360000000,0,0x00,0x95
1.851004800000000,0,0x00,0xBE
1.851102240000000,0,0x00,0x3F
1.851199680000000,0,0x00,0xBE
1.851296960000000,0,0x00,0x67
1.851394400000000,0,0x00,0x3E
1.851491840000000,0,0x00,0x0B
1.851589280000000,0,0x00,0xBE
1.851686720000000,0,0x00,0xAE
1.851784160000000,0,0x00,0x3E
1.851881440000000,0,0x00,0xCE
1.851978880000000,0,0x00,0xBE
1.852076320000000,0,0x00,0xED
1.852173760000000,0,0x00,0x3E
1.852271200000000,0,0x00,0x8A
1.852368480000000,0,0x00,0x3F
1.852465920000000,0,0x00,0x25
1.852563360000000,0,0x00,0xBF
1.852660800000000,0,0x00,0x3F
1.852758240000000,0,0x00,0xBF
1.852855680000000,0,0x00,0x58
1.852952960000000,0,0x00,0xBF
1.853050400000000,0,0x00,0x70
1.853147840000000,0,0x00,0xBF
1.853245280000000,0,0x00,0x07
1.853342720000000,0,0x00,0xBF
1.853440000000000,0,0x00,0x9D
1.853537440000000,0,0x00,0xBF
1.853634880000000,0,0x00,0xB2
1.853732320000000,0,0x00,0xBF
1.853829760000000,0,0x00,0xC7
1.853927200000000,0,0x00,0x3F
1.854024480000000,0,0x00,0xDA
1.854121920000000,0,0x00,0xBF
1.854219360000000,0,0x00,0xED
1.854316800000000,0,0x00,0xBF
1.854414240000000,0,0x00,0xFF
1.854511520000000,0,0x00,0xBF
1.854608960000000,0,0x00,0x80
1.854706400000000,0,0x00,0x00
1.854803840000000,0,0x00,0x2A
1.854901280000000,0,0x00,0x80
1.854998720000000,0,0x00,0xD5
1.855096000000000,0,0x00,0x01
1.855193440000000,0,0x00,0x7F
1.855290880000000,0,0x00,0x81
1.855388320000000,0,0x00,0xAA
1.855485760000000,0,0x00,0x02
1.855583040000000,0,0x00,0xD5
1.855680480000000,0,0x00,0x03
1.855777920000000,0,0x00,0x7F
1.855875360000000,0,0x00,0x83
1.855972800000000,0,0x00,0xAA
1.856070240000000,0,0x00,0x04
1.856167520000000,0,0x00,0xD4
1.856264960000000,0,0x00,0x85
1.856362400000000,0,0x00,0x7F
1.856459840000000,0,0x00,0x05
1.856557280000000,0,0x00,0xAA
1.856654560000000,0,0x00,0x06
1.856752000000000,0,0x00,0xD4
1.856849440000000,0,0x00,0x87
1.856946880000000,0,0x00,0x7F
1.857044320000000,0,0x00,0x07
1.857141760000000,0,0x00,0xA9
1.857239040000000,0,0x00,0x88
1.857336480000000,0,0x00,0xD4
1.857433920000000,0,0x00,0x09
1.857531360000000,0,0x00,0x7F
1.857628800000000,0,0x00,0x09
1.857726080000000,0,0x00,0xA9
1.857823520000000,0,0x00,0x8A
1.857920960000000,0,0x00,0xD4
1.858018400000000,0,0x00,0x0B
1.858115840000000,0,0x00,0x7E
1.858213280000000,0,0x00,0x8B
1.858310560000000,0,0x00,0xA9
1.858408000000000,0,0x00,0x0C
1.858505440000000,0,0x00,0xD3
1.858602880000000,0,0x00,0x8D
1.858700320000000,0,0x00,0x7E
1.858797760000000,0,0x00,0x8D
1.858895040000000,0,0x00,0xA9
1.858992480000000,0,0x00,0x0E
1.859089920000000,0,0x00,0xD3
1.859187360000000,0,0x00,0x8F
1.859284800000000,0,0x00,0x7E
1.859382080000000,0,0x00,0x0F
1.859479520000000,0,0x00,0xA8
1.859576960000000,0,0x00,0x90
1.859674400000000,0,0x00,0xD3
1.859771840000000,0,0x00,0x91
1.859869280000000,0,0x00,0x7E
1.859966560000000,0,0x00,0x11
1.860064000000000,0,0x00,0xA8
1.860161440000000,0,0x00,0x92
1.860258880000000,0,0x00,0xD3
1.860356320000000,0,0x00,0x13
1.860453600000000,0,0x00,0x7D
1.860551040000000,0,0x00,0x93
1.860648480000000,0,0x00,0xA8
1.860745920000000,0,0x00,0x94
1.860843360000000,0,0x00,0xD3
1.860940800000000,0,0x00,0x15
1.861038080000000,0,0x00,0x0E
1.861135520000000,0,0x00,0x80
1.861232960000000,0,0x00,0x17
1.861330400000000,0,0x00,0xAA
1.861427840000000,0,0x00,0xEA
1.861525120000000,0,0x00,0x37
1.861622560000000,0,0x00,0xC5
1.861720000000000,0,0x00,0x39
1.861817440000000,0,0x00,0xC3
1.861914880000000,0,0x00,0xBA
1.862012320000000,0,0x00,0xF1
1.862109600000000,0,0x00,0xBB
1.862207040000000,0,0x00,0x76
1.862304480000000,0,0x00,0x3B
1.862401920000000,0,0x00,0xE0
1.862499360000000,0,0x00,0xBC
1.862596640000000,0,0x00,0x3A
1.862694080000000,0,0x00,0x3C
1.862791520000000,0,0x00,0x86
1.862888960000000,0,0x00,0xBD
1.862986400000000,0,0x00,0x4A
1.863083840000000,0,0x00,0x3D
1.863181120000000,0,0x00,0x06
1.863278560000000,0,0x00,0x3D
1.863376000000000,0,0x00,0xBC
1.863473440000000,0,0x00,0x3D
1.863570880000000,0,0x00,0xED
1.863668160000000,0,0x00,0xBD
1.863765600000000,0,0x00,0x9A
1.863863040000000,0,0x00,0xBE
1.863960480000000,0,0x00,0x44
1.864057920000000,0,0x00,0xBE
1.864155360000000,0,0x00,0x6B
1.864252640000000,0,0x00,0x3E
1.864350080000000,0,0x00,0x0F
1.864447520000000,0,0x00,0xBE
1.864544960000000,0,0x00,0xB1
1.864642400000000,0,0x00,0x3E
1.864739680000000,0,0x00,0xD1
1.864837120000000,0,0x00,0x3E
1.864934560000000,0,0x00,0xEF
1.865032000000000,0,0x00,0xBE
1.865129440000000,0,0x00,0x8C
1.865226880000000,0,0x00,0x3F
1.865324160000000,0,0x00,0x27
1.865421600000000,0,0x00,0xBF
1.865519040000000,0,0x00,0x41
1.865616480000000,0,0x00,0x3F
1.865713920000000,0,0x00,0x5A
1.865811200000000,0,0x00,0x3F
1.865908640000000,0,0x00,0x71
1.866006080000000,0,0x00,0xBF
1.866103520000000,0,0x00,0x08
1.866200960000000,0,0x00,0xBF
1.866298400000000,0,0x00,0x9E
1.866395680000000,0,0x00,0x3F
1.866493120000000,0,0x00,0xB3
1.866590560000000,0,0x00,0x3F
1.866688000000000,0,0x00,0xC7
1.866785440000000,0,0x00,0xBF
1.866882720000000,0,0x00,0xDB
1.866980160000000,0,0x00,0x3F
1.867077600000000,0,0x00,0xED
1.867175040000000,0,0x00,0xBF
1.867272480000000,0,0x00,0xFF
1.867369920000000,0,0x00,0xBF
1.867467200000000,0,0x00,0x80
1.867564640000000,0,0x00,0x00
1.867662080000000,0,0x00,0x43
1.867759520000000,0,0x00,0x00
1.867856960000000,0,0x00,0x86
1.867954240000000,0,0x00,0x01
1.868051680000000,0,0x00,0xC8
1.868149120000000,0,0x00,0x82
1.868246560000000,0,0x00,0x0B
1.868344000000000,0,0x00,0x83
1.868441440000000,0,0x00,0x4E
1.868538720000000,0,0x00,0x83
1.868636160000000,0,0x00,0x91
1.868733600000000,0,0x00,0x84
1.868831040000000,0,0x00,0xD4
1.868928480000000,0,0x00,0x85
1.869025920000000,0,0x00,0x17
1.869123200000000,0,0x00,0x86
1.869220640000000,0,0x00,0x5A
1.869318080000000,0,0x00,0x86
1.869415520000000,0,0x00,0x9D
1.869512960000000,0,0x00,0x87
1.869610240000000,0,0x00,0xE0
1.869707680000000,0,0x00,0x88
1.869805120000000,0,0x00,0x23
1.869902560000000,0,0x00,0x89
1.870000000000000,0,0x00,0x66
1.870097440000000,0,0x00,0x89
1.870194720000000,0,0x00,0xA9
1.870292160000000,0,0x00,0x8A
1.870389600000000,0,0x00,0xEC
1.870487040000000,0,0x00,0x8B
1.870584480000000,0,0x00,0x2F
1.870681760000000,0,0x00,0x8C
1.870779200000000,0,0x00,0x72
1.870876640000000,0,0x00,0x8C
1.870974080000000,0,0x00,0xB5
1.871071520000000,0,0x00,0x0D
1.871168960000000,0,0x00,0xF8
1.871266240000000,0,0x00,0x0E
1.871363680000000,0,0x00,0x3B
1.871461120000000,0,0x00,0x0F
1.871558560000000,0,0x00,0x7E
1.871656000000000,0,0x00,0x0F
1.871753280000000,0,0x00,0xC1
1.871850720000000,0,0x00,0x10
1.871948160000000,0,0x00,0x84
1.872045600000000,0,0x00,0x11
1.872143040000000,0,0x00,0xC7
1.872240480000000,0,0x00,0x12
1.872337760000000,0,0x00,0x0A
1.872435200000000,0,0x00,0x13
1.872532640000000,0,0x00,0x4D
1.872630080000000,0,0x00,0x13
1.872727520000000,0,0x00,0x90
1.872824800000000,0,0x00,0x14
1.872922240000000,0,0x00,0xD3
1.873019680000000,0,0x00,0x15
1.873117120000000,0,0x00,0x16
1.873214560000000,0,0x00,0x16
1.873312000000000,0,0x00,0x59
1.873409280000000,0,0x00,0x16
1.873506720000000,0,0x00,0x9C
1.873604160000000,0,0x00,0x17
1.873701600000000,0,0x00,0xDF
1.873799040000000,0,0x00,0x18
1.873896320000000,0,0x00,0x4E
1.873993760000000,0,0x00,0x00
1.874091200000000,0,0x00,0xF0
1.874188640000000,0,0x00,0x2F
1.874286080000000,0,0x00,0xD5
1.874383520000000,0,0x00,0xB8
1.874480800000000,0,0x00,0x76
1.874578240000000,0,0x00,0x39
1.874675680000000,0,0x00,0xE2
1.874773120000000,0,0x00,0xBA
1.874870560000000,0,0x00,0x88
1.874967840000000,0,0x00,0x3B
1.875065280000000,0,0x00,0x87
1.875162720000000,0,0x00,0x3C
1.875260160000000,0,0x00,0x6E
1.875357600000000,0,0x00,0x3C
1.875455040000000,0,0x00,0x45
1.875552320000000,0,0x00,0x3C
1.875649760000000,0,0x00,0x90
1.875747200000000,0,0x00,0x3D
1.875844640000000,0,0x00,0x52
1.875942080000000,0,0x00,0x3D
1.876039360000000,0,0x00,0x0D
1.876136800000000,0,0x00,0x3D
1.876234240000000,0,0x00,0xC2
1.876331680000000,0,0x00,0x3D
1.876429120000000,0,0x00,0xF2
1.876526560000000,0,0x00,0xBD
1.876623840000000,0,0x00,0x9F
1.876721280000000,0,0x00,0x3E
1.876818720000000,0,0x00,0x48
1.876916160000000,0,0x00,0x3E
1.877013600000000,0,0x00,0x6E
1.877110880000000,0,0x00,0xBE
1.877208320000000,0,0x00,0x12
1.877305760000000,0,0x00,0xBE
1.877403200000000,0,0x00,0xB4
1.877500640000000,0,0x00,0x3E
1.877598080000000,0,0x00,0xD3
1.877695360000000,0,0x00,0xBE
1.877792800000000,0,0x00,0xF1
1.877890240000000,0,0x00,0xBE
1.877987680000000,0,0x00,0x8E
1.878085120000000,0,0x00,0x3F
1.878182400000000,0,0x00,0x29
1.878279840000000,0,0x00,0x3F
1.878377280000000,0,0x00,0x42
1.878474720000000,0,0x00,0xBF
1.878572160000000,0,0x00,0x5B
1.878669600000000,0,0x00,0x3F
1.878766880000000,0,0x00,0x72
1.878864320000000,0,0x00,0xBF
1.878961760000000,0,0x00,0x09
1.879059200000000,0,0x00,0x3F
1.879156640000000,0,0x00,0x9F
1.879253920000000,0,0x00,0x3F
1.879351360000000,0,0x00,0xB3
1.879448800000000,0,0x00,0xBF
1.879546240000000,0,0x00,0xC7
1.879643680000000,0,0x00,0xBF
1.879741120000000,0,0x00,0xDB
1.879838400000000,0,0x00,0x3F
1.879935840000000,0,0x00,0xED
1.880033280000000,0,0x00,0xBF
1.880130720000000,0,0x00,0xFF
1.880228160000000,0,0x00,0xBF
1.880325600000000,0,0x00,0x80
1.880422880000000,0,0x00,0x00
1.880520320000000,0,0x00,0x5E
1.880617760000000,0,0x00,0x80
1.880715200000000,0,0x00,0xBD
1.880812640000000,0,0x00,0x81
1.880909920000000,0,0x00,0x9C
1.881007360000000,0,0x00,0x82
1.881104800000000,0,0x00,0xFB
1.881202240000000,0,0x00,0x03
1.881299680000000,0,0x00,0x5A
1.881397120000000,0,0x00,0x04
1.881494400000000,0,0x00,0x39
1.881591840000000,0,0x00,0x05
1.881689280000000,0,0x00,0x17
1.881786720000000,0,0x00,0x86
1.881884160000000,0,0x00,0x76
1.881981440000000,0,0x00,0x86
1.882078880000000,0,0x00,0xD5
1.882176320000000,0,0x00,0x07
1.882273760000000,0,0x00,0xB4
1.882371200000000,0,0x00,0x08
1.882468640000000,0,0x00,0x93
1.882565920000000,0,0x00,0x09
1.882663360000000,0,0x00,0xF1
1.882760800000000,0,0x00,0x8A
1.882858240000000,0,0x00,0x50
1.882955680000000,0,0x00,0x8B
1.883052960000000,0,0x00,0x2F
1.883150400000000,0,0x00,0x8C
1.883247840000000,0,0x00,0x0E
1.883345280000000,0,0x00,0x0D
1.883442720000000,0,0x00,0x6D
1.883540160000000,0,0x00,0x0D
1.883637440000000,0,0x00,0xCC
1.883734880000000,0,0x00,0x0E
1.883832320000000,0,0x00,0xAA
1.883929760000000,0,0x00,0x8F
1.884027200000000,0,0x00,0x89
1.884124480000000,0,0x00,0x90
1.884221920000000,0,0x00,0xE8
1.884319360000000,0,0x00,0x11
1.884416800000000,0,0x00,0x47
1.884514240000000,0,0x00,0x12
1.884611680000000,0,0x00,0x26
1.884708960000000,0,0x00,0x13
1.884806400000000,0,0x00,0x04
1.884903840000000,0,0x00,0x94
1.885001280000000,0,0x00,0x63
1.885098720000000,0,0x00,0x94
1.885196000000000,0,0x00,0xC2
1.885293440000000,0,0x00,0x95
1.885390880000000,0,0x00,0xA1
1.885488320000000,0,0x00,0x16
1.885585760000000,0,0x00,0x80
1.885683200000000,0,0x00,0x17
1.885780480000000,0,0x00,0xDF
1.885877920000000,0,0x00,0x18
1.885975360000000,0,0x00,0x3D
1.886072800000000,0,0x00,0x99
1.886170240000000,0,0x00,0x1C
1.886267520000000,0,0x00,0x9A
1.886364960000000,0,0x00,0x7B
1.886462400000000,0,0x00,0x1A
1.886559840000000,0,0x00,0xDA
1.886657280000000,0,0x00,0x1B
1.886754720000000,0,0x00,0xEC
1.886852000000000,0,0x00,0x84
1.886949440000000,0,0x00,0x47
1.887046880000000,0,0x00,0xB3
1.887144320000000,0,0x00,0x25
1.887241760000000,0,0x00,0xB8
1.887339040000000,0,0x00,0x9D
1.887436480000000,0,0x00,0xBA
1.887533920000000,0,0x00,0x7C
1.887631360000000,0,0x00,0x3A
1.887728800000000,0,0x00,0x9A
1.887826240000000,0,0x00,0xBB
1.887923520000000,0,0x00,0x95
1.888020960000000,0,0x00,0xBC
1.888118400000000,0,0x00,0x79
1.888215840000000,0,0x00,0xBC
1.888313280000000,0,0x00,0x4E
1.888410560000000,0,0x00,0xBC
1.888508000000000,0,0x00,0x98
1.888605440000000,0,0x00,0x3D
1.888702880000000,0,0x00,0x59
1.888800320000000,0,0x00,0x3D
1.888897760000000,0,0x00,0x12
1.888995040000000,0,0x00,0xBD
1.889092480000000,0,0x00,0xC7
1.889189920000000,0,0x00,0x3D
1.889287360000000,0,0x00,0xF7
1.889384800000000,0,0x00,0x3D
1.889482080000000,0,0x00,0xA3
1.889579520000000,0,0x00,0x3E
1.889676960000000,0,0x00,0x4B
1.889774400000000,0,0x00,0xBE
1.889871840000000,0,0x00,0x71
1.889969280000000,0,0x00,0xBE
1.890066560000000,0,0x00,0x15
1.890164000000000,0,0x00,0x3E
1.890261440000000,0,0x00,0xB6
1.890358880000000,0,0x00,0x3E
1.890456320000000,0,0x00,0xD5
1.890553760000000,0,0x00,0xBE
1.890651040000000,0,0x00,0xF3
1.890748480000000,0,0x00,0xBE
1.890845920000000,0,0x00,0x8F
1.890943360000000,0,0x00,0xBF
1.891040800000000,0,0x00,0x2A
1.891138080000000,0,0x00,0x3F
1.891235520000000,0,0x00,0x43
1.891332960000000,0,0x00,0xBF
1.891430400000000,0,0x00,0x5C
1.891527840000000,0,0x00,0x3F
1.891625280000000,0,0x00,0x73
1.891722560000000,0,0x00,0xBF
1.891820000000000,0,0x00,0x0A
1.891917440000000,0,0x00,0x3F
1.892014880000000,0,0x00,0x9F
1.892112320000000,0,0x00,0xBF
1.892209600000000,0,0x00,0xB4
1.892307040000000,0,0x00,0x3F
1.892404480000000,0,0x00,0xC8
1.892501920000000,0,0x00,0x3F
1.892599360000000,0,0x00,0xDB
1.892696800000000,0,0x00,0x3F
1.892794080000000,0,0x00,0xEE
1.892891520000000,0,0x00,0x3F
1.892988960000000,0,0x00,0xFF
1.893086400000000,0,0x00,0xBF
1.893183840000000,0,0x00,0x80
1.893281120000000,0,0x00,0x00
1.893378560000000,0,0x00,0x7E
1.893476000000000,0,0x00,0x80
1.893573440000000,0,0x00,0xFD
1.893670880000000,0,0x00,0x01
1.893768320000000,0,0x00,0xFC
1.893865600000000,0,0x00,0x02
1.893963040000000,0,0x00,0xFA
1.894060480000000,0,0x00,0x83
1.894157920000000,0,0x00,0xF9
1.894255360000000,0,0x00,0x04
1.894352640000000,0,0x00,0xF8
1.894450080000000,0,0x00,0x05
1.894547520000000,0,0x00,0xF6
1.894644960000000,0,0x00,0x86
1.894742400000000,0,0x00,0xF5
1.894839840000000,0,0x00,0x07
1.894937120000000,0,0x00,0xF3
1.895034560000000,0,0x00,0x88
1.895132000000000,0,0x00,0xF2
1.895229440000000,0,0x00,0x89
1.895326880000000,0,0x00,0xF1
1.895424160000000,0,0x00,0x0A
1.895521600000000,0,0x00,0xEF
1.895619040000000,0,0x00,0x8B
1.895716480000000,0,0x00,0xEE
1.895813920000000,0,0x00,0x8C
1.895911360000000,0,0x00,0xED
1.896008640000000,0,0x00,0x0D
1.896106080000000,0,0x00,0xEB
1.896203520000000,0,0x00,0x8E
1.896300960000000,0,0x00,0xEA
1.896398400000000,0,0x00,0x8F
1.896495680000000,0,0x00,0xE9
1.896593120000000,0,0x00,0x10
1.896690560000000,0,0x00,0xE7
1.896788000000000,0,0x00,0x91
1.896885440000000,0,0x00,0xE6
1.896982880000000,0,0x00,0x12
1.897080160000000,0,0x00,0xE5
1.897177600000000,0,0x00,0x13
1.897275040000000,0,0x00,0xE3
1.897372480000000,0,0x00,0x94
1.897469920000000,0,0x00,0xE2
1.897567200000000,0,0x00,0x15
1.897664640000000,0,0x00,0xE1
1.897762080000000,0,0x00,0x16
1.897859520000000,0,0x00,0xDF
1.897956960000000,0,0x00,0x97
1.898054400000000,0,0x00,0xDE
1.898151680000000,0,0x00,0x18
1.898249120000000,0,0x00,0xDD
1.898346560000000,0,0x00,0x19
1.898444000000000,0,0x00,0xDB
1.898541440000000,0,0x00,0x9A
1.898638720000000,0,0x00,0xDA
1.898736160000000,0,0x00,0x1B
1.898833600000000,0,0x00,0xD8
1.898931040000000,0,0x00,0x9C
1.899028480000000,0,0x00,0xD7
1.899125920000000,0,0x00,0x9D
1.899223200000000,0,0x00,0xD6
1.899320640000000,0,0x00,0x1E
1.899418080000000,0,0x00,0xD4
1.899515520000000,0,0x00,0x9F
1.899612960000000,0,0x00,0xC6
1.899710240000000,0,0x00,0x8A
1.899807680000000,0,0x00,0xE2
1.899905120000000,0,0x00,0xB4
1.900002560000000,0,0x00,0xE3
1.900100000000000,0,0x00,0xB8
1.900197440000000,0,0x00,0xBD
1.900294720000000,0,0x00,0xBA
1.900392160000000,0,0x00,0x11
1.900489600000000,0,0x00,0xBB
1.900587040000000,0,0x00,0x2A
1.900684480000000,0,0x00,0x3B
1.900781760000000,0,0x00,0xA1
1.900879200000000,0,0x00,0xBC
1.900976640000000,0,0x00,0x03
1.901074080000000,0,0x00,0xBC
1.901171520000000,0,0x00,0xD6
1.901268960000000,0,0x00,0xBC
1.901366240000000,0,0x00,0x9F
1.901463680000000,0,0x00,0x3D
1.901561120000000,0,0x00,0x5E
1.901658560000000,0,0x00,0xBD
1.901756000000000,0,0x00,0x17
1.901853440000000,0,0x00,0xBD
1.901950720000000,0,0x00,0xCB
1.902048160000000,0,0x00,0xBD
1.902145600000000,0,0x00,0xFA
1.902243040000000,0,0x00,0xBD
1.902340480000000,0,0x00,0xA6
1.902437760000000,0,0x00,0x3E
1.902535200000000,0,0x00,0x4E
1.902632640000000,0,0x00,0xBE
1.902730080000000,0,0x00,0x74
1.902827520000000,0,0x00,0x3E
1.902924960000000,0,0x00,0x17
1.903022240000000,0,0x00,0x3E
1.903119680000000,0,0x00,0xB8
1.903217120000000,0,0x00,0x3E
1.903314560000000,0,0x00,0xD7
1.903412000000000,0,0x00,0xBE
1.903509280000000,0,0x00,0xF5
1.903606720000000,0,0x00,0x3E
1.903704160000000,0,0x00,0x91
1.903801600000000,0,0x00,0x3F
1.903899040000000,0,0x00,0x2B
1.903996480000000,0,0x00,0xBF
1.904093760000000,0,0x00,0x44
1.904191200000000,0,0x00,0xBF
1.904288640000000,0,0x00,0x5D
1.904386080000000,0,0x00,0x3F
1.904483520000000,0,0x00,0x74
1.904580800000000,0,0x00,0x3F
1.904678240000000,0,0x00,0x0A
1.904775680000000,0,0x00,0xBF
1.904873120000000,0,0x00,0xA0
1.904970560000000,0,0x00,0x3F
1.905068000000000,0,0x00,0xB4
1.905165280000000,0,0x00,0xBF
1.905262720000000,0,0x00,0xC8
1.905360160000000,0,0x00,0x3F
1.905457600000000,0,0x00,0xDB
1.905555040000000,0,0x00,0xBF
1.905652320000000,0,0x00,0xEE
1.905749760000000,0,0x00,0x3F
1.905847200000000,0,0x00,0xFF
1.905944640000000,0,0x00,0xBF
1.906042080000000,0,0x00,0x80
1.906139520000000,0,0x00,0x00
1.906236800000000,0,0x00,0x23
1.906334240000000,0,0x00,0x01
1.906431680000000,0,0x00,0x46
1.906529120000000,0,0x00,0x02
1.906626560000000,0,0x00,0x69
1.906723840000000,0,0x00,0x03
1.906821280000000,0,0x00,0x0C
1.906918720000000,0,0x00,0x04
1.907016160000000,0,0x00,0xAF
1.907113600000000,0,0x00,0x05
1.907211040000000,0,0x00,0xD2
1.907308320000000,0,0x00,0x06
1.907405760000000,0,0x00,0xF5
1.907503200000000,0,0x00,0x07
1.907600640000000,0,0x00,0x98
1.907698080000000,0,0x00,0x09
1.907795360000000,0,0x00,0x3B
1.907892800000000,0,0x00,0x0A
1.907990240000000,0,0x00,0x5E
1.908087680000000,0,0x00,0x0B
1.908185120000000,0,0x00,0x01
1.908282560000000,0,0x00,0x0C
1.908379840000000,0,0x00,0xA4
1.908477280000000,0,0x00,0x0D
1.908574720000000,0,0x00,0xC7
1.908672160000000,0,0x00,0x8E
1.908769600000000,0,0x00,0xEA
1.908866880000000,0,0x00,0x8F
1.908964320000000,0,0x00,0x8D
1.909061760000000,0,0x00,0x91
1.909159200000000,0,0x00,0x30
1.909256640000000,0,0x00,0x92
1.909354080000000,0,0x00,0x53
1.909451360000000,0,0x00,0x93
1.909548800000000,0,0x00,0x76
1.909646240000000,0,0x00,0x94
1.909743680000000,0,0x00,0x19
1.909841120000000,0,0x00,0x95
1.909938400000000,0,0x00,0xBC
1.910035840000000,0,0x00,0x96
1.910133280000000,0,0x00,0xDF
1.910230720000000,0,0x00,0x97
1.910328160000000,0,0x00,0x82
1.910425600000000,0,0x00,0x99
1.910522880000000,0,0x00,0x25
1.910620320000000,0,0x00,0x9A
1.910717760000000,0,0x00,0x48
1.910815200000000,0,0x00,0x9B
1.910912640000000,0,0x00,0x6B
1.911009920000000,0,0x00,0x9C
1.911107360000000,0,0x00,0x0E
1.911204800000000,0,0x00,0x9D
1.911302240000000,0,0x00,0xB1
1.911399680000000,0,0x00,0x9E
1.911497120000000,0,0x00,0xD4
1.911594400000000,0,0x00,0x9F
1.911691840000000,0,0x00,0xF7
1.911789280000000,0,0x00,0xA0
1.911886720000000,0,0x00,0x9A
1.911984160000000,0,0x00,0xA2
1.912081440000000,0,0x00,0x3D
1.912178880000000,0,0x00,0x23
1.912276320000000,0,0x00,0x5F
1.912373760000000,0,0x00,0xA4
1.912471200000000,0,0x00,0x73
1.912568640000000,0,0x00,0x12
1.912665920000000,0,0x00,0xCC
1.912763360000000,0,0x00,0x35
1.912860800000000,0,0x00,0x95
1.912958240000000,0,0x00,0x39
1.913055680000000,0,0x00,0x58
1.913153120000000,0,0x00,0xBA
1.913250400000000,0,0x00,0x23
1.913347840000000,0,0x00,0xBB
1.913445280000000,0,0x00,0x37
1.913542720000000,0,0x00,0xBB
1.913640160000000,0,0x00,0xAC
1.913737440000000,0,0x00,0x3C
1.913834880000000,0,0x00,0x0C
1.913932320000000,0,0x00,0x3C
1.914029760000000,0,0x00,0xDD
1.914127200000000,0,0x00,0xBC
1.914224640000000,0,0x00,0xA4
1.914321920000000,0,0x00,0xBD
1.914419360000000,0,0x00,0x63
1.914516800000000,0,0x00,0xBD
1.914614240000000,0,0x00,0x1C
1.914711680000000,0,0x00,0x3D
1.914808960000000,0,0x00,0xCF
1.914906400000000,0,0x00,0x3D
1.915003840000000,0,0x00,0xFE
1.915101280000000,0,0x00,0x3D
1.915198720000000,0,0x00,0xA9
1.915296160000000,0,0x00,0x3E
1.915393440000000,0,0x00,0x51
1.915490880000000,0,0x00,0x3E
1.915588320000000,0,0x00,0x76
1.915685760000000,0,0x00,0xBE
1.915783200000000,0,0x00,0x19
1.915880480000000,0,0x00,0x3E
1.915977920000000,0,0x00,0xBA
1.916075360000000,0,0x00,0x3E
1.916172800000000,0,0x00,0xD9
1.916270240000000,0,0x00,0x3E
1.916367680000000,0,0x00,0xF6
1.916464960000000,0,0x00,0x3E
1.916562400000000,0,0x00,0x92
1.916659840000000,0,0x00,0x3F
1.916757280000000,0,0x00,0x2C
1.916854720000000,0,0x00,0xBF
1.916952000000000,0,0x00,0x45
1.917049440000000,0,0x00,0xBF
1.917146880000000,0,0x00,0x5D
1.917244320000000,0,0x00,0xBF
1.917341760000000,0,0x00,0x75
1.917439200000000,0,0x00,0x3F
1.917536480000000,0,0x00,0x0B
1.917633920000000,0,0x00,0x3F
1.917731360000000,0,0x00,0xA0
1.917828800000000,0,0x00,0x3F
1.917926240000000,0,0x00,0xB4
1.918023520000000,0,0x00,0xBF
1.918120960000000,0,0x00,0xC8
1.918218400000000,0,0x00,0xBF
1.918315840000000,0,0x00,0xDB
1.918413280000000,0,0x00,0xBF
1.918510720000000,0,0x00,0xEE
1.918608000000000,0,0x00,0x3F
1.918705440000000,0,0x00,0xFF
1.918802880000000,0,0x00,0xBF
1.918900320000000,0,0x00,0x80
1.918997760000000,0,0x00,0x00
1.919095040000000,0,0x00,0x4C
1.919192480000000,0,0x00,0x81
1.919289920000000,0,0x00,0x19
1.919387360000000,0,0x00,0x02
1.919484800000000,0,0x00,0xE5
1.919582240000000,0,0x00,0x83
1.919679520000000,0,0x00,0xB2
1.919776960000000,0,0x00,0x85
1.919874400000000,0,0x00,0x7F
1.919971840000000,0,0x00,0x06
1.920069280000000,0,0x00,0x4B
1.920166560000000,0,0x00,0x87
1.920264000000000,0,0x00,0x98
1.920361440000000,0,0x00,0x09
1.920458880000000,0,0x00,0x64
1.920556320000000,0,0x00,0x8A
1.920653760000000,0,0x00,0x31
1.920751040000000,0,0x00,0x8B
1.920848480000000,0,0x00,0xFE
1.920945920000000,0,0x00,0x0C
1.921043360000000,0,0x00,0xCA
1.921140800000000,0,0x00,0x8E
1.921238080000000,0,0x00,0x17
1.921335520000000,0,0x00,0x0F
1.921432960000000,0,0x00,0xE4
1.921530400000000,0,0x00,0x10
1.921627840000000,0,0x00,0xB0
1.921725280000000,0,0x00,0x92
1.921822560000000,0,0x00,0x7D
1.921920000000000,0,0x00,0x13
1.922017440000000,0,0x00,0x49
1.922114880000000,0,0x00,0x94
1.922212320000000,0,0x00,0x96
1.922309600000000,0,0x00,0x16
1.922407040000000,0,0x00,0x63
1.922504480000000,0,0x00,0x17
1.922601920000000,0,0x00,0x2F
1.922699360000000,0,0x00,0x98
1.922796800000000,0,0x00,0xFC
1.922894080000000,0,0x00,0x19
1.922991520000000,0,0x00,0xC8
1.923088960000000,0,0x00,0x9B
1.923186400000000,0,0x00,0x15
1.923283840000000,0,0x00,0x1C
1.923381280000000,0,0x00,0xE1
1.923478560000000,0,0x00,0x9D
1.923576000000000,0,0x00,0xAE
1.923673440000000,0,0x00,0x9F
1.923770880000000,0,0x00,0x7B
1.923868320000000,0,0x00,0x20
1.923965600000000,0,0x00,0x47
1.924063040000000,0,0x00,0x21
1.924160480000000,0,0x00,0x93
1.924257920000000,0,0x00,0xA3
1.924355360000000,0,0x00,0x5F
1.924452800000000,0,0x00,0x24
1.924550080000000,0,0x00,0x2A
1.924647520000000,0,0x00,0xA5
1.924744960000000,0,0x00,0xF4
1.924842400000000,0,0x00,0xA6
1.924939840000000,0,0x00,0xBD
1.925037120000000,0,0x00,0x28
1.925134560000000,0,0x00,0x01
1.925232000000000,0,0x00,0xA9
1.925329440000000,0,0x00,0x9E
1.925426880000000,0,0x00,0x9C
1.925524320000000,0,0x00,0xE4
1.925621600000000,0,0x00,0xB6
1.925719040000000,0,0x00,0x3C
1.925816480000000,0,0x00,0xB9
1.925913920000000,0,0x00,0x6E
1.926011360000000,0,0x00,0xBA
1.926108640000000,0,0x00,0x32
1.926206080000000,0,0x00,0xBB
1.926303520000000,0,0x00,0x42
1.926400960000000,0,0x00,0xBB
1.926498400000000,0,0x00,0xB4
1.926595840000000,0,0x00,0xBC
1.926693120000000,0,0x00,0x13
1.926790560000000,0,0x00,0x3C
1.926888000000000,0,0x00,0xE3
1.926985440000000,0,0x00,0xBC
1.927082880000000,0,0x00,0xA9
1.927180160000000,0,0x00,0xBD
1.927277600000000,0,0x00,0x68
1.927375040000000,0,0x00,0x3D
1.927472480000000,0,0x00,0x20
1.927569920000000,0,0x00,0x3D
1.927667360000000,0,0x00,0xD2
1.927764640000000,0,0x00,0xBD
1.927862080000000,0,0x00,0x81
1.927959520000000,0,0x00,0x3E
1.928056960000000,0,0x00,0x2B
1.928154400000000,0,0x00,0xBE
1.928251680000000,0,0x00,0x53
1.928349120000000,0,0x00,0xBE
1.928446560000000,0,0x00,0x78
1.928544000000000,0,0x00,0x3E
1.928641440000000,0,0x00,0x1B
1.928738880000000,0,0x00,0x3E
1.928836160000000,0,0x00,0xBB
1.928933600000000,0,0x00,0xBE
1.929031040000000,0,0x00,0xDA
1.929128480000000,0,0x00,0x3E
1.929225920000000,0,0x00,0xF7
1.929323200000000,0,0x00,0xBE
1.929420640000000,0,0x00,0x93
1.929518080000000,0,0x00,0x3F
1.929615520000000,0,0x00,0x2D
1.929712960000000,0,0x00,0x3F
1.929810400000000,0,0x00,0x46
1.929907680000000,0,0x00,0xBF
1.930005120000000,0,0x00,0x5E
1.930102560000000,0,0x00,0xBF
1.930200000000000,0,0x00,0x75
1.930297440000000,0,0x00,0xBF
1.930394720000000,0,0x00,0x0B
1.930492160000000,0,0x00,0xBF
1.930589600000000,0,0x00,0xA0
1.930687040000000,0,0x00,0xBF
1.930784480000000,0,0x00,0xB5
1.930881920000000,0,0x00,0x3F
1.930979200000000,0,0x00,0xC8
1.931076640000000,0,0x00,0xBF
1.931174080000000,0,0x00,0xDB
1.931271520000000,0,0x00,0xBF
1.931368960000000,0,0x00,0xEE
1.931466240000000,0,0x00,0x3F
1.931563680000000,0,0x00,0xFF
1.931661120000000,0,0x00,0xBF
1.931758560000000,0,0x00,0x80
1.931856000000000,0,0x00,0x00
1.931953440000000,0,0x00,0x7C
1.932050720000000,0,0x00,0x01
1.932148160000000,0,0x00,0x78
1.932245600000000,0,0x00,0x02
1.932343040000000,0,0x00,0xF4
1.932440480000000,0,0x00,0x84
1.932537760000000,0,0x00,0x70
1.932635200000000,0,0x00,0x85
1.932732640000000,0,0x00,0xEC
1.932830080000000,0,0x00,0x87
1.932927520000000,0,0x00,0x68
1.933024960000000,0,0x00,0x88
1.933122240000000,0,0x00,0xE5
1.933219680000000,0,0x00,0x0A
1.933317120000000,0,0x00,0x61
1.933414560000000,0,0x00,0x0B
1.933512000000000,0,0x00,0xDD
1.933609280000000,0,0x00,0x0D
1.933706720000000,0,0x00,0x59
1.933804160000000,0,0x00,0x0E
1.933901600000000,0,0x00,0xD5
1.933999040000000,0,0x00,0x10
1.934096480000000,0,0x00,0x51
1.934193760000000,0,0x00,0x91
1.934291200000000,0,0x00,0xCD
1.934388640000000,0,0x00,0x93
1.934486080000000,0,0x00,0x49
1.934583520000000,0,0x00,0x94
1.934680960000000,0,0x00,0xC5
1.934778240000000,0,0x00,0x96
1.934875680000000,0,0x00,0x42
1.934973120000000,0,0x00,0x17
1.935070560000000,0,0x00,0xBE
1.935168000000000,0,0x00,0x19
1.935265280000000,0,0x00,0x3A
1.935362720000000,0,0x00,0x1A
1.935460160000000,0,0x00,0xB6
1.935557600000000,0,0x00,0x1C
1.935655040000000,0,0x00,0x32
1.935752480000000,0,0x00,0x1D
1.935849760000000,0,0x00,0xAE
1.935947200000000,0,0x00,0x9F
1.936044640000000,0,0x00,0x2A
1.936142080000000,0,0x00,0x20
1.936239520000000,0,0x00,0xA6
1.936336800000000,0,0x00,0x22
1.936434240000000,0,0x00,0x21
1.936531680000000,0,0x00,0xA3
1.936629120000000,0,0x00,0x9C
1.936726560000000,0,0x00,0xA5
1.936824000000000,0,0x00,0x16
1.936921280000000,0,0x00,0x26
1.937018720000000,0,0x00,0x8D
1.937116160000000,0,0x00,0x28
1.937213600000000,0,0x00,0x7F
1.937311040000000,0,0x00,0xA9
1.937408320000000,0,0x00,0x68
1.937505760000000,0,0x00,0xAA
1.937603200000000,0,0x00,0xC2
1.937700640000000,0,0x00,0xAC
1.937798080000000,0,0x00,0x04
1.937895520000000,0,0x00,0x2D
1.937992800000000,0,0x00,0xA4
1.938090240000000,0,0x00,0xAE
1.938187680000000,0,0x00,0xF8
1.938285120000000,0,0x00,0x26
1.938382560000000,0,0x00,0x51
1.938479840000000,0,0x00,0x36
1.938577280000000,0,0x00,0xDD
1.938674720000000,0,0x00,0x39
1.938772160000000,0,0x00,0x01
1.938869600000000,0,0x00,0x3A
1.938967040000000,0,0x00,0xBF
1.939064320000000,0,0x00,0x3B
1.939161760000000,0,0x00,0x4C
1.939259200000000,0,0x00,0x3B
1.939356640000000,0,0x00,0xBC
1.939454080000000,0,0x00,0x3C
1.939551360000000,0,0x00,0x19
1.939648800000000,0,0x00,0x3C
1.939746240000000,0,0x00,0xE8
1.939843680000000,0,0x00,0xBC
1.939941120000000,0,0x00,0xAE
1.940038560000000,0,0x00,0x3D
1.940135840000000,0,0x00,0x6B
1.940233280000000,0,0x00,0xBD
1.940330720000000,0,0x00,0x23
1.940428160000000,0,0x00,0x3D
1.940525600000000,0,0x00,0xD5
1.940622880000000,0,0x00,0xBD
1.940720320000000,0,0x00,0x83
1.940817760000000,0,0x00,0xBE
1.940915200000000,0,0x00,0x2D
1.941012640000000,0,0x00,0xBE
1.941110080000000,0,0x00,0x55
1.941207360000000,0,0x00,0x3E
1.941304800000000,0,0x00,0x7A
1.941402240000000,0,0x00,0x3E
1.941499680000000,0,0x00,0x1C
1.941597120000000,0,0x00,0xBE
1.941694400000000,0,0x00,0xBC
1.941791840000000,0,0x00,0xBE
1.941889280000000,0,0x00,0xDB
1.941986720000000,0,0x00,0xBE
1.942084160000000,0,0x00,0xF8
1.942181600000000,0,0x00,0xBE
1.942278880000000,0,0x00,0x94
1.942376320000000,0,0x00,0x3F
1.942473760000000,0,0x00,0x2E
1.942571200000000,0,0x00,0x3F
1.942668640000000,0,0x00,0x47
1.942765920000000,0,0x00,0x3F
1.942863360000000,0,0x00,0x5F
1.942960800000000,0,0x00,0x3F
1.943058240000000,0,0x00,0x76
1.943155680000000,0,0x00,0x3F
1.943253120000000,0,0x00,0x0B
1.943350400000000,0,0x00,0xBF
1.943447840000000,0,0x00,0xA1
1.943545280000000,0,0x00,0x3F
1.943642720000000,0,0x00,0xB5
1.943740160000000,0,0x00,0x3F
1.943837440000000,0,0x00,0xC9
1.943934880000000,0,0x00,0x3F
1.944032320000000,0,0x00,0xDB
1.944129760000000,0,0x00,0xBF
1.944227200000000,0,0x00,0xEE
1.944324640000000,0,0x00,0x3F
1.944421920000000,0,0x00,0xFF
1.944519360000000,0,0x00,0xBF
1.944616800000000,0,0x00,0x80
1.944714240000000,0,0x00,0x00
1.944811680000000,0,0x00,0x32
1.944908960000000,0,0x00,0x81
1.945006400000000,0,0x00,0xE5
1.945103840000000,0,0x00,0x03
1.945201280000000,0,0x00,0x17
1.945298720000000,0,0x00,0x05
1.945396160000000,0,0x00,0x49
1.945493440000000,0,0x00,0x86
1.945590880000000,0,0x00,0xFC
1.945688320000000,0,0x00,0x08
1.945785760000000,0,0x00,0x2E
1.945883200000000,0,0x00,0x8A
1.945980640000000,0,0x00,0x61
1.946077920000000,0,0x00,0x0B
1.946175360000000,0,0x00,0x93
1.946272800000000,0,0x00,0x8D
1.946370240000000,0,0x00,0xC6
1.946467680000000,0,0x00,0x0F
1.946564960000000,0,0x00,0x78
1.946662400000000,0,0x00,0x10
1.946759840000000,0,0x00,0xAA
1.946857280000000,0,0x00,0x92
1.946954720000000,0,0x00,0xDD
1.947052160000000,0,0x00,0x14
1.947149440000000,0,0x00,0x0F
1.947246880000000,0,0x00,0x96
1.947344320000000,0,0x00,0x42
1.947441760000000,0,0x00,0x17
1.947539200000000,0,0x00,0xF4
1.947636480000000,0,0x00,0x99
1.947733920000000,0,0x00,0x26
1.947831360000000,0,0x00,0x9B
1.947928800000000,0,0x00,0x59
1.948026240000000,0,0x00,0x1C
1.948123680000000,0,0x00,0x8B
1.948220960000000,0,0x00,0x9E
1.948318400000000,0,0x00,0xBD
1.948415840000000,0,0x00,0xA0
1.948513280000000,0,0x00,0x6F
1.948610720000000,0,0x00,0xA1
1.948708000000000,0,0x00,0xA1
1.948805440000000,0,0x00,0xA3
1.948902880000000,0,0x00,0xD2
1.949000320000000,0,0x00,0x25
1.949097760000000,0,0x00,0x00
1.949195200000000,0,0x00,0xA7
1.949292480000000,0,0x00,0x2A
1.949389920000000,0,0x00,0xA8
1.949487360000000,0,0x00,0xCB
1.949584800000000,0,0x00,0x2A
1.949682240000000,0,0x00,0x5A
1.949779520000000,0,0x00,0x2B
1.949876960000000,0,0x00,0xCA
1.949974400000000,0,0x00,0x2D
1.950071840000000,0,0x00,0x0E
1.950169280000000,0,0x00,0x2E
1.950266720000000,0,0x00,0xA0
1.950364000000000,0,0x00,0xAF
1.950461440000000,0,0x00,0x82
1.950558880000000,0,0x00,0xB0
1.950656320000000,0,0x00,0xBC
1.950753760000000,0,0x00,0xB1
1.950851040000000,0,0x00,0x56
1.950948480000000,0,0x00,0xB1
1.951045920000000,0,0x00,0x8B
1.951143360000000,0,0x00,0x2C
1.951240800000000,0,0x00,0xA2
1.951338240000000,0,0x00,0x37
1.951435520000000,0,0x00,0x78
1.951532960000000,0,0x00,0x39
1.951630400000000,0,0x00,0x11
1.951727840000000,0,0x00,0x3A
1.951825280000000,0,0x00,0xCA
1.951922560000000,0,0x00,0x3B
1.952020000000000,0,0x00,0x54
1.952117440000000,0,0x00,0xBB
1.952214880000000,0,0x00,0xC2
1.952312320000000,0,0x00,0xBC
1.952409760000000,0,0x00,0x1E
1.952507040000000,0,0x00,0xBC
1.952604480000000,0,0x00,0xED
1.952701920000000,0,0x00,0x3C
1.952799360000000,0,0x00,0xB2
1.952896800000000,0,0x00,0x3D
1.952994080000000,0,0x00,0x6F
1.953091520000000,0,0x00,0x3D
1.953188960000000,0,0x00,0x26
1.953286400000000,0,0x00,0x3D
1.953383840000000,0,0x00,0xD7
1.953481280000000,0,0x00,0xBD
1.953578560000000,0,0x00,0x85
1.953676000000000,0,0x00,0xBE
1.953773440000000,0,0x00,0x2F
1.953870880000000,0,0x00,0xBE
1.953968320000000,0,0x00,0x57
1.954065600000000,0,0x00,0x3E
1.954163040000000,0,0x00,0x7B
1.954260480000000,0,0x00,0xBE
1.954357920000000,0,0x00,0x1D
1.954455360000000,0,0x00,0xBE
1.954552800000000,0,0x00,0xBE
1.954650080000000,0,0x00,0x3E
1.954747520000000,0,0x00,0xDC
1.954844960000000,0,0x00,0xBE
1.954942400000000,0,0x00,0xF9
1.955039840000000,0,0x00,0x3E
1.955137120000000,0,0x00,0x94
1.955234560000000,0,0x00,0xBF
1.955332000000000,0,0x00,0x2E
1.955429440000000,0,0x00,0xBF
1.955526880000000,0,0x00,0x47
1.955624320000000,0,0x00,0xBF
1.955721600000000,0,0x00,0x5F
1.955819040000000,0,0x00,0xBF
1.955916480000000,0,0x00,0x76
1.956013920000000,0,0x00,0x3F
1.956111360000000,0,0x00,0x0C
1.956208800000000,0,0x00,0x3F
1.956306080000000,0,0x00,0xA1
1.956403520000000,0,0x00,0x3F
1.956500960000000,0,0x00,0xB5
1.956598400000000,0,0x00,0xBF
1.956695840000000,0,0x00,0xC9
1.956793120000000,0,0x00,0x3F
1.956890560000000,0,0x00,0xDC
1.956988000000000,0,0x00,0x3F
1.957085440000000,0,0x00,0xEE
1.957182880000000,0,0x00,0x3F
1.957280320000000,0,0x00,0xFF
1.957377600000000,0,0x00,0xBF
1.957475040000000,0,0x00,0x80
1.957572480000000,0,0x00,0x00
1.957669920000000,0,0x00,0x70
1.957767360000000,0,0x00,0x81
1.957864640000000,0,0x00,0xE1
1.957962080000000,0,0x00,0x03
1.958059520000000,0,0x00,0xD1
1.958156960000000,0,0x00,0x85
1.958254400000000,0,0x00,0xC2
1.958351840000000,0,0x00,0x07
1.958449120000000,0,0x00,0xB2
1.958546560000000,0,0x00,0x89
1.958644000000000,0,0x00,0xA3
1.958741440000000,0,0x00,0x0B
1.958838880000000,0,0x00,0x93
1.958936160000000,0,0x00,0x8D
1.959033600000000,0,0x00,0x84
1.959131040000000,0,0x00,0x0F
1.959228480000000,0,0x00,0xF4
1.959325920000000,0,0x00,0x91
1.959423360000000,0,0x00,0x65
1.959520640000000,0,0x00,0x13
1.959618080000000,0,0x00,0x55
1.959715520000000,0,0x00,0x95
1.959812960000000,0,0x00,0x46
1.959910400000000,0,0x00,0x17
1.960007680000000,0,0x00,0x36
1.960105120000000,0,0x00,0x19
1.960202560000000,0,0x00,0x26
1.960300000000000,0,0x00,0x9B
1.960397440000000,0,0x00,0x17
1.960494880000000,0,0x00,0x1D
1.960592160000000,0,0x00,0x07
1.960689600000000,0,0x00,0x9F
1.960787040000000,0,0x00,0x77
1.960884480000000,0,0x00,0xA0
1.960981920000000,0,0x00,0xE7
1.961079200000000,0,0x00,0xA2
1.961176640000000,0,0x00,0xD6
1.961274080000000,0,0x00,0x24
1.961371520000000,0,0x00,0xC2
1.961468960000000,0,0x00,0xA6
1.961566400000000,0,0x00,0xA8
1.961663680000000,0,0x00,0xA8
1.961761120000000,0,0x00,0x80
1.961858560000000,0,0x00,0xAA
1.961956000000000,0,0x00,0xBC
1.962053440000000,0,0x00,0xAC
1.962150720000000,0,0x00,0x48
1.962248160000000,0,0x00,0x2D
1.962345600000000,0,0x00,0x94
1.962443040000000,0,0x00,0xAF
1.962540480000000,0,0x00,0x20
1.962637920000000,0,0x00,0xB0
1.962735200000000,0,0x00,0x77
1.962832640000000,0,0x00,0x30
1.962919200000000,0,0x00,0x51
1.963016640000000,0,0x00,0xD8
1.963114080000000,0,0x00,0xD8
1.963211520000000,0,0x00,0xD9
1.963308960000000,0,0x00,0x14
1.963406240000000,0,0x00,0x99
1.963503680000000,0,0x00,0x47
1.963601120000000,0,0x00,0x59
1.963698560000000,0,0x00,0xB3
1.963796000000000,0,0x00,0x99
1.963893440000000,0,0x00,0xB6
1.963990720000000,0,0x00,0x97
1.964088160000000,0,0x00,0xB0
1.964185600000000,0,0x00,0x9B
1.964283040000000,0,0x00,0x87
1.964380480000000,0,0x00,0x5C
1.964477760000000,0,0x00,0xCF
1.964575200000000,0,0x00,0x5D
1.964672640000000,0,0x00,0x69
1.964770080000000,0,0x00,0xDD
1.964867520000000,0,0x00,0xAD
1.964964960000000,0,0x00,0xDD
1.965062240000000,0,0x00,0xE4
1.965159680000000,0,0x00,0x5E
1.965257120000000,0,0x00,0x11
1.965354560000000,0,0x00,0x9E
1.965452000000000,0,0x00,0x78
1.965549280000000,0,0x00,0x9E
1.965646720000000,0,0x00,0x5A
1.965744160000000,0,0x00,0x9E
1.965841600000000,0,0x00,0xB8
1.965939040000000,0,0x00,0xDE
1.966036480000000,0,0x00,0x94
1.966133760000000,0,0x00,0x1E
1.966231200000000,0,0x00,0xED
1.966328640000000,0,0x00,0x1E
1.966426080000000,0,0x00,0xC3
1.966523520000000,0,0x00,0xDF
1.966620800000000,0,0x00,0x18
1.966718240000000,0,0x00,0x9F
1.966815680000000,0,0x00,0x2C
1.966913120000000,0,0x00,0x1F
1.967010560000000,0,0x00,0x3E
1.967108000000000,0,0x00,0x5F
1.967205280000000,0,0x00,0x0F
1.967302720000000,0,0x00,0x5F
1.967400160000000,0,0x00,0x5F
1.967497600000000,0,0x00,0x9F
1.967595040000000,0,0x00,0x6E
1.967692320000000,0,0x00,0x9F
1.967789760000000,0,0x00,0x7D
1.967887200000000,0,0x00,0x1F
1.967984640000000,0,0x00,0x4A
1.968082080000000,0,0x00,0x9F
1.968179520000000,0,0x00,0x97
1.968276800000000,0,0x00,0x9F
1.968374240000000,0,0x00,0xA4
1.968471680000000,0,0x00,0x1F
1.968569120000000,0,0x00,0xB0
1.968666560000000,0,0x00,0x1F
1.968764000000000,0,0x00,0xBB
1.968861280000000,0,0x00,0x5F
1.968958720000000,0,0x00,0x86
1.969056160000000,0,0x00,0x5F
1.969153600000000,0,0x00,0xD0
1.969251040000000,0,0x00,0xDF
1.969348320000000,0,0x00,0xDA
1.969445760000000,0,0x00,0xDF
1.969543200000000,0,0x00,0xE4
1.969640640000000,0,0x00,0x9F
1.969738080000000,0,0x00,0xEE
1.969835520000000,0,0x00,0x1F
1.969932800000000,0,0x00,0xF7
1.970030240000000,0,0x00,0x1F
1.970127680000000,0,0x00,0xFF
1.970225120000000,0,0x00,0xDF
1.970322560000000,0,0x00,0xC0
1.970419840000000,0,0x00,0x00
1.970517280000000,0,0x00,0x1B
1.970614720000000,0,0x00,0xC1
1.970712160000000,0,0x00,0x37
1.970809600000000,0,0x00,0x82
1.970907040000000,0,0x00,0x13
1.971004320000000,0,0x00,0x03
1.971101760000000,0,0x00,0x6E
1.971199200000000,0,0x00,0xC4
1.971296640000000,0,0x00,0x4A
1.971394080000000,0,0x00,0x85
1.971491360000000,0,0x00,0xA6
1.971588800000000,0,0x00,0x46
1.971686240000000,0,0x00,0x82
1.971783680000000,0,0x00,0x07
1.971881120000000,0,0x00,0xDD
1.971978560000000,0,0x00,0x88
1.972075840000000,0,0x00,0xF9
1.972173280000000,0,0x00,0x49
1.972270720000000,0,0x00,0xD5
1.972368160000000,0,0x00,0x0B
1.972465600000000,0,0x00,0x30
1.972562880000000,0,0x00,0xCC
1.972660320000000,0,0x00,0x0C
1.972757760000000,0,0x00,0x8D
1.972855200000000,0,0x00,0x68
1.972952640000000,0,0x00,0x0E
1.973050080000000,0,0x00,0x43
1.973147360000000,0,0x00,0xCF
1.973244800000000,0,0x00,0x9F
1.973342240000000,0,0x00,0x50
1.973439680000000,0,0x00,0xBA
1.973537120000000,0,0x00,0x91
1.973634400000000,0,0x00,0x94
1.973731840000000,0,0x00,0x92
1.973829280000000,0,0x00,0xEB
1.973926720000000,0,0x00,0xD3
1.974024160000000,0,0x00,0xFB
1.974121600000000,0,0x00,0xD4
1.974218880000000,0,0x00,0xFA
1.974316320000000,0,0x00,0x95
1.974413760000000,0,0x00,0xD9
1.974511200000000,0,0x00,0xD6
1.974608640000000,0,0x00,0xCF
1.974705920000000,0,0x00,0x97
1.974803360000000,0,0x00,0x9D
1.974900800000000,0,0x00,0x18
1.974998240000000,0,0x00,0x0A
1.975095680000000,0,0x00,0x98
1.975193120000000,0,0x00,0xA1
1.975290400000000,0,0x00,0x58
1.975387840000000,0,0x00,0xE7
1.975485280000000,0,0x00,0xD9
1.975582720000000,0,0x00,0x22
1.975680160000000,0,0x00,0x99
1.975777440000000,0,0x00,0x54
1.975874880000000,0,0x00,0xD9
1.975972320000000,0,0x00,0x80
1.976069760000000,0,0x00,0x19
1.976167200000000,0,0x00,0xE6
1.976264640000000,0,0x00,0x59
1.976361920000000,0,0x00,0xC8
1.976459360000000,0,0x00,0x5A
1.976556800000000,0,0x00,0x27
1.976654240000000,0,0x00,0x1A
1.976751680000000,0,0x00,0x04
1.976848960000000,0,0x00,0x98
1.976946400000000,0,0x00,0x89
1.977043840000000,0,0x00,0x9B
1.977141280000000,0,0x00,0xD0
1.977238720000000,0,0x00,0xDC
1.977336160000000,0,0x00,0xD4
1.977433440000000,0,0x00,0xDD
1.977530880000000,0,0x00,0x6D
1.977628320000000,0,0x00,0xDD
1.977725760000000,0,0x00,0xB0
1.977823200000000,0,0x00,0xDD
1.977920480000000,0,0x00,0xE6
1.978017920000000,0,0x00,0x9E
1.978115360000000,0,0x00,0x13
1.978212800000000,0,0x00,0x9E
1.978310240000000,0,0x00,0x7A
1.978407680000000,0,0x00,0x5E
1.978504960000000,0,0x00,0x5C
1.978602400000000,0,0x00,0x1E
1.978699840000000,0,0x00,0xBA
1.978797280000000,0,0x00,0x1E
1.978894720000000,0,0x00,0x95
1.978992000000000,0,0x00,0x5E
1.979089440000000,0,0x00,0xED
1.979186880000000,0,0x00,0xDE
1.979284320000000,0,0x00,0xC4
1.979381760000000,0,0x00,0x9F
1.979479200000000,0,0x00,0x19
1.979576480000000,0,0x00,0x5F
1.979673920000000,0,0x00,0x2C
1.979771360000000,0,0x00,0xDF
1.979868800000000,0,0x00,0x3E
1.979966240000000,0,0x00,0xDF
1.980063680000000,0,0x00,0x0F
1.980160960000000,0,0x00,0xDF
1.980258400000000,0,0x00,0x5F
1.980355840000000,0,0x00,0xDF
1.980453280000000,0,0x00,0x6F
1.980550720000000,0,0x00,0x1F
1.980648000000000,0,0x00,0x7D
1.980745440000000,0,0x00,0x5F
1.980842880000000,0,0x00,0x4B
1.980940320000000,0,0x00,0x1F
1.981037760000000,0,0x00,0x97
1.981135200000000,0,0x00,0xDF
1.981232480000000,0,0x00,0xA4
1.981329920000000,0,0x00,0x5F
1.981427360000000,0,0x00,0xB0
1.981524800000000,0,0x00,0x1F
1.981622240000000,0,0x00,0xBB
1.981719520000000,0,0x00,0x9F
1.981816960000000,0,0x00,0x86
1.981914400000000,0,0x00,0x5F
1.982011840000000,0,0x00,0xD0
1.982109280000000,0,0x00,0xDF
1.982206720000000,0,0x00,0xDA
1.982304000000000,0,0x00,0xDF
1.982401440000000,0,0x00,0xE4
1.982498880000000,0,0x00,0x9F
1.982596320000000,0,0x00,0xEE
1.982693760000000,0,0x00,0x1F
1.982791040000000,0,0x00,0xF7
1.982888480000000,0,0x00,0x1F
1.982985920000000,0,0x00,0xFF
1.983083360000000,0,0x00,0xDF
1.983180800000000,0,0x00,0xC0
1.983278240000000,0,0x00,0x00
1.983375520000000,0,0x00,0x04
1.983472960000000,0,0x00,0x41
1.983570400000000,0,0x00,0x48
1.983667840000000,0,0x00,0x82
1.983765280000000,0,0x00,0x8C
1.983862560000000,0,0x00,0xC3
1.983960000000000,0,0x00,0xD1
1.984057440000000,0,0x00,0x05
1.984154880000000,0,0x00,0x15
1.984252320000000,0,0x00,0x46
1.984349760000000,0,0x00,0x59
1.984447040000000,0,0x00,0x87
1.984544480000000,0,0x00,0x9D
1.984641920000000,0,0x00,0x88
1.984739360000000,0,0x00,0xE2
1.984836800000000,0,0x00,0x0A
1.984934080000000,0,0x00,0x26
1.985031520000000,0,0x00,0x0B
1.985128960000000,0,0x00,0x6A
1.985226400000000,0,0x00,0x4C
1.985323840000000,0,0x00,0xAE
1.985421280000000,0,0x00,0x8D
1.985518560000000,0,0x00,0xF2
1.985616000000000,0,0x00,0xCF
1.985713440000000,0,0x00,0x36
1.985810880000000,0,0x00,0xD0
1.985908320000000,0,0x00,0x7A
1.986005600000000,0,0x00,0x51
1.986103040000000,0,0x00,0xBC
1.986200480000000,0,0x00,0x52
1.986297920000000,0,0x00,0xF9
1.986395360000000,0,0x00,0x54
1.986492800000000,0,0x00,0x28
1.986590080000000,0,0x00,0x15
1.986687520000000,0,0x00,0x76
1.986784960000000,0,0x00,0x96
1.986882400000000,0,0x00,0x51
1.986979840000000,0,0x00,0x57
1.987077120000000,0,0x00,0x76
1.987174560000000,0,0x00,0x57
1.987272000000000,0,0x00,0xF2
1.987369440000000,0,0x00,0x18
1.987466880000000,0,0x00,0x51
1.987564320000000,0,0x00,0x18
1.987661600000000,0,0x00,0xDC
1.987759040000000,0,0x00,0x99
1.987856480000000,0,0x00,0x1A
1.987953920000000,0,0x00,0x99
1.988051360000000,0,0x00,0x4E
1.988148640000000,0,0x00,0xD9
1.988246080000000,0,0x00,0xBB
1.988343520000000,0,0x00,0xD9
1.988440960000000,0,0x00,0xA3
1.988538400000000,0,0x00,0x19
1.988635840000000,0,0x00,0xC5
1.988733120000000,0,0x00,0xDA
1.988830560000000,0,0x00,0x25
1.988928000000000,0,0x00,0x1A
1.989025440000000,0,0x00,0x01
1.989122880000000,0,0x00,0x5A
1.989220160000000,0,0x00,0x5B
1.989317600000000,0,0x00,0x5A
1.989415040000000,0,0x00,0x73
1.989512480000000,0,0x00,0x1A
1.989609920000000,0,0x00,0x48
1.989707360000000,0,0x00,0x59
1.989804640000000,0,0x00,0x1D
1.989902080000000,0,0x00,0xDB
1.989999520000000,0,0x00,0xD8
1.990096960000000,0,0x00,0xDC
1.990194400000000,0,0x00,0xD9
1.990291680000000,0,0x00,0xDD
1.990389120000000,0,0x00,0x71
1.990486560000000,0,0x00,0x5D
1.990584000000000,0,0x00,0xB3
1.990681440000000,0,0x00,0x9D
1.990778880000000,0,0x00,0xE8
1.990876160000000,0,0x00,0xDE
1.990973600000000,0,0x00,0x15
1.991071040000000,0,0x00,0x5E
1.991168480000000,0,0x00,0x7B
1.991265920000000,0,0x00,0x9E
1.991363360000000,0,0x00,0x5D
1.991460640000000,0,0x00,0x5E
1.991558080000000,0,0x00,0xBB
1.991655520000000,0,0x00,0x1E
1.991752960000000,0,0x00,0x96
1.991850400000000,0,0x00,0x1E
1.991947680000000,0,0x00,0xEE
1.992045120000000,0,0x00,0x9E
1.992142560000000,0,0x00,0xC5
1.992240000000000,0,0x00,0x5F
1.992337440000000,0,0x00,0x1A
1.992434880000000,0,0x00,0x1F
1.992532160000000,0,0x00,0x2D
1.992629600000000,0,0x00,0x5F
1.992727040000000,0,0x00,0x3F
1.992824480000000,0,0x00,0x5F
1.992921920000000,0,0x00,0x10
1.993019200000000,0,0x00,0x5F
1.993116640000000,0,0x00,0x60
1.993214080000000,0,0x00,0x5F
1.993311520000000,0,0x00,0x6F
1.993408960000000,0,0x00,0x5F
1.993506400000000,0,0x00,0x7D
1.993603680000000,0,0x00,0x9F
1.993701120000000,0,0x00,0x4B
1.993798560000000,0,0x00,0x5F
1.993896000000000,0,0x00,0x98
1.993993440000000,0,0x00,0x1F
1.994090720000000,0,0x00,0xA4
1.994188160000000,0,0x00,0x9F
1.994285600000000,0,0x00,0xB0
1.994383040000000,0,0x00,0x5F
1.994480480000000,0,0x00,0xBB
1.994577920000000,0,0x00,0x9F
1.994675200000000,0,0x00,0x86
1.994772640000000,0,0x00,0x9F
1.994870080000000,0,0x00,0xD0
1.994967520000000,0,0x00,0xDF
1.995064960000000,0,0x00,0xDB
1.995162240000000,0,0x00,0x1F
1.995259680000000,0,0x00,0xE4
1.995357120000000,0,0x00,0xDF
1.995454560000000,0,0x00,0xEE
1.995552000000000,0,0x00,0x1F
1.995649440000000,0,0x00,0xF7
1.995746720000000,0,0x00,0x1F
1.995844160000000,0,0x00,0xFF
1.995941600000000,0,0x00,0xDF
1.996039040000000,0,0x00,0xC0
1.996136480000000,0,0x00,0x00
1.996233760000000,0,0x00,0x32
1.996331200000000,0,0x00,0x81
1.996428640000000,0,0x00,0x65
1.996526080000000,0,0x00,0x02
1.996623520000000,0,0x00,0xD7
1.996720960000000,0,0x00,0x84
1.996818240000000,0,0x00,0x4A
1.996915680000000,0,0x00,0x45
1.997013120000000,0,0x00,0xFC
1.997110560000000,0,0x00,0xC7
1.997208000000000,0,0x00,0x2F
1.997305280000000,0,0x00,0x48
1.997402720000000,0,0x00,0xA2
1.997500160000000,0,0x00,0x0A
1.997597600000000,0,0x00,0x14
1.997695040000000,0,0x00,0x8B
1.997792480000000,0,0x00,0x87
1.997889760000000,0,0x00,0x0D
1.997987200000000,0,0x00,0x39
1.998084640000000,0,0x00,0x8E
1.998182080000000,0,0x00,0x6C
1.998279520000000,0,0x00,0x0F
1.998376800000000,0,0x00,0xDD
1.998474240000000,0,0x00,0xD1
1.998571680000000,0,0x00,0x4E
1.998669120000000,0,0x00,0x12
1.998766560000000,0,0x00,0xF7
1.998864000000000,0,0x00,0xD4
1.998961280000000,0,0x00,0x0C
1.999058720000000,0,0x00,0x95
1.999156160000000,0,0x00,0xAF
1.999253600000000,0,0x00,0xD6
1.999351040000000,0,0x00,0x8C
1.999448320000000,0,0x00,0x17
1.999545760000000,0,0x00,0xA9
1.999643200000000,0,0x00,0xD8
1.999740640000000,0,0x00,0x1D
1.999838080000000,0,0x00,0x58
1.999935520000000,0,0x00,0xB5
2.000032800000000,0,0x00,0xD8
2.000130240000000,0,0x00,0xFC
2.000227680000000,0,0x00,0x19
2.000325120000000,0,0x00,0x36
2.000422560000000,0,0x00,0x19
2.000519840000000,0,0x00,0x67
2.000617280000000,0,0x00,0x19
2.000714720000000,0,0x00,0x91
2.000812160000000,0,0x00,0x99
2.000909600000000,0,0x00,0xF6
2.001007040000000,0,0x00,0x99
2.001104320000000,0,0x00,0xD7
2.001201760000000,0,0x00,0xDA
2.001299200000000,0,0x00,0x35
2.001396640000000,0,0x00,0x9A
2.001494080000000,0,0x00,0x10
2.001591520000000,0,0x00,0x9A
2.001688800000000,0,0x00,0x69
2.001786240000000,0,0x00,0x9A
2.001883680000000,0,0x00,0x40
2.001981120000000,0,0x00,0x5A
2.002078560000000,0,0x00,0x95
2.002175840000000,0,0x00,0x9A
2.002273280000000,0,0x00,0xA9
2.002370720000000,0,0x00,0x5A
2.002468160000000,0,0x00,0xA4
2.002565600000000,0,0x00,0x19
2.002663040000000,0,0x00,0x6E
2.002760320000000,0,0x00,0x9B
2.002857760000000,0,0x00,0xDF
2.002955200000000,0,0x00,0x9C
2.003052640000000,0,0x00,0xDE
2.003150080000000,0,0x00,0x1D
2.003247360000000,0,0x00,0x74
2.003344800000000,0,0x00,0x5D
2.003442240000000,0,0x00,0xB5
2.003539680000000,0,0x00,0xDD
2.003637120000000,0,0x00,0xEA
2.003734560000000,0,0x00,0x9E
2.003831840000000,0,0x00,0x16
2.003929280000000,0,0x00,0xDE
2.004026720000000,0,0x00,0x7C
2.004124160000000,0,0x00,0xDE
2.004221600000000,0,0x00,0x5E
2.004318880000000,0,0x00,0x5E
2.004416320000000,0,0x00,0xBC
2.004513760000000,0,0x00,0x1E
2.004611200000000,0,0x00,0x96
2.004708640000000,0,0x00,0xDE
2.004806080000000,0,0x00,0xEF
2.004903360000000,0,0x00,0x5E
2.005000800000000,0,0x00,0xC5
2.005098240000000,0,0x00,0xDF
2.005195680000000,0,0x00,0x1A
2.005293120000000,0,0x00,0x9F
2.005390400000000,0,0x00,0x2D
2.005487840000000,0,0x00,0xDF
2.005585280000000,0,0x00,0x3F
2.005682720000000,0,0x00,0xDF
2.005780160000000,0,0x00,0x10
2.005877600000000,0,0x00,0xDF
2.005974880000000,0,0x00,0x60
2.006072320000000,0,0x00,0x9F
2.006169760000000,0,0x00,0x6F
2.006267200000000,0,0x00,0x9F
2.006364640000000,0,0x00,0x7D
2.006461920000000,0,0x00,0xDF
2.006559360000000,0,0x00,0x4B
2.006656800000000,0,0x00,0x5F
2.006754240000000,0,0x00,0x98
2.006851680000000,0,0x00,0x5F
2.006949120000000,0,0x00,0xA4
2.007046400000000,0,0x00,0x9F
2.007143840000000,0,0x00,0xB0
2.007241280000000,0,0x00,0x5F
2.007338720000000,0,0x00,0xBB
2.007436160000000,0,0x00,0xDF
2.007533440000000,0,0x00,0x86
2.007630880000000,0,0x00,0x9F
2.007728320000000,0,0x00,0xD1
2.007825760000000,0,0x00,0x1F
2.007923200000000,0,0x00,0xDB
2.008020640000000,0,0x00,0x1F
2.008117920000000,0,0x00,0xE4
2.008215360000000,0,0x00,0xDF
2.008312800000000,0,0x00,0xEE
2.008410240000000,0,0x00,0x1F
2.008507680000000,0,0x00,0xF7
2.008604960000000,0,0x00,0x1F
2.008702400000000,0,0x00,0xFF
2.008799840000000,0,0x00,0xDF
2.008897280000000,0,0x00,0xC0
2.008994720000000,0,0x00,0x00
2.009092160000000,0,0x00,0x27
2.009189440000000,0,0x00,0x81
2.009286880000000,0,0x00,0x8F
2.009384320000000,0,0x00,0x03
2.009481760000000,0,0x00,0x76
2.009579200000000,0,0x00,0x84
2.009676480000000,0,0x00,0xDE
2.009773920000000,0,0x00,0x06
2.009871360000000,0,0x00,0x85
2.009968800000000,0,0x00,0x88
2.010066240000000,0,0x00,0x6D
2.010163680000000,0,0x00,0x09
2.010260960000000,0,0x00,0xD4
2.010358400000000,0,0x00,0x8B
2.010455840000000,0,0x00,0xBC
2.010553280000000,0,0x00,0x0D
2.010650720000000,0,0x00,0x23
2.010748000000000,0,0x00,0x8E
2.010845440000000,0,0x00,0xCA
2.010942880000000,0,0x00,0x90
2.011040320000000,0,0x00,0xB0
2.011137760000000,0,0x00,0x92
2.011235200000000,0,0x00,0x10
2.011332480000000,0,0x00,0x93
2.011429920000000,0,0x00,0xD9
2.011527360000000,0,0x00,0xD5
2.011624800000000,0,0x00,0x64
2.011722240000000,0,0x00,0x16
2.011819520000000,0,0x00,0x92
2.011916960000000,0,0x00,0x57
2.012014400000000,0,0x00,0xB5
2.012111840000000,0,0x00,0x98
2.012209280000000,0,0x00,0x29
2.012306720000000,0,0x00,0xD8
2.012404000000000,0,0x00,0x81
2.012501440000000,0,0x00,0xD9
2.012598880000000,0,0x00,0x07
2.012696320000000,0,0x00,0x59
2.012793760000000,0,0x00,0x40
2.012891200000000,0,0x00,0x59
2.012988480000000,0,0x00,0xB0
2.013085920000000,0,0x00,0x99
2.013183360000000,0,0x00,0x9A
2.013280800000000,0,0x00,0x59
2.013378240000000,0,0x00,0xFE
2.013475520000000,0,0x00,0xD9
2.013572960000000,0,0x00,0xDF
2.013670400000000,0,0x00,0x5A
2.013767840000000,0,0x00,0x3C
2.013865280000000,0,0x00,0xDA
2.013962720000000,0,0x00,0x17
2.014060000000000,0,0x00,0x5A
2.014157440000000,0,0x00,0x6F
2.014254880000000,0,0x00,0xDA
2.014352320000000,0,0x00,0x46
2.014449760000000,0,0x00,0x5A
2.014547040000000,0,0x00,0x9B
2.014644480000000,0,0x00,0x1A
2.014741920000000,0,0x00,0xAE
2.014839360000000,0,0x00,0x9A
2.014936800000000,0,0x00,0x80
2.015034240000000,0,0x00,0xDA
2.015131520000000,0,0x00,0xD2
2.015228960000000,0,0x00,0x1A
2.015326400000000,0,0x00,0xE7
2.015423840000000,0,0x00,0xD9
2.015521280000000,0,0x00,0xBC
2.015618560000000,0,0x00,0x5B
2.015716000000000,0,0x00,0xE5
2.015813440000000,0,0x00,0x5C
2.015910880000000,0,0x00,0xE1
2.016008320000000,0,0x00,0x9D
2.016105760000000,0,0x00,0x76
2.016203040000000,0,0x00,0xDD
2.016300480000000,0,0x00,0xB7
2.016397920000000,0,0x00,0xDD
2.016495360000000,0,0x00,0xEC
2.016592800000000,0,0x00,0x1E
2.016690080000000,0,0x00,0x18
2.016787520000000,0,0x00,0x1E
2.016884960000000,0,0x00,0x7E
2.016982400000000,0,0x00,0x1E
2.017079840000000,0,0x00,0x5F
2.017177280000000,0,0x00,0x5E
2.017274560000000,0,0x00,0xBC
2.017372000000000,0,0x00,0xDE
2.017469440000000,0,0x00,0x97
2.017566880000000,0,0x00,0x9E
2.017664320000000,0,0x00,0xF0
2.017761600000000,0,0x00,0x1E
2.017859040000000,0,0x00,0xC6
2.017956480000000,0,0x00,0x5F
2.018053920000000,0,0x00,0x1B
2.018151360000000,0,0x00,0x1F
2.018248800000000,0,0x00,0x2E
2.018346080000000,0,0x00,0x5F
2.018443520000000,0,0x00,0x00
2.018540960000000,0,0x00,0x1F
2.018638400000000,0,0x00,0x51
2.018735840000000,0,0x00,0x1F
2.018833120000000,0,0x00,0x60
2.018930560000000,0,0x00,0xDF
2.019028000000000,0,0x00,0x6F
2.019125440000000,0,0x00,0xDF
2.019222880000000,0,0x00,0x7E
2.019320320000000,0,0x00,0x1F
2.019417600000000,0,0x00,0x4B
2.019515040000000,0,0x00,0x9F
2.019612480000000,0,0x00,0x98
2.019709920000000,0,0x00,0x9F
2.019807360000000,0,0x00,0xA4
2.019904640000000,0,0x00,0xDF
2.020002080000000,0,0x00,0xB0
2.020099520000000,0,0x00,0x9F
2.020196960000000,0,0x00,0xBB
2.020294400000000,0,0x00,0xDF
2.020391840000000,0,0x00,0x86
2.020489120000000,0,0x00,0x9F
2.020586560000000,0,0x00,0xD1
2.020684000000000,0,0x00,0x1F
2.020781440000000,0,0x00,0xDB
2.020878880000000,0,0x00,0x1F
2.020976160000000,0,0x00,0xE4
2.021073600000000,0,0x00,0xDF
2.021171040000000,0,0x00,0xEE
2.021268480000000,0,0x00,0x1F
2.021365920000000,0,0x00,0xF7
2.021463360000000,0,0x00,0x1F
2.021560640000000,0,0x00,0xFF
2.021658080000000,0,0x00,0xDF
2.021755520000000,0,0x00,0xC0
2.021852960000000,0,0x00,0x00
2.021950400000000,0,0x00,0x24
2.022047680000000,0,0x00,0x01
2.022145120000000,0,0x00,0xC8
2.022242560000000,0,0x00,0x03
2.022340000000000,0,0x00,0xEC
2.022437440000000,0,0x00,0x05
2.022534880000000,0,0x00,0x90
2.022632160000000,0,0x00,0x07
2.022729600000000,0,0x00,0xB4
2.022827040000000,0,0x00,0x09
2.022924480000000,0,0x00,0x58
2.023021920000000,0,0x00,0x0B
2.023119200000000,0,0x00,0x7C
2.023216640000000,0,0x00,0x0D
2.023314080000000,0,0x00,0x1F
2.023411520000000,0,0x00,0xCF
2.023508960000000,0,0x00,0x03
2.023606400000000,0,0x00,0x11
2.023703680000000,0,0x00,0x23
2.023801120000000,0,0x00,0x92
2.023898560000000,0,0x00,0xF3
2.023996000000000,0,0x00,0x14
2.024093440000000,0,0x00,0x84
2.024190880000000,0,0x00,0x96
2.024288160000000,0,0x00,0x62
2.024385600000000,0,0x00,0x97
2.024483040000000,0,0x00,0x5C
2.024580480000000,0,0x00,0x98
2.024677920000000,0,0x00,0x1B
2.024775200000000,0,0x00,0x58
2.024872640000000,0,0x00,0xB8
2.024970080000000,0,0x00,0x98
2.025067520000000,0,0x00,0xC1
2.025164960000000,0,0x00,0x19
2.025262400000000,0,0x00,0x7C
2.025359680000000,0,0x00,0x19
2.025457120000000,0,0x00,0x6D
2.025554560000000,0,0x00,0x99
2.025652000000000,0,0x00,0x98
2.025749440000000,0,0x00,0x19
2.025846720000000,0,0x00,0xFD
2.025944160000000,0,0x00,0x59
2.026041600000000,0,0x00,0xDE
2.026139040000000,0,0x00,0x5A
2.026236480000000,0,0x00,0x3B
2.026333920000000,0,0x00,0xDA
2.026431200000000,0,0x00,0x16
2.026528640000000,0,0x00,0xDA
2.026626080000000,0,0x00,0x6F
2.026723520000000,0,0x00,0x5A
2.026820960000000,0,0x00,0x46
2.026918240000000,0,0x00,0x1A
2.027015680000000,0,0x00,0x9B
2.027113120000000,0,0x00,0x1A
2.027210560000000,0,0x00,0xAE
2.027308000000000,0,0x00,0x9A
2.027405440000000,0,0x00,0x80
2.027502720000000,0,0x00,0xDA
2.027600160000000,0,0x00,0xD2
2.027697600000000,0,0x00,0x1A
2.027795040000000,0,0x00,0xE2
2.027892480000000,0,0x00,0x5A
2.027989760000000,0,0x00,0xF1
2.028087200000000,0,0x00,0x9A
2.028184640000000,0,0x00,0xDB
2.028282080000000,0,0x00,0x59
2.028379520000000,0,0x00,0xC7
2.028476960000000,0,0x00,0xDC
2.028574240000000,0,0x00,0x2A
2.028671680000000,0,0x00,0x5C
2.028769120000000,0,0x00,0xE4
2.028866560000000,0,0x00,0xDD
2.028964000000000,0,0x00,0x79
2.029061280000000,0,0x00,0x1D
2.029158720000000,0,0x00,0xB9
2.029256160000000,0,0x00,0x5D
2.029353600000000,0,0x00,0xED
2.029451040000000,0,0x00,0x9E
2.029548480000000,0,0x00,0x19
2.029645760000000,0,0x00,0x5E
2.029743200000000,0,0x00,0x7E
2.029840640000000,0,0x00,0xDE
2.029938080000000,0,0x00,0x60
2.030035520000000,0,0x00,0x1E
2.030132800000000,0,0x00,0xBD
2.030230240000000,0,0x00,0x9E
2.030327680000000,0,0x00,0x98
2.030425120000000,0,0x00,0x5E
2.030522560000000,0,0x00,0xF0
2.030620000000000,0,0x00,0x9E
2.030717280000000,0,0x00,0xC6
2.030814720000000,0,0x00,0xDF
2.030912160000000,0,0x00,0x1B
2.031009600000000,0,0x00,0x5F
2.031107040000000,0,0x00,0x2E
2.031204320000000,0,0x00,0x9F
2.031301760000000,0,0x00,0x00
2.031399200000000,0,0x00,0x9F
2.031496640000000,0,0x00,0x51
2.031594080000000,0,0x00,0x5F
2.031691520000000,0,0x00,0x61
2.031788800000000,0,0x00,0x1F
2.031886240000000,0,0x00,0x70
2.031983680000000,0,0x00,0x1F
2.032081120000000,0,0x00,0x7E
2.032178560000000,0,0x00,0x5F
2.032275840000000,0,0x00,0x4B
2.032373280000000,0,0x00,0xDF
2.032470720000000,0,0x00,0x98
2.032568160000000,0,0x00,0x9F
2.032665600000000,0,0x00,0xA4
2.032763040000000,0,0x00,0xDF
2.032860320000000,0,0x00,0xB0
2.032957760000000,0,0x00,0x9F
2.033055200000000,0,0x00,0xBB
2.033152640000000,0,0x00,0xDF
2.033250080000000,0,0x00,0x86
2.033347360000000,0,0x00,0xDF
2.033444800000000,0,0x00,0xD1
2.033542240000000,0,0x00,0x1F
2.033639680000000,0,0x00,0xDB
2.033737120000000,0,0x00,0x1F
2.033834560000000,0,0x00,0xE4
2.033931840000000,0,0x00,0xDF
2.034029280000000,0,0x00,0xEE
2.034126720000000,0,0x00,0x1F
2.034224160000000,0,0x00,0xF7
2.034321600000000,0,0x00,0x5F
2.034418880000000,0,0x00,0xFF
2.034516320000000,0,0x00,0xDF
2.034613760000000,0,0x00,0xC0
2.034711200000000,0,0x00,0x00
2.034808640000000,0,0x00,0x29
2.034906080000000,0,0x00,0x02
2.035003360000000,0,0x00,0x12
2.035100800000000,0,0x00,0x04
2.035198240000000,0,0x00,0x7B
2.035295680000000,0,0x00,0x86
2.035393120000000,0,0x00,0x64
2.035490560000000,0,0x00,0x88
2.035587840000000,0,0x00,0x8D
2.035685280000000,0,0x00,0x8A
2.035782720000000,0,0x00,0xF7
2.035880160000000,0,0x00,0x0C
2.035977600000000,0,0x00,0xE0
2.036074880000000,0,0x00,0x0F
2.036172320000000,0,0x00,0x08
2.036269760000000,0,0x00,0x11
2.036367200000000,0,0x00,0x69
2.036464640000000,0,0x00,0x93
2.036562080000000,0,0x00,0x65
2.036659360000000,0,0x00,0x15
2.036756800000000,0,0x00,0x66
2.036854240000000,0,0x00,0x96
2.036951680000000,0,0x00,0xD6
2.037049120000000,0,0x00,0xD7
2.037146400000000,0,0x00,0xEF
2.037243840000000,0,0x00,0x58
2.037341280000000,0,0x00,0x5A
2.037438720000000,0,0x00,0x18
2.037536160000000,0,0x00,0xEA
2.037633600000000,0,0x00,0x59
2.037730880000000,0,0x00,0x2A
2.037828320000000,0,0x00,0x59
2.037925760000000,0,0x00,0x5F
2.038023200000000,0,0x00,0x19
2.038120640000000,0,0x00,0x8B
2.038217920000000,0,0x00,0xD9
2.038315360000000,0,0x00,0xF2
2.038412800000000,0,0x00,0xD9
2.038510240000000,0,0x00,0xD5
2.038607680000000,0,0x00,0x5A
2.038705120000000,0,0x00,0x34
2.038802400000000,0,0x00,0x1A
2.038899840000000,0,0x00,0x0F
2.038997280000000,0,0x00,0xDA
2.039094720000000,0,0x00,0x69
2.039192160000000,0,0x00,0x1A
2.039289440000000,0,0x00,0x40
2.039386880000000,0,0x00,0x5A
2.039484320000000,0,0x00,0x95
2.039581760000000,0,0x00,0xDA
2.039679200000000,0,0x00,0xA9
2.039776640000000,0,0x00,0xDA
2.039873920000000,0,0x00,0xBC
2.039971360000000,0,0x00,0x9A
2.040068800000000,0,0x00,0x8E
2.040166240000000,0,0x00,0x1A
2.040263680000000,0,0x00,0xDE
2.040360960000000,0,0x00,0x9A
2.040458400000000,0,0x00,0xEE
2.040555840000000,0,0x00,0x1A
2.040653280000000,0,0x00,0xFC
2.040750720000000,0,0x00,0xDA
2.040848160000000,0,0x00,0xCA
2.040945440000000,0,0x00,0xDB
2.041042880000000,0,0x00,0x04
2.041140320000000,0,0x00,0x1A
2.041237760000000,0,0x00,0x11
2.041335200000000,0,0x00,0x9C
2.041432480000000,0,0x00,0x2E
2.041529920000000,0,0x00,0x9C
2.041627360000000,0,0x00,0xE7
2.041724800000000,0,0x00,0x9D
2.041822240000000,0,0x00,0x7B
2.041919680000000,0,0x00,0x1D
2.042016960000000,0,0x00,0xBA
2.042114400000000,0,0x00,0xDD
2.042211840000000,0,0x00,0xEE
2.042309280000000,0,0x00,0xDE
2.042406720000000,0,0x00,0x1A
2.042504000000000,0,0x00,0x5E
2.042601440000000,0,0x00,0x7F
2.042698880000000,0,0x00,0xDE
2.042796320000000,0,0x00,0x60
2.042893760000000,0,0x00,0xDE
2.042991200000000,0,0x00,0xBE
2.043088480000000,0,0x00,0x1E
2.043185920000000,0,0x00,0x98
2.043283360000000,0,0x00,0xDE
2.043380800000000,0,0x00,0xF1
2.043478240000000,0,0x00,0x1E
2.043575520000000,0,0x00,0xC7
2.043672960000000,0,0x00,0x5F
2.043770400000000,0,0x00,0x1B
2.043867840000000,0,0x00,0xDF
2.043965280000000,0,0x00,0x2E
2.044062720000000,0,0x00,0xDF
2.044160000000000,0,0x00,0x00
2.044257440000000,0,0x00,0xDF
2.044354880000000,0,0x00,0x51
2.044452320000000,0,0x00,0x9F
2.044549760000000,0,0x00,0x61
2.044647040000000,0,0x00,0x5F
2.044744480000000,0,0x00,0x70
2.044841920000000,0,0x00,0x5F
2.044939360000000,0,0x00,0x7E
2.045036800000000,0,0x00,0x9F
2.045134240000000,0,0x00,0x4B
2.045231520000000,0,0x00,0xDF
2.045328960000000,0,0x00,0x98
2.045426400000000,0,0x00,0xDF
2.045523840000000,0,0x00,0xA5
2.045621280000000,0,0x00,0x1F
2.045718720000000,0,0x00,0xB0
2.045816000000000,0,0x00,0xDF
2.045913440000000,0,0x00,0xBC
2.046010880000000,0,0x00,0x1F
2.046108320000000,0,0x00,0x86
2.046205760000000,0,0x00,0xDF
2.046303040000000,0,0x00,0xD1
2.046400480000000,0,0x00,0x5F
2.046497920000000,0,0x00,0xDB
2.046595360000000,0,0x00,0x5F
2.046692800000000,0,0x00,0xE4
2.046790240000000,0,0x00,0xDF
2.046887520000000,0,0x00,0xEE
2.046984960000000,0,0x00,0x1F
2.047082400000000,0,0x00,0xF7
2.047179840000000,0,0x00,0x5F
2.047277280000000,0,0x00,0xFF
2.047374560000000,0,0x00,0xDF
2.047472000000000,0,0x00,0xC0
2.047569440000000,0,0x00,0x00
2.047666880000000,0,0x00,0x38
2.047764320000000,0,0x00,0x02
2.047861760000000,0,0x00,0x70
2.047959040000000,0,0x00,0x04
2.048056480000000,0,0x00,0xE8
2.048153920000000,0,0x00,0x87
2.048251360000000,0,0x00,0x60
2.048348800000000,0,0x00,0x89
2.048446080000000,0,0x00,0xD9
2.048543520000000,0,0x00,0x0C
2.048640960000000,0,0x00,0x51
2.048738400000000,0,0x00,0x0E
2.048835840000000,0,0x00,0xC8
2.048933280000000,0,0x00,0x11
2.049030560000000,0,0x00,0x74
2.049128000000000,0,0x00,0x93
2.049225440000000,0,0x00,0x9A
2.049322880000000,0,0x00,0x95
2.049420320000000,0,0x00,0xC7
2.049517600000000,0,0x00,0x97
2.049615040000000,0,0x00,0x5A
2.049712480000000,0,0x00,0x58
2.049809920000000,0,0x00,0x20
2.049907360000000,0,0x00,0x98
2.050004800000000,0,0x00,0x80
2.050102080000000,0,0x00,0x19
2.050199520000000,0,0x00,0x09
2.050296960000000,0,0x00,0x59
2.050394400000000,0,0x00,0x44
2.050491840000000,0,0x00,0x59
2.050589120000000,0,0x00,0xB5
2.050686560000000,0,0x00,0x99
2.050784000000000,0,0x00,0x9F
2.050881440000000,0,0x00,0xD9
2.050978880000000,0,0x00,0xC4
2.051076320000000,0,0x00,0x9A
2.051173600000000,0,0x00,0x25
2.051271040000000,0,0x00,0x5A
2.051368480000000,0,0x00,0x02
2.051465920000000,0,0x00,0x9A
2.051563360000000,0,0x00,0x5D
2.051660640000000,0,0x00,0x1A
2.051758080000000,0,0x00,0x75
2.051855520000000,0,0x00,0x5A
2.051952960000000,0,0x00,0x4B
2.052050400000000,0,0x00,0xDA
2.052147840000000,0,0x00,0xA0
2.052245120000000,0,0x00,0x9A
2.052342560000000,0,0x00,0xB3
2.052440000000000,0,0x00,0xDA
2.052537440000000,0,0x00,0x86
2.052634880000000,0,0x00,0x1A
2.052732160000000,0,0x00,0xD7
2.052829600000000,0,0x00,0x1A
2.052927040000000,0,0x00,0xE7
2.053024480000000,0,0x00,0x1A
2.053121920000000,0,0x00,0xF6
2.053219360000000,0,0x00,0x1A
2.053316640000000,0,0x00,0xC4
2.053414080000000,0,0x00,0x9B
2.053511520000000,0,0x00,0x12
2.053608960000000,0,0x00,0x1B
2.053706400000000,0,0x00,0x1F
2.053803680000000,0,0x00,0x5B
2.053901120000000,0,0x00,0x24
2.053998560000000,0,0x00,0xDA
2.054096000000000,0,0x00,0x19
2.054193440000000,0,0x00,0xDC
2.054290880000000,0,0x00,0x32
2.054388160000000,0,0x00,0x5C
2.054485600000000,0,0x00,0xE9
2.054583040000000,0,0x00,0xDD
2.054680480000000,0,0x00,0x7C
2.054777920000000,0,0x00,0xDD
2.054875200000000,0,0x00,0xBC
2.054972640000000,0,0x00,0x5D
2.055070080000000,0,0x00,0xEF
2.055167520000000,0,0x00,0xDE
2.055264960000000,0,0x00,0x1B
2.055362400000000,0,0x00,0x1E
2.055459680000000,0,0x00,0x40
2.055557120000000,0,0x00,0x9E
2.055654560000000,0,0x00,0xA1
2.055752000000000,0,0x00,0x5E
2.055849440000000,0,0x00,0xBE
2.055946720000000,0,0x00,0xDE
2.056044160000000,0,0x00,0x99
2.056141600000000,0,0x00,0x5E
2.056239040000000,0,0x00,0xF1
2.056336480000000,0,0x00,0x5E
2.056433920000000,0,0x00,0xC7
2.056531200000000,0,0x00,0x9F
2.056628640000000,0,0x00,0x1C
2.056726080000000,0,0x00,0x1F
2.056823520000000,0,0x00,0x2F
2.056920960000000,0,0x00,0x1F
2.057018400000000,0,0x00,0x01
2.057115680000000,0,0x00,0x1F
2.057213120000000,0,0x00,0x51
2.057310560000000,0,0x00,0xDF
2.057408000000000,0,0x00,0x61
2.057505440000000,0,0x00,0x9F
2.057602720000000,0,0x00,0x70
2.057700160000000,0,0x00,0x9F
2.057797600000000,0,0x00,0x7E
2.057895040000000,0,0x00,0x9F
2.057992480000000,0,0x00,0x4C
2.058089920000000,0,0x00,0x1F
2.058187200000000,0,0x00,0x98
2.058284640000000,0,0x00,0xDF
2.058382080000000,0,0x00,0xA5
2.058479520000000,0,0x00,0x1F
2.058576960000000,0,0x00,0xB0
2.058674240000000,0,0x00,0xDF
2.058771680000000,0,0x00,0xBC
2.058869120000000,0,0x00,0x1F
2.058966560000000,0,0x00,0x86
2.059064000000000,0,0x00,0xDF
2.059161440000000,0,0x00,0xD1
2.059258720000000,0,0x00,0x5F
2.059356160000000,0,0x00,0xDB
2.059453600000000,0,0x00,0x5F
2.059551040000000,0,0x00,0xE4
2.059648480000000,0,0x00,0xDF
2.059745760000000,0,0x00,0xEE
2.059843200000000,0,0x00,0x5F
2.059940640000000,0,0x00,0xF7
2.060038080000000,0,0x00,0x5F
2.060135520000000,0,0x00,0xFF
2.060232960000000,0,0x00,0xDF
2.060330240000000,0,0x00,0xC0
2.060427680000000,0,0x00,0x00
2.060525120000000,0,0x00,0x12
2.060622560000000,0,0x00,0x82
2.060720000000000,0,0x00,0xE5
2.060817280000000,0,0x00,0x05
2.060914720000000,0,0x00,0xB7
2.061012160000000,0,0x00,0x88
2.061109600000000,0,0x00,0x4A
2.061207040000000,0,0x00,0x0B
2.061304480000000,0,0x00,0x5C
2.061401760000000,0,0x00,0x0E
2.061499200000000,0,0x00,0x2D
2.061596640000000,0,0x00,0x90
2.061694080000000,0,0x00,0xF3
2.061791520000000,0,0x00,0x13
2.061888800000000,0,0x00,0x8F
2.061986240000000,0,0x00,0x96
2.062083680000000,0,0x00,0x37
2.062181120000000,0,0x00,0xD7
2.062278560000000,0,0x00,0x7D
2.062376000000000,0,0x00,0x98
2.062473280000000,0,0x00,0x3B
2.062570720000000,0,0x00,0x58
2.062668160000000,0,0x00,0x95
2.062765600000000,0,0x00,0x59
2.062863040000000,0,0x00,0x0D
2.062949600000000,0,0x00,0x8C
2.063047040000000,0,0x00,0xA9
2.063144320000000,0,0x00,0xCC
2.063241760000000,0,0x00,0xC1
2.063339200000000,0,0x00,0x6C
2.063436640000000,0,0x00,0xF5
2.063534080000000,0,0x00,0xCC
2.063631520000000,0,0x00,0xE7
2.063728800000000,0,0x00,0x8D
2.063826240000000,0,0x00,0x17
2.063923680000000,0,0x00,0x6D
2.064021120000000,0,0x00,0x05
2.064118560000000,0,0x00,0xAD
2.064215840000000,0,0x00,0x32
2.064313280000000,0,0x00,0xAD
2.064410720000000,0,0x00,0x3E
2.064508160000000,0,0x00,0x8D
2.064605600000000,0,0x00,0x29
2.064703040000000,0,0x00,0x8D
2.064800320000000,0,0x00,0x53
2.064897760000000,0,0x00,0xAD
2.064995200000000,0,0x00,0x5D
2.065092640000000,0,0x00,0x2D
2.065190080000000,0,0x00,0x46
2.065287360000000,0,0x00,0x0D
2.065384800000000,0,0x00,0x6E
2.065482240000000,0,0x00,0x4D
2.065579680000000,0,0x00,0x76
2.065677120000000,0,0x00,0x2D
2.065774560000000,0,0x00,0x7D
2.065871840000000,0,0x00,0xAD
2.065969280000000,0,0x00,0x64
2.066066720000000,0,0x00,0xAD
2.066164160000000,0,0x00,0x8B
2.066261600000000,0,0x00,0x6D
2.066358880000000,0,0x00,0x91
2.066456320000000,0,0x00,0xED
2.066553760000000,0,0x00,0x98
2.066651200000000,0,0x00,0x0D
2.066748640000000,0,0x00,0x9F
2.066846080000000,0,0x00,0xAD
2.066943360000000,0,0x00,0x10
2.067040800000000,0,0x00,0x6E
2.067138240000000,0,0x00,0x1A
2.067235680000000,0,0x00,0xCE
2.067333120000000,0,0x00,0x75
2.067430400000000,0,0x00,0xEE
2.067527840000000,0,0x00,0xBF
2.067625280000000,0,0x00,0x0E
2.067722720000000,0,0x00,0xDE
2.067820160000000,0,0x00,0xAE
2.067917600000000,0,0x00,0xF8
2.068014880000000,0,0x00,0x4F
2.068112320000000,0,0x00,0x0D
2.068209760000000,0,0x00,0xEF
2.068307200000000,0,0x00,0x20
2.068404640000000,0,0x00,0x8F
2.068501920000000,0,0x00,0x50
2.068599360000000,0,0x00,0xEF
2.068696800000000,0,0x00,0x5F
2.068794240000000,0,0x00,0x8F
2.068891680000000,0,0x00,0x4C
2.068989120000000,0,0x00,0xCF
2.069086400000000,0,0x00,0x78
2.069183840000000,0,0x00,0xEF
2.069281280000000,0,0x00,0x63
2.069378720000000,0,0x00,0xEF
2.069476160000000,0,0x00,0x8E
2.069573600000000,0,0x00,0x2F
2.069670880000000,0,0x00,0x97
2.069768320000000,0,0x00,0xAF
2.069865760000000,0,0x00,0x80
2.069963200000000,0,0x00,0xAF
2.070060640000000,0,0x00,0xA8
2.070157920000000,0,0x00,0xEF
2.070255360000000,0,0x00,0xB0
2.070352800000000,0,0x00,0xEF
2.070450240000000,0,0x00,0xB8
2.070547680000000,0,0x00,0x4F
2.070645120000000,0,0x00,0xBF
2.070742400000000,0,0x00,0x6F
2.070839840000000,0,0x00,0xA6
2.070937280000000,0,0x00,0x0F
2.071034720000000,0,0x00,0xCC
2.071132160000000,0,0x00,0x8F
2.071229440000000,0,0x00,0xD2
2.071326880000000,0,0x00,0xAF
2.071424320000000,0,0x00,0xD8
2.071521760000000,0,0x00,0x6F
2.071619200000000,0,0x00,0xDE
2.071716640000000,0,0x00,0x0F
2.071813920000000,0,0x00,0xC3
2.071911360000000,0,0x00,0x6F
2.072008800000000,0,0x00,0xE8
2.072106240000000,0,0x00,0xAF
2.072203680000000,0,0x00,0xED
2.072300960000000,0,0x00,0xAF
2.072398400000000,0,0x00,0xF2
2.072495840000000,0,0x00,0x6F
2.072593280000000,0,0x00,0xF7
2.072690720000000,0,0x00,0x2F
2.072788160000000,0,0x00,0xFB
2.072885440000000,0,0x00,0xAF
2.072982880000000,0,0x00,0xFF
2.073080320000000,0,0x00,0xEF
2.073177760000000,0,0x00,0xE0
2.073275200000000,0,0x00,0x00
2.073372480000000,0,0x00,0x1D
2.073469920000000,0,0x00,0x01
2.073567360000000,0,0x00,0x99
2.073664800000000,0,0x00,0x83
2.073762240000000,0,0x00,0x36
2.073859680000000,0,0x00,0x84
2.073956960000000,0,0x00,0xD3
2.074054400000000,0,0x00,0x86
2.074151840000000,0,0x00,0x70
2.074249280000000,0,0x00,0x08
2.074346720000000,0,0x00,0x07
2.074444000000000,0,0x00,0x49
2.074541440000000,0,0x00,0xA1
2.074638880000000,0,0x00,0x8B
2.074736320000000,0,0x00,0x01
2.074833760000000,0,0x00,0x2B
2.074931200000000,0,0x00,0xC4
2.075028480000000,0,0x00,0x4C
2.075125920000000,0,0x00,0x22
2.075223360000000,0,0x00,0x8C
2.075320800000000,0,0x00,0x6F
2.075418240000000,0,0x00,0x0C
2.075515520000000,0,0x00,0x91
2.075612960000000,0,0x00,0x4C
2.075710400000000,0,0x00,0xAD
2.075807840000000,0,0x00,0x0C
2.075905280000000,0,0x00,0xC4
2.076002720000000,0,0x00,0x6C
2.076100000000000,0,0x00,0xF8
2.076197440000000,0,0x00,0x6C
2.076294880000000,0,0x00,0xEA
2.076392320000000,0,0x00,0x0D
2.076489760000000,0,0x00,0x19
2.076587040000000,0,0x00,0xCD
2.076684480000000,0,0x00,0x07
2.076781920000000,0,0x00,0xCD
2.076879360000000,0,0x00,0x34
2.076976800000000,0,0x00,0xAD
2.077074240000000,0,0x00,0x20
2.077171520000000,0,0x00,0x6D
2.077268960000000,0,0x00,0x4B
2.077366400000000,0,0x00,0x4D
2.077463840000000,0,0x00,0x55
2.077561280000000,0,0x00,0x4D
2.077658560000000,0,0x00,0x5E
2.077756000000000,0,0x00,0xAD
2.077853440000000,0,0x00,0x47
2.077950880000000,0,0x00,0x8D
2.078048320000000,0,0x00,0x6F
2.078145760000000,0,0x00,0xCD
2.078243040000000,0,0x00,0x77
2.078340480000000,0,0x00,0x8D
2.078437920000000,0,0x00,0x7E
2.078535360000000,0,0x00,0xED
2.078632800000000,0,0x00,0x66
2.078730080000000,0,0x00,0x0D
2.078827520000000,0,0x00,0x8C
2.078924960000000,0,0x00,0xAD
2.079022400000000,0,0x00,0x93
2.079119840000000,0,0x00,0x0D
2.079217280000000,0,0x00,0x99
2.079314560000000,0,0x00,0x2D
2.079412000000000,0,0x00,0x9E
2.079509440000000,0,0x00,0xED
2.079606880000000,0,0x00,0x8A
2.079704320000000,0,0x00,0x6D
2.079801600000000,0,0x00,0x33
2.079899040000000,0,0x00,0x6E
2.079996480000000,0,0x00,0x1C
2.080093920000000,0,0x00,0x2E
2.080191360000000,0,0x00,0x76
2.080288800000000,0,0x00,0xCE
2.080386080000000,0,0x00,0xBF
2.080483520000000,0,0x00,0xAE
2.080580960000000,0,0x00,0xDF
2.080678400000000,0,0x00,0x2E
2.080775840000000,0,0x00,0xF8
2.080873280000000,0,0x00,0xAF
2.080970560000000,0,0x00,0x0E
2.081068000000000,0,0x00,0x4F
2.081165440000000,0,0x00,0x20
2.081262880000000,0,0x00,0xCF
2.081360320000000,0,0x00,0x51
2.081457600000000,0,0x00,0x2F
2.081555040000000,0,0x00,0x5F
2.081652480000000,0,0x00,0xCF
2.081749920000000,0,0x00,0x4C
2.081847360000000,0,0x00,0xEF
2.081944800000000,0,0x00,0x79
2.082042080000000,0,0x00,0x0F
2.082139520000000,0,0x00,0x64
2.082236960000000,0,0x00,0x0F
2.082334400000000,0,0x00,0x8E
2.082431840000000,0,0x00,0x4F
2.082529120000000,0,0x00,0x97
2.082626560000000,0,0x00,0xCF
2.082724000000000,0,0x00,0x80
2.082821440000000,0,0x00,0xAF
2.082918880000000,0,0x00,0xA9
2.083016320000000,0,0x00,0x0F
2.083113600000000,0,0x00,0xB0
2.083211040000000,0,0x00,0xEF
2.083308480000000,0,0x00,0xB8
2.083405920000000,0,0x00,0x6F
2.083503360000000,0,0x00,0xBF
2.083600640000000,0,0x00,0x6F
2.083698080000000,0,0x00,0xA6
2.083795520000000,0,0x00,0x2F
2.083892960000000,0,0x00,0xCC
2.083990400000000,0,0x00,0x8F
2.084087840000000,0,0x00,0xD2
2.084185120000000,0,0x00,0xAF
2.084282560000000,0,0x00,0xD8
2.084380000000000,0,0x00,0x8F
2.084477440000000,0,0x00,0xDE
2.084574880000000,0,0x00,0x0F
2.084672160000000,0,0x00,0xC3
2.084769600000000,0,0x00,0x8F
2.084867040000000,0,0x00,0xE8
2.084964480000000,0,0x00,0xAF
2.085061920000000,0,0x00,0xED
2.085159360000000,0,0x00,0xAF
2.085256640000000,0,0x00,0xF2
2.085354080000000,0,0x00,0x6F
2.085451520000000,0,0x00,0xF7
2.085548960000000,0,0x00,0x2F
2.085646400000000,0,0x00,0xFB
2.085743680000000,0,0x00,0xAF
2.085841120000000,0,0x00,0xFF
2.085938560000000,0,0x00,0xEF
2.086036000000000,0,0x00,0xE0
2.086133440000000,0,0x00,0x00
2.086230880000000,0,0x00,0x18
2.086328160000000,0,0x00,0x01
2.086425600000000,0,0x00,0xCF
2.086523040000000,0,0x00,0x83
2.086620480000000,0,0x00,0xA7
2.086717920000000,0,0x00,0x85
2.086815200000000,0,0x00,0x9F
2.086912640000000,0,0x00,0x07
2.087010080000000,0,0x00,0x54
2.087107520000000,0,0x00,0x09
2.087204960000000,0,0x00,0x33
2.087302400000000,0,0x00,0xCA
2.087399680000000,0,0x00,0xD4
2.087497120000000,0,0x00,0x8B
2.087594560000000,0,0x00,0xBF
2.087692000000000,0,0x00,0xAC
2.087789440000000,0,0x00,0x00
2.087886720000000,0,0x00,0x6C
2.087984160000000,0,0x00,0x6D
2.088081600000000,0,0x00,0xEC
2.088179040000000,0,0x00,0x90
2.088276480000000,0,0x00,0xAC
2.088373920000000,0,0x00,0xAC
2.088471200000000,0,0x00,0xCC
2.088568640000000,0,0x00,0xC4
2.088666080000000,0,0x00,0x4C
2.088763520000000,0,0x00,0xF8
2.088860960000000,0,0x00,0x8C
2.088958240000000,0,0x00,0xEA
2.089055680000000,0,0x00,0x2D
2.089153120000000,0,0x00,0x19
2.089250560000000,0,0x00,0xED
2.089348000000000,0,0x00,0x08
2.089445440000000,0,0x00,0x0D
2.089542720000000,0,0x00,0x34
2.089640160000000,0,0x00,0xED
2.089737600000000,0,0x00,0x20
2.089835040000000,0,0x00,0xAD
2.089932480000000,0,0x00,0x4B
2.090029760000000,0,0x00,0x8D
2.090127200000000,0,0x00,0x55
2.090224640000000,0,0x00,0x8D
2.090322080000000,0,0x00,0x5E
2.090419520000000,0,0x00,0xED
2.090516960000000,0,0x00,0x47
2.090614240000000,0,0x00,0xCD
2.090711680000000,0,0x00,0x70
2.090809120000000,0,0x00,0x0D
2.090906560000000,0,0x00,0x77
2.091004000000000,0,0x00,0xCD
2.091101440000000,0,0x00,0x7F
2.091198720000000,0,0x00,0x2D
2.091296160000000,0,0x00,0x66
2.091393600000000,0,0x00,0x4D
2.091491040000000,0,0x00,0x8C
2.091588480000000,0,0x00,0xED
2.091685760000000,0,0x00,0x93
2.091783200000000,0,0x00,0x4D
2.091880640000000,0,0x00,0x99
2.091978080000000,0,0x00,0x6D
2.092075520000000,0,0x00,0x9F
2.092172960000000,0,0x00,0x2D
2.092270240000000,0,0x00,0x84
2.092367680000000,0,0x00,0xCD
2.092465120000000,0,0x00,0xB3
2.092562560000000,0,0x00,0x8D
2.092660000000000,0,0x00,0x36
2.092757280000000,0,0x00,0x0E
2.092854720000000,0,0x00,0x1D
2.092952160000000,0,0x00,0x4E
2.093049600000000,0,0x00,0x77
2.093147040000000,0,0x00,0x8E
2.093244480000000,0,0x00,0xA0
2.093341760000000,0,0x00,0x4E
2.093439200000000,0,0x00,0xFF
2.093536640000000,0,0x00,0x8E
2.093634080000000,0,0x00,0xF9
2.093731520000000,0,0x00,0x0F
2.093828800000000,0,0x00,0x0E
2.093926240000000,0,0x00,0x8F
2.094023680000000,0,0x00,0x21
2.094121120000000,0,0x00,0x0F
2.094218560000000,0,0x00,0x51
2.094316000000000,0,0x00,0x6F
2.094413280000000,0,0x00,0x5F
2.094510720000000,0,0x00,0xEF
2.094608160000000,0,0x00,0x4D
2.094705600000000,0,0x00,0x2F
2.094803040000000,0,0x00,0x79
2.094900320000000,0,0x00,0x2F
2.094997760000000,0,0x00,0x64
2.095095200000000,0,0x00,0x2F
2.095192640000000,0,0x00,0x8E
2.095290080000000,0,0x00,0x6F
2.095387520000000,0,0x00,0x97
2.095484800000000,0,0x00,0xEF
2.095582240000000,0,0x00,0x80
2.095679680000000,0,0x00,0xCF
2.095777120000000,0,0x00,0xA9
2.095874560000000,0,0x00,0x2F
2.095971840000000,0,0x00,0xB1
2.096069280000000,0,0x00,0x0F
2.096166720000000,0,0x00,0xB8
2.096264160000000,0,0x00,0x6F
2.096361600000000,0,0x00,0xBF
2.096459040000000,0,0x00,0x6F
2.096556320000000,0,0x00,0xA6
2.096653760000000,0,0x00,0x2F
2.096751200000000,0,0x00,0xCC
2.096848640000000,0,0x00,0x8F
2.096946080000000,0,0x00,0xD2
2.097043360000000,0,0x00,0xAF
2.097140800000000,0,0x00,0xD8
2.097238240000000,0,0x00,0x8F
2.097335680000000,0,0x00,0xDE
2.097433120000000,0,0x00,0x2F
2.097530560000000,0,0x00,0xC3
2.097627840000000,0,0x00,0x8F
2.097725280000000,0,0x00,0xE8
2.097822720000000,0,0x00,0xAF
2.097920160000000,0,0x00,0xED
2.098017600000000,0,0x00,0xAF
2.098114880000000,0,0x00,0xF2
2.098212320000000,0,0x00,0x8F
2.098309760000000,0,0x00,0xF7
2.098407200000000,0,0x00,0x2F
2.098504640000000,0,0x00,0xFB
2.098602080000000,0,0x00,0xAF
2.098699360000000,0,0x00,0xFF
2.098796800000000,0,0x00,0xEF
2.098894240000000,0,0x00,0xE0
2.098991680000000,0,0x00,0x00
2.099089120000000,0,0x00,0x1B
2.099186400000000,0,0x00,0x02
2.099283840000000,0,0x00,0x16
2.099381280000000,0,0x00,0x84
2.099478720000000,0,0x00,0x31
2.099576160000000,0,0x00,0x86
2.099673600000000,0,0x00,0x4C
2.099770880000000,0,0x00,0x08
2.099868320000000,0,0x00,0x69
2.099965760000000,0,0x00,0x0A
2.100063200000000,0,0x00,0x72
2.100160640000000,0,0x00,0x8B
2.100257920000000,0,0x00,0x90
2.100355360000000,0,0x00,0x6C
2.100452800000000,0,0x00,0x17
2.100550240000000,0,0x00,0x6C
2.100647680000000,0,0x00,0x47
2.100745120000000,0,0x00,0xCC
2.100842400000000,0,0x00,0x8C
2.100939840000000,0,0x00,0x2C
2.101037280000000,0,0x00,0xA9
2.101134720000000,0,0x00,0x4C
2.101232160000000,0,0x00,0xC1
2.101329440000000,0,0x00,0x6C
2.101426880000000,0,0x00,0xF6
2.101524320000000,0,0x00,0x2C
2.101621760000000,0,0x00,0xE8
2.101719200000000,0,0x00,0x2D
2.101816640000000,0,0x00,0x18
2.101913920000000,0,0x00,0x2D
2.102011360000000,0,0x00,0x06
2.102108800000000,0,0x00,0x8D
2.102206240000000,0,0x00,0x33
2.102303680000000,0,0x00,0x8D
2.102401120000000,0,0x00,0x3F
2.102498400000000,0,0x00,0x6D
2.102595840000000,0,0x00,0x2A
2.102693280000000,0,0x00,0x6D
2.102790720000000,0,0x00,0x54
2.102888160000000,0,0x00,0x8D
2.102985440000000,0,0x00,0x5E
2.103082880000000,0,0x00,0x0D
2.103180320000000,0,0x00,0x46
2.103277760000000,0,0x00,0xED
2.103375200000000,0,0x00,0x6F
2.103472640000000,0,0x00,0x4D
2.103569920000000,0,0x00,0x77
2.103667360000000,0,0x00,0x0D
2.103764800000000,0,0x00,0x7E
2.103862240000000,0,0x00,0x8D
2.103959680000000,0,0x00,0x65
2.104056960000000,0,0x00,0x8D
2.104154400000000,0,0x00,0x8C
2.104251840000000,0,0x00,0x4D
2.104349280000000,0,0x00,0x92
2.104446720000000,0,0x00,0xAD
2.104544160000000,0,0x00,0x98
2.104641440000000,0,0x00,0xCD
2.104738880000000,0,0x00,0x9E
2.104836320000000,0,0x00,0xAD
2.104933760000000,0,0x00,0x84
2.105031200000000,0,0x00,0x4D
2.105128480000000,0,0x00,0xA9
2.105225920000000,0,0x00,0xCD
2.105323360000000,0,0x00,0xBB
2.105420800000000,0,0x00,0x6D
2.105518240000000,0,0x00,0x38
2.105615680000000,0,0x00,0x2E
2.105712960000000,0,0x00,0x1E
2.105810400000000,0,0x00,0x6E
2.105907840000000,0,0x00,0x78
2.106005280000000,0,0x00,0x4E
2.106102720000000,0,0x00,0xA0
2.106200000000000,0,0x00,0xCE
2.106297440000000,0,0x00,0xFF
2.106394880000000,0,0x00,0xEE
2.106492320000000,0,0x00,0xF9
2.106589760000000,0,0x00,0x6F
2.106687200000000,0,0x00,0x0E
2.106784480000000,0,0x00,0xCF
2.106881920000000,0,0x00,0x21
2.106979360000000,0,0x00,0x4F
2.107076800000000,0,0x00,0x51
2.107174240000000,0,0x00,0x8F
2.107271520000000,0,0x00,0x40
2.107368960000000,0,0x00,0x2F
2.107466400000000,0,0x00,0x6D
2.107563840000000,0,0x00,0x4F
2.107661280000000,0,0x00,0x79
2.107758720000000,0,0x00,0x4F
2.107856000000000,0,0x00,0x64
2.107953440000000,0,0x00,0x4F
2.108050880000000,0,0x00,0x8E
2.108148320000000,0,0x00,0x8F
2.108245760000000,0,0x00,0x98
2.108343040000000,0,0x00,0x0F
2.108440480000000,0,0x00,0x80
2.108537920000000,0,0x00,0xEF
2.108635360000000,0,0x00,0xA9
2.108732800000000,0,0x00,0x2F
2.108830240000000,0,0x00,0xB1
2.108927520000000,0,0x00,0x0F
2.109024960000000,0,0x00,0xB8
2.109122400000000,0,0x00,0x6F
2.109219840000000,0,0x00,0xBF
2.109317280000000,0,0x00,0x8F
2.109414560000000,0,0x00,0xA6
2.109512000000000,0,0x00,0x2F
2.109609440000000,0,0x00,0xCC
2.109706880000000,0,0x00,0x8F
2.109804320000000,0,0x00,0xD2
2.109901760000000,0,0x00,0xAF
2.109999040000000,0,0x00,0xD8
2.110096480000000,0,0x00,0x8F
2.110193920000000,0,0x00,0xDE
2.110291360000000,0,0x00,0x2F
2.110388800000000,0,0x00,0xC3
2.110486080000000,0,0x00,0x8F
2.110583520000000,0,0x00,0xE8
2.110680960000000,0,0x00,0xAF
2.110778400000000,0,0x00,0xED
2.110875840000000,0,0x00,0xAF
2.110973280000000,0,0x00,0xF2
2.111070560000000,0,0x00,0x8F
2.111168000000000,0,0x00,0xF7
2.111265440000000,0,0x00,0x2F
2.111362880000000,0,0x00,0xFB
2.111460320000000,0,0x00,0xAF
2.111557600000000,0,0x00,0xFF
2.111655040000000,0,0x00,0xEF
2.111752480000000,0,0x00,0xE0
2.111849920000000,0,0x00,0x00
2.111947360000000,0,0x00,0x08
2.112044800000000,0,0x00,0x02
2.112142080000000,0,0x00,0x70
2.112239520000000,0,0x00,0x84
2.112336960000000,0,0x00,0xD8
2.112434400000000,0,0x00,0x87
2.112531840000000,0,0x00,0x39
2.112629120000000,0,0x00,0x09
2.112726560000000,0,0x00,0x8D
2.112824000000000,0,0x00,0x45
2.112910560000000,0,0x00,0xAA
2.113008000000000,0,0x00,0x05
2.113105440000000,0,0x00,0xF3
2.113202880000000,0,0x00,0x86
2.113300320000000,0,0x00,0x2E
2.113397600000000,0,0x00,0x56
2.113495040000000,0,0x00,0x31
2.113592480000000,0,0x00,0xE6
2.113689920000000,0,0x00,0x51
2.113787360000000,0,0x00,0x56
2.113884640000000,0,0x00,0x6E
2.113982080000000,0,0x00,0x06
2.114079520000000,0,0x00,0x68
2.114176960000000,0,0x00,0xC6
2.114274400000000,0,0x00,0x72
2.114371840000000,0,0x00,0x16
2.114469120000000,0,0x00,0x8A
2.114566560000000,0,0x00,0x56
2.114664000000000,0,0x00,0x81
2.114761440000000,0,0x00,0xB6
2.114858880000000,0,0x00,0x98
2.114956320000000,0,0x00,0x56
2.115053600000000,0,0x00,0x9E
2.115151040000000,0,0x00,0x76
2.115248480000000,0,0x00,0x94
2.115345920000000,0,0x00,0x06
2.115443360000000,0,0x00,0xA9
2.115540640000000,0,0x00,0x36
2.115638080000000,0,0x00,0xAE
2.115735520000000,0,0x00,0x06
2.115832960000000,0,0x00,0xA2
2.115930400000000,0,0x00,0x86
2.116027840000000,0,0x00,0xB6
2.116125120000000,0,0x00,0xC6
2.116222560000000,0,0x00,0xBA
2.116320000000000,0,0x00,0xC6
2.116417440000000,0,0x00,0xBE
2.116514880000000,0,0x00,0x86
2.116612160000000,0,0x00,0xB2
2.116709600000000,0,0x00,0x16
2.116807040000000,0,0x00,0xC5
2.116904480000000,0,0x00,0x76
2.117001920000000,0,0x00,0xC8
2.117099360000000,0,0x00,0xB6
2.117196640000000,0,0x00,0xCB
2.117294080000000,0,0x00,0xD6
2.117391520000000,0,0x00,0xCE
2.117488960000000,0,0x00,0xC6
2.117586400000000,0,0x00,0xC1
2.117683680000000,0,0x00,0x96
2.117781120000000,0,0x00,0xD4
2.117878560000000,0,0x00,0x56
2.117976000000000,0,0x00,0xD6
2.118073440000000,0,0x00,0xF6
2.118170880000000,0,0x00,0xD0
2.118268160000000,0,0x00,0xD6
2.118365600000000,0,0x00,0xAD
2.118463040000000,0,0x00,0x17
2.118560480000000,0,0x00,0x0F
2.118657920000000,0,0x00,0xA7
2.118755200000000,0,0x00,0x3C
2.118852640000000,0,0x00,0x67
2.118950080000000,0,0x00,0x50
2.119047520000000,0,0x00,0x97
2.119144960000000,0,0x00,0x70
2.119242400000000,0,0x00,0x27
2.119339680000000,0,0x00,0x8C
2.119437120000000,0,0x00,0xD7
2.119534560000000,0,0x00,0x87
2.119632000000000,0,0x00,0x87
2.119729440000000,0,0x00,0x90
2.119826720000000,0,0x00,0xB7
2.119924160000000,0,0x00,0xA8
2.120021600000000,0,0x00,0xD7
2.120119040000000,0,0x00,0xA0
2.120216480000000,0,0x00,0x27
2.120313920000000,0,0x00,0xB6
2.120411200000000,0,0x00,0xB7
2.120508640000000,0,0x00,0xBC
2.120606080000000,0,0x00,0xB7
2.120703520000000,0,0x00,0xB2
2.120800960000000,0,0x00,0x37
2.120898240000000,0,0x00,0xC7
2.120995680000000,0,0x00,0x47
2.121093120000000,0,0x00,0xCC
2.121190560000000,0,0x00,0x07
2.121288000000000,0,0x00,0xC0
2.121385440000000,0,0x00,0x77
2.121482720000000,0,0x00,0xD4
2.121580160000000,0,0x00,0xA7
2.121677600000000,0,0x00,0xD8
2.121775040000000,0,0x00,0x87
2.121872480000000,0,0x00,0xDC
2.121969760000000,0,0x00,0x47
2.122067200000000,0,0x00,0xDF
2.122164640000000,0,0x00,0xC7
2.122262080000000,0,0x00,0xD3
2.122359520000000,0,0x00,0x27
2.122456960000000,0,0x00,0xE6
2.122554240000000,0,0x00,0x57
2.122651680000000,0,0x00,0xE9
2.122749120000000,0,0x00,0x57
2.122846560000000,0,0x00,0xEC
2.122944000000000,0,0x00,0x47
2.123041280000000,0,0x00,0xEF
2.123138720000000,0,0x00,0x17
2.123236160000000,0,0x00,0xE1
2.123333600000000,0,0x00,0xC7
2.123431040000000,0,0x00,0xF4
2.123528480000000,0,0x00,0x57
2.123625760000000,0,0x00,0xF6
2.123723200000000,0,0x00,0xD7
2.123820640000000,0,0x00,0xF9
2.123918080000000,0,0x00,0x47
2.124015520000000,0,0x00,0xFB
2.124112800000000,0,0x00,0x97
2.124210240000000,0,0x00,0xFD
2.124307680000000,0,0x00,0xD7
2.124405120000000,0,0x00,0xFF
2.124502560000000,0,0x00,0xF7
2.124600000000000,0,0x00,0xF0
2.124697280000000,0,0x00,0x00
2.124794720000000,0,0x00,0x00
2.124892160000000,0,0x00,0x01
2.124989600000000,0,0x00,0x60
2.125087040000000,0,0x00,0x42
2.125184320000000,0,0x00,0xC0
2.125281760000000,0,0x00,0x04
2.125379200000000,0,0x00,0x2C
2.125476640000000,0,0x00,0x45
2.125574080000000,0,0x00,0x51
2.125671520000000,0,0x00,0xA5
2.125768800000000,0,0x00,0xE6
2.125866240000000,0,0x00,0xA6
2.125963680000000,0,0x00,0x15
2.126061120000000,0,0x00,0xD6
2.126158560000000,0,0x00,0x3B
2.126256000000000,0,0x00,0xB6
2.126353280000000,0,0x00,0x4C
2.126450720000000,0,0x00,0x76
2.126548160000000,0,0x00,0x5A
2.126645600000000,0,0x00,0x06
2.126743040000000,0,0x00,0x65
2.126840320000000,0,0x00,0x66
2.126937760000000,0,0x00,0x7F
2.127035200000000,0,0x00,0x26
2.127132640000000,0,0x00,0x77
2.127230080000000,0,0x00,0xC6
2.127327520000000,0,0x00,0x8F
2.127424800000000,0,0x00,0x66
2.127522240000000,0,0x00,0x86
2.127619680000000,0,0x00,0x46
2.127717120000000,0,0x00,0x9C
2.127814560000000,0,0x00,0x96
2.127911840000000,0,0x00,0x92
2.128009280000000,0,0x00,0x56
2.128106720000000,0,0x00,0xA7
2.128204160000000,0,0x00,0xA6
2.128301600000000,0,0x00,0xAC
2.128399040000000,0,0x00,0x96
2.128496320000000,0,0x00,0xA1
2.128593760000000,0,0x00,0x26
2.128691200000000,0,0x00,0xB5
2.128788640000000,0,0x00,0x76
2.128886080000000,0,0x00,0xB9
2.128983360000000,0,0x00,0x86
2.129080800000000,0,0x00,0xBD
2.129178240000000,0,0x00,0x66
2.129275680000000,0,0x00,0xB1
2.129373120000000,0,0x00,0x06
2.129470560000000,0,0x00,0xC4
2.129567840000000,0,0x00,0x76
2.129665280000000,0,0x00,0xC7
2.129762720000000,0,0x00,0xC6
2.129860160000000,0,0x00,0xCA
2.129957600000000,0,0x00,0xE6
2.130054880000000,0,0x00,0xCD
2.130152320000000,0,0x00,0xE6
2.130249760000000,0,0x00,0xC0
2.130347200000000,0,0x00,0xC6
2.130444640000000,0,0x00,0xD3
2.130542080000000,0,0x00,0x86
2.130639360000000,0,0x00,0xD6
2.130736800000000,0,0x00,0x26
2.130834240000000,0,0x00,0xD8
2.130931680000000,0,0x00,0xB6
2.131029120000000,0,0x00,0xD3
2.131126400000000,0,0x00,0x86
2.131223840000000,0,0x00,0xAD
2.131321280000000,0,0x00,0xE7
2.131418720000000,0,0x00,0x00
2.131516160000000,0,0x00,0x07
2.131613600000000,0,0x00,0x4C
2.131710880000000,0,0x00,0xA7
2.131808320000000,0,0x00,0x50
2.131905760000000,0,0x00,0xC7
2.132003200000000,0,0x00,0x70
2.132100640000000,0,0x00,0x47
2.132197920000000,0,0x00,0x8C
2.132295360000000,0,0x00,0xE7
2.132392800000000,0,0x00,0x87
2.132490240000000,0,0x00,0x97
2.132587680000000,0,0x00,0x90
2.132685120000000,0,0x00,0xD7
2.132782400000000,0,0x00,0xA8
2.132879840000000,0,0x00,0xE7
2.132977280000000,0,0x00,0xA0
2.133074720000000,0,0x00,0x37
2.133172160000000,0,0x00,0xB6
2.133269440000000,0,0x00,0xC7
2.133366880000000,0,0x00,0xBC
2.133464320000000,0,0x00,0xB7
2.133561760000000,0,0x00,0xB2
2.133659200000000,0,0x00,0x37
2.133756640000000,0,0x00,0xC7
2.133853920000000,0,0x00,0x57
2.133951360000000,0,0x00,0xCC
2.134048800000000,0,0x00,0x17
2.134146240000000,0,0x00,0xC0
2.134243680000000,0,0x00,0x77
2.134340960000000,0,0x00,0xD4
2.134438400000000,0,0x00,0xA7
2.134535840000000,0,0x00,0xD8
2.134633280000000,0,0x00,0x97
2.134730720000000,0,0x00,0xDC
2.134828160000000,0,0x00,0x47
2.134925440000000,0,0x00,0xDF
2.135022880000000,0,0x00,0xC7
2.135120320000000,0,0x00,0xD3
2.135217760000000,0,0x00,0x27
2.135315200000000,0,0x00,0xE6
2.135412480000000,0,0x00,0x57
2.135509920000000,0,0x00,0xE9
2.135607360000000,0,0x00,0x67
2.135704800000000,0,0x00,0xEC
2.135802240000000,0,0x00,0x47
2.135899680000000,0,0x00,0xEF
2.135996960000000,0,0x00,0x17
2.136094400000000,0,0x00,0xE1
2.136191840000000,0,0x00,0xC7
2.136289280000000,0,0x00,0xF4
2.136386720000000,0,0x00,0x57
2.136484160000000,0,0x00,0xF6
2.136581440000000,0,0x00,0xD7
2.136678880000000,0,0x00,0xF9
2.136776320000000,0,0x00,0x47
2.136873760000000,0,0x00,0xFB
2.136971200000000,0,0x00,0x97
2.137068480000000,0,0x00,0xFD
2.137165920000000,0,0x00,0xD7
2.137263360000000,0,0x00,0xFF
2.137360800000000,0,0x00,0xF7
2.137458240000000,0,0x00,0xF0
2.137555680000000,0,0x00,0x00
2.137652960000000,0,0x00,0x02
2.137750400000000,0,0x00,0x81
2.137847840000000,0,0x00,0x95
2.137945280000000,0,0x00,0x03
2.138042720000000,0,0x00,0x24
2.138140000000000,0,0x00,0x04
2.138237440000000,0,0x00,0xB4
2.138334880000000,0,0x00,0x25
2.138432320000000,0,0x00,0xB2
2.138529760000000,0,0x00,0xC6
2.138627200000000,0,0x00,0x09
2.138724480000000,0,0x00,0xA6
2.138821920000000,0,0x00,0x23
2.138919360000000,0,0x00,0x06
2.139016800000000,0,0x00,0x45
2.139114240000000,0,0x00,0xC6
2.139211520000000,0,0x00,0x54
2.139308960000000,0,0x00,0x96
2.139406400000000,0,0x00,0x60
2.139503840000000,0,0x00,0xD6
2.139601280000000,0,0x00,0x7B
2.139698720000000,0,0x00,0x46
2.139796000000000,0,0x00,0x74
2.139893440000000,0,0x00,0x56
2.139990880000000,0,0x00,0x8C
2.140088320000000,0,0x00,0x66
2.140185760000000,0,0x00,0x83
2.140283040000000,0,0x00,0x96
2.140380480000000,0,0x00,0x9A
2.140477920000000,0,0x00,0x16
2.140575360000000,0,0x00,0x90
2.140672800000000,0,0x00,0x16
2.140770240000000,0,0x00,0xA5
2.140867520000000,0,0x00,0x86
2.140964960000000,0,0x00,0xAA
2.141062400000000,0,0x00,0xA6
2.141159840000000,0,0x00,0xAF
2.141257280000000,0,0x00,0x66
2.141354560000000,0,0x00,0xA3
2.141452000000000,0,0x00,0xC6
2.141549440000000,0,0x00,0xB7
2.141646880000000,0,0x00,0xF6
2.141744320000000,0,0x00,0xBB
2.141841760000000,0,0x00,0xE6
2.141939040000000,0,0x00,0xBF
2.142036480000000,0,0x00,0x96
2.142133920000000,0,0x00,0xB3
2.142231360000000,0,0x00,0x26
2.142328800000000,0,0x00,0xC6
2.142426080000000,0,0x00,0x76
2.142523520000000,0,0x00,0xC9
2.142620960000000,0,0x00,0xA6
2.142718400000000,0,0x00,0xCC
2.142815840000000,0,0x00,0xB6
2.142913280000000,0,0x00,0xCF
2.143010560000000,0,0x00,0xA6
2.143108000000000,0,0x00,0xC2
2.143205440000000,0,0x00,0x76
2.143302880000000,0,0x00,0xD5
2.143400320000000,0,0x00,0x26
2.143497600000000,0,0x00,0xD7
2.143595040000000,0,0x00,0xC6
2.143692480000000,0,0x00,0xDA
2.143789920000000,0,0x00,0x46
2.143887360000000,0,0x00,0xD5
2.143984800000000,0,0x00,0xF6
2.144082080000000,0,0x00,0xAE
2.144179520000000,0,0x00,0x97
2.144276960000000,0,0x00,0x00
2.144374400000000,0,0x00,0x67
2.144471840000000,0,0x00,0x4C
2.144569120000000,0,0x00,0xE7
2.144666560000000,0,0x00,0x50
2.144764000000000,0,0x00,0xF7
2.144861440000000,0,0x00,0x70
2.144958880000000,0,0x00,0x67
2.145056320000000,0,0x00,0x8D
2.145153600000000,0,0x00,0x07
2.145251040000000,0,0x00,0x87
2.145348480000000,0,0x00,0xA7
2.145445920000000,0,0x00,0x90
2.145543360000000,0,0x00,0xE7
2.145640640000000,0,0x00,0xA8
2.145738080000000,0,0x00,0xF7
2.145835520000000,0,0x00,0xA0
2.145932960000000,0,0x00,0x37
2.146030400000000,0,0x00,0xB6
2.146127840000000,0,0x00,0xC7
2.146225120000000,0,0x00,0xBC
2.146322560000000,0,0x00,0xC7
2.146420000000000,0,0x00,0xB2
2.146517440000000,0,0x00,0x47
2.146614880000000,0,0x00,0xC7
2.146712160000000,0,0x00,0x57
2.146809600000000,0,0x00,0xCC
2.146907040000000,0,0x00,0x17
2.147004480000000,0,0x00,0xC0
2.147101920000000,0,0x00,0x87
2.147199360000000,0,0x00,0xD4
2.147296640000000,0,0x00,0xA7
2.147394080000000,0,0x00,0xD8
2.147491520000000,0,0x00,0x97
2.147588960000000,0,0x00,0xDC
2.147686400000000,0,0x00,0x47
2.147783840000000,0,0x00,0xDF
2.147881120000000,0,0x00,0xD7
2.147978560000000,0,0x00,0xD3
2.148076000000000,0,0x00,0x27
2.148173440000000,0,0x00,0xE6
2.148270880000000,0,0x00,0x57
2.148368160000000,0,0x00,0xE9
2.148465600000000,0,0x00,0x67
2.148563040000000,0,0x00,0xEC
2.148660480000000,0,0x00,0x47
2.148757920000000,0,0x00,0xEF
2.148855360000000,0,0x00,0x17
2.148952640000000,0,0x00,0xE1
2.149050080000000,0,0x00,0xC7
2.149147520000000,0,0x00,0xF4
2.149244960000000,0,0x00,0x57
2.149342400000000,0,0x00,0xF6
2.149439680000000,0,0x00,0xD7
2.149537120000000,0,0x00,0xF9
2.149634560000000,0,0x00,0x47
2.149732000000000,0,0x00,0xFB
2.149829440000000,0,0x00,0x97
2.149926880000000,0,0x00,0xFD
2.150024160000000,0,0x00,0xD7
2.150121600000000,0,0x00,0xFF
2.150219040000000,0,0x00,0xF7
2.150316480000000,0,0x00,0xF0
2.150413920000000,0,0x00,0x00
2.150511200000000,0,0x00,0x0C
2.150608640000000,0,0x00,0x01
2.150706080000000,0,0x00,0xC8
2.150803520000000,0,0x00,0x03
2.150900960000000,0,0x00,0x93
2.150998400000000,0,0x00,0x05
2.151095680000000,0,0x00,0x41
2.151193120000000,0,0x00,0xC5
2.151290560000000,0,0x00,0xE8
2.151388000000000,0,0x00,0x16
2.151485440000000,0,0x00,0x17
2.151582720000000,0,0x00,0x46
2.151680160000000,0,0x00,0x3D
2.151777600000000,0,0x00,0x06
2.151875040000000,0,0x00,0x4D
2.151972480000000,0,0x00,0xA6
2.152069920000000,0,0x00,0x5B
2.152167200000000,0,0x00,0x16
2.152264640000000,0,0x00,0x66
2.152362080000000,0,0x00,0x66
2.152459520000000,0,0x00,0x70
2.152556960000000,0,0x00,0x16
2.152654240000000,0,0x00,0x88
2.152751680000000,0,0x00,0xA6
2.152849120000000,0,0x00,0x80
2.152946560000000,0,0x00,0x36
2.153044000000000,0,0x00,0x97
2.153141440000000,0,0x00,0x16
2.153238720000000,0,0x00,0x9D
2.153336160000000,0,0x00,0x46
2.153433600000000,0,0x00,0x92
2.153531040000000,0,0x00,0xF6
2.153628480000000,0,0x00,0xA8
2.153725760000000,0,0x00,0x46
2.153823200000000,0,0x00,0xAD
2.153920640000000,0,0x00,0x26
2.154018080000000,0,0x00,0xA1
2.154115520000000,0,0x00,0xB6
2.154212960000000,0,0x00,0xB6
2.154310240000000,0,0x00,0x06
2.154407680000000,0,0x00,0xBA
2.154505120000000,0,0x00,0x16
2.154602560000000,0,0x00,0xBD
2.154700000000000,0,0x00,0xE6
2.154797280000000,0,0x00,0xB1
2.154894720000000,0,0x00,0x86
2.154992160000000,0,0x00,0xC4
2.155089600000000,0,0x00,0xF6
2.155187040000000,0,0x00,0xC8
2.155284480000000,0,0x00,0x36
2.155381760000000,0,0x00,0xCB
2.155479200000000,0,0x00,0x56
2.155576640000000,0,0x00,0xCE
2.155674080000000,0,0x00,0x56
2.155771520000000,0,0x00,0xC1
2.155868800000000,0,0x00,0x26
2.155966240000000,0,0x00,0xD3
2.156063680000000,0,0x00,0xE6
2.156161120000000,0,0x00,0xD6
2.156258560000000,0,0x00,0x96
2.156356000000000,0,0x00,0xD9
2.156453280000000,0,0x00,0x16
2.156550720000000,0,0x00,0xDB
2.156648160000000,0,0x00,0x96
2.156745600000000,0,0x00,0xD7
2.156843040000000,0,0x00,0xF6
2.156940320000000,0,0x00,0xAF
2.157037760000000,0,0x00,0x37
2.157135200000000,0,0x00,0x00
2.157232640000000,0,0x00,0xA7
2.157330080000000,0,0x00,0x4D
2.157427520000000,0,0x00,0x17
2.157524800000000,0,0x00,0x51
2.157622240000000,0,0x00,0x17
2.157719680000000,0,0x00,0x70
2.157817120000000,0,0x00,0x87
2.157914560000000,0,0x00,0x8D
2.158011840000000,0,0x00,0x17
2.158109280000000,0,0x00,0x87
2.158206720000000,0,0x00,0xB7
2.158304160000000,0,0x00,0x90
2.158401600000000,0,0x00,0xF7
2.158499040000000,0,0x00,0xA9
2.158596320000000,0,0x00,0x07
2.158693760000000,0,0x00,0xA0
2.158791200000000,0,0x00,0x47
2.158888640000000,0,0x00,0xB6
2.158986080000000,0,0x00,0xD7
2.159083520000000,0,0x00,0xBC
2.159180800000000,0,0x00,0xC7
2.159278240000000,0,0x00,0xB2
2.159375680000000,0,0x00,0x47
2.159473120000000,0,0x00,0xC7
2.159570560000000,0,0x00,0x67
2.159667840000000,0,0x00,0xCC
2.159765280000000,0,0x00,0x17
2.159862720000000,0,0x00,0xC0
2.159960160000000,0,0x00,0x87
2.160057600000000,0,0x00,0xD4
2.160155040000000,0,0x00,0xB7
2.160252320000000,0,0x00,0xD8
2.160349760000000,0,0x00,0x97
2.160447200000000,0,0x00,0xDC
2.160544640000000,0,0x00,0x57
2.160642080000000,0,0x00,0xDF
2.160739360000000,0,0x00,0xD7
2.160836800000000,0,0x00,0xD3
2.160934240000000,0,0x00,0x27
2.161031680000000,0,0x00,0xE6
2.161129120000000,0,0x00,0x57
2.161226560000000,0,0x00,0xE9
2.161323840000000,0,0x00,0x67
2.161421280000000,0,0x00,0xEC
2.161518720000000,0,0x00,0x57
2.161616160000000,0,0x00,0xEF
2.161713600000000,0,0x00,0x17
2.161810880000000,0,0x00,0xE1
2.161908320000000,0,0x00,0xC7
2.162005760000000,0,0x00,0xF4
2.162103200000000,0,0x00,0x67
2.162200640000000,0,0x00,0xF6
2.162298080000000,0,0x00,0xD7
2.162395360000000,0,0x00,0xF9
2.162492800000000,0,0x00,0x47
2.162590240000000,0,0x00,0xFB
2.162687680000000,0,0x00,0x97
2.162785120000000,0,0x00,0xFD
2.162882400000000,0,0x00,0xD7
2.162979840000000,0,0x00,0xFF
2.163077280000000,0,0x00,0xF7
2.163174720000000,0,0x00,0xF0
2.163272160000000,0,0x00,0x00
2.163369600000000,0,0x00,0x0D
2.163466880000000,0,0x00,0x82
2.163564320000000,0,0x00,0x0B
2.163661760000000,0,0x00,0x04
2.163759200000000,0,0x00,0x1D
2.163856640000000,0,0x00,0x45
2.163953920000000,0,0x00,0x9D
2.164051360000000,0,0x00,0x15
2.164148800000000,0,0x00,0xF7
2.164246240000000,0,0x00,0x16
2.164343680000000,0,0x00,0x21
2.164441120000000,0,0x00,0x86
2.164538400000000,0,0x00,0x44
2.164635840000000,0,0x00,0xD6
2.164733280000000,0,0x00,0x53
2.164830720000000,0,0x00,0xF6
2.164928160000000,0,0x00,0x60
2.165025440000000,0,0x00,0x66
2.165122880000000,0,0x00,0x7A
2.165220320000000,0,0x00,0xE6
2.165317760000000,0,0x00,0x74
2.165415200000000,0,0x00,0x16
2.165512640000000,0,0x00,0x8C
2.165609920000000,0,0x00,0x26
2.165707360000000,0,0x00,0x83
2.165804800000000,0,0x00,0x66
2.165902240000000,0,0x00,0x99
2.165999680000000,0,0x00,0xF6
2.166096960000000,0,0x00,0x9F
2.166194400000000,0,0x00,0xF6
2.166291840000000,0,0x00,0x95
2.166389280000000,0,0x00,0x76
2.166486720000000,0,0x00,0xAA
2.166584160000000,0,0x00,0x96
2.166681440000000,0,0x00,0xAF
2.166778880000000,0,0x00,0x56
2.166876320000000,0,0x00,0xA3
2.166973760000000,0,0x00,0xC6
2.167071200000000,0,0x00,0xB7
2.167168480000000,0,0x00,0xE6
2.167265920000000,0,0x00,0xBB
2.167363360000000,0,0x00,0xD6
2.167460800000000,0,0x00,0xBF
2.167558240000000,0,0x00,0x96
2.167655680000000,0,0x00,0xB3
2.167752960000000,0,0x00,0x16
2.167850400000000,0,0x00,0xC6
2.167947840000000,0,0x00,0x76
2.168045280000000,0,0x00,0xC9
2.168142720000000,0,0x00,0xA6
2.168240000000000,0,0x00,0xCC
2.168337440000000,0,0x00,0xB6
2.168434880000000,0,0x00,0xCF
2.168532320000000,0,0x00,0xA6
2.168629760000000,0,0x00,0xC2
2.168727200000000,0,0x00,0x76
2.168824480000000,0,0x00,0xD5
2.168921920000000,0,0x00,0x26
2.169019360000000,0,0x00,0xD7
2.169116800000000,0,0x00,0xC6
2.169214240000000,0,0x00,0xDA
2.169311680000000,0,0x00,0x46
2.169408960000000,0,0x00,0xDC
2.169506400000000,0,0x00,0xB6
2.169603840000000,0,0x00,0xD9
2.169701280000000,0,0x00,0xA6
2.169798720000000,0,0x00,0xAF
2.169896000000000,0,0x00,0xC7
2.169993440000000,0,0x00,0x00
2.170090880000000,0,0x00,0xF7
2.170188320000000,0,0x00,0x4D
2.170285760000000,0,0x00,0x37
2.170383200000000,0,0x00,0x51
2.170480480000000,0,0x00,0x37
2.170577920000000,0,0x00,0x70
2.170675360000000,0,0x00,0x97
2.170772800000000,0,0x00,0x8D
2.170870240000000,0,0x00,0x37
2.170967520000000,0,0x00,0x87
2.171064960000000,0,0x00,0xC7
2.171162400000000,0,0x00,0x90
2.171259840000000,0,0x00,0xF7
2.171357280000000,0,0x00,0xA9
2.171454720000000,0,0x00,0x17
2.171552000000000,0,0x00,0xA0
2.171649440000000,0,0x00,0x57
2.171746880000000,0,0x00,0xB6
2.171844320000000,0,0x00,0xD7
2.171941760000000,0,0x00,0xBC
2.172039040000000,0,0x00,0xD7
2.172136480000000,0,0x00,0xB2
2.172233920000000,0,0x00,0x57
2.172331360000000,0,0x00,0xC7
2.172428800000000,0,0x00,0x67
2.172526240000000,0,0x00,0xCC
2.172623520000000,0,0x00,0x27
2.172720960000000,0,0x00,0xC0
2.172818400000000,0,0x00,0x87
2.172915840000000,0,0x00,0xD4
2.173013280000000,0,0x00,0xB7
2.173110560000000,0,0x00,0xD8
2.173208000000000,0,0x00,0xA7
2.173305440000000,0,0x00,0xDC
2.173402880000000,0,0x00,0x57
2.173500320000000,0,0x00,0xDF
2.173597760000000,0,0x00,0xD7
2.173695040000000,0,0x00,0xD3
2.173792480000000,0,0x00,0x27
2.173889920000000,0,0x00,0xE6
2.173987360000000,0,0x00,0x57
2.174084800000000,0,0x00,0xE9
2.174182080000000,0,0x00,0x67
2.174279520000000,0,0x00,0xEC
2.174376960000000,0,0x00,0x57
2.174474400000000,0,0x00,0xEF
2.174571840000000,0,0x00,0x17
2.174669280000000,0,0x00,0xE1
2.174766560000000,0,0x00,0xC7
2.174864000000000,0,0x00,0xF4
2.174961440000000,0,0x00,0x67
2.175058880000000,0,0x00,0xF6
2.175156320000000,0,0x00,0xD7
2.175253600000000,0,0x00,0xF9
2.175351040000000,0,0x00,0x47
2.175448480000000,0,0x00,0xFB
2.175545920000000,0,0x00,0x97
2.175643360000000,0,0x00,0xFD
2.175740800000000,0,0x00,0xD7
2.175838080000000,0,0x00,0xFF
2.175935520000000,0,0x00,0xF7
2.176032960000000,0,0x00,0xF0
2.176130400000000,0,0x00,0x00
2.176227840000000,0,0x00,0x09
2.176325120000000,0,0x00,0x02
2.176422560000000,0,0x00,0x5D
2.176520000000000,0,0x00,0x04
2.176617440000000,0,0x00,0xAC
2.176714880000000,0,0x00,0x35
2.176812320000000,0,0x00,0xCF
2.176909600000000,0,0x00,0x76
2.177007040000000,0,0x00,0x02
2.177104480000000,0,0x00,0x36
2.177201920000000,0,0x00,0x39
2.177299360000000,0,0x00,0x86
2.177396640000000,0,0x00,0x4B
2.177494080000000,0,0x00,0x06
2.177591520000000,0,0x00,0x59
2.177688960000000,0,0x00,0x06
2.177786400000000,0,0x00,0x64
2.177883840000000,0,0x00,0xB6
2.177981120000000,0,0x00,0x7E
2.178078560000000,0,0x00,0xA6
2.178176000000000,0,0x00,0x77
2.178273440000000,0,0x00,0x66
2.178370880000000,0,0x00,0x8F
2.178468160000000,0,0x00,0x26
2.178565600000000,0,0x00,0x86
2.178663040000000,0,0x00,0x16
2.178760480000000,0,0x00,0x9C
2.178857920000000,0,0x00,0x66
2.178955360000000,0,0x00,0x92
2.179052640000000,0,0x00,0x36
2.179150080000000,0,0x00,0xA7
2.179247520000000,0,0x00,0x96
2.179344960000000,0,0x00,0xAC
2.179442400000000,0,0x00,0x86
2.179539680000000,0,0x00,0xA1
2.179637120000000,0,0x00,0x26
2.179734560000000,0,0x00,0xB5
2.179832000000000,0,0x00,0x76
2.179929440000000,0,0x00,0xB9
2.180026880000000,0,0x00,0x86
2.180124160000000,0,0x00,0xBD
2.180221600000000,0,0x00,0x66
2.180319040000000,0,0x00,0xB1
2.180416480000000,0,0x00,0x06
2.180513920000000,0,0x00,0xC4
2.180611360000000,0,0x00,0x86
2.180708640000000,0,0x00,0xC7
2.180806080000000,0,0x00,0xC6
2.180903520000000,0,0x00,0xCA
2.181000960000000,0,0x00,0xF6
2.181098400000000,0,0x00,0xCD
2.181195680000000,0,0x00,0xF6
2.181293120000000,0,0x00,0xC0
2.181390560000000,0,0x00,0xD6
2.181488000000000,0,0x00,0xD3
2.181585440000000,0,0x00,0x96
2.181682880000000,0,0x00,0xD6
2.181780160000000,0,0x00,0x46
2.181877600000000,0,0x00,0xD8
2.181975040000000,0,0x00,0xC6
2.182072480000000,0,0x00,0xDB
2.182169920000000,0,0x00,0x46
2.182267200000000,0,0x00,0xDD
2.182364640000000,0,0x00,0xA6
2.182462080000000,0,0x00,0xDB
2.182559520000000,0,0x00,0x16
2.182656960000000,0,0x00,0xA0
2.182754400000000,0,0x00,0x37
2.182851680000000,0,0x00,0x11
2.182949120000000,0,0x00,0x27
2.183046560000000,0,0x00,0x4D
2.183144000000000,0,0x00,0x67
2.183241440000000,0,0x00,0x51
2.183338720000000,0,0x00,0x47
2.183436160000000,0,0x00,0x70
2.183533600000000,0,0x00,0xB7
2.183631040000000,0,0x00,0x8D
2.183728480000000,0,0x00,0x47
2.183825920000000,0,0x00,0x87
2.183923200000000,0,0x00,0xD7
2.184020640000000,0,0x00,0x91
2.184118080000000,0,0x00,0x07
2.184215520000000,0,0x00,0xA9
2.184312960000000,0,0x00,0x27
2.184410240000000,0,0x00,0xA0
2.184507680000000,0,0x00,0x57
2.184605120000000,0,0x00,0xB6
2.184702560000000,0,0x00,0xE7
2.184800000000000,0,0x00,0xBC
2.184897440000000,0,0x00,0xD7
2.184994720000000,0,0x00,0xB2
2.185092160000000,0,0x00,0x57
2.185189600000000,0,0x00,0xC7
2.185287040000000,0,0x00,0x67
2.185384480000000,0,0x00,0xCC
2.185481760000000,0,0x00,0x27
2.185579200000000,0,0x00,0xC0
2.185676640000000,0,0x00,0x97
2.185774080000000,0,0x00,0xD4
2.185871520000000,0,0x00,0xB7
2.185968960000000,0,0x00,0xD8
2.186066240000000,0,0x00,0xA7
2.186163680000000,0,0x00,0xDC
2.186261120000000,0,0x00,0x57
2.186358560000000,0,0x00,0xDF
2.186456000000000,0,0x00,0xD7
2.186553280000000,0,0x00,0xD3
2.186650720000000,0,0x00,0x37
2.186748160000000,0,0x00,0xE6
2.186845600000000,0,0x00,0x57
2.186943040000000,0,0x00,0xE9
2.187040480000000,0,0x00,0x67
2.187137760000000,0,0x00,0xEC
2.187235200000000,0,0x00,0x57
2.187332640000000,0,0x00,0xEF
2.187430080000000,0,0x00,0x17
2.187527520000000,0,0x00,0xE1
2.187624800000000,0,0x00,0xC7
2.187722240000000,0,0x00,0xF4
2.187819680000000,0,0x00,0x67
2.187917120000000,0,0x00,0xF6
2.188014560000000,0,0x00,0xD7
2.188112000000000,0,0x00,0xF9
2.188209280000000,0,0x00,0x47
2.188306720000000,0,0x00,0xFB
2.188404160000000,0,0x00,0x97
2.188501600000000,0,0x00,0xFD
2.188599040000000,0,0x00,0xD7
2.188696320000000,0,0x00,0xFF
2.188793760000000,0,0x00,0xF7
2.188891200000000,0,0x00,0xF0
2.188988640000000,0,0x00,0x00
2.189086080000000,0,0x00,0x0E
2.189183520000000,0,0x00,0x82
2.189280800000000,0,0x00,0xA5
2.189378240000000,0,0x00,0x45
2.189475680000000,0,0x00,0x38
2.189573120000000,0,0x00,0x25
2.189670560000000,0,0x00,0xEC
2.189767840000000,0,0x00,0xA6
2.189865280000000,0,0x00,0x1A
2.189962720000000,0,0x00,0xD6
2.190060160000000,0,0x00,0x3F
2.190157600000000,0,0x00,0xE6
2.190255040000000,0,0x00,0x40
2.190352320000000,0,0x00,0x16
2.190449760000000,0,0x00,0x6D
2.190547200000000,0,0x00,0x36
2.190644640000000,0,0x00,0x68
2.190742080000000,0,0x00,0x46
2.190839360000000,0,0x00,0x71
2.190936800000000,0,0x00,0xD6
2.191034240000000,0,0x00,0x8A
2.191131680000000,0,0x00,0x26
2.191229120000000,0,0x00,0x81
2.191326560000000,0,0x00,0xA6
2.191423840000000,0,0x00,0x98
2.191521280000000,0,0x00,0x66
2.191618720000000,0,0x00,0x9E
2.191716160000000,0,0x00,0x86
2.191813600000000,0,0x00,0x94
2.191911040000000,0,0x00,0x26
2.192008320000000,0,0x00,0xA9
2.192105760000000,0,0x00,0x56
2.192203200000000,0,0x00,0xAE
2.192300640000000,0,0x00,0x36
2.192398080000000,0,0x00,0xA2
2.192495360000000,0,0x00,0xB6
2.192592800000000,0,0x00,0xB6
2.192690240000000,0,0x00,0xF6
2.192787680000000,0,0x00,0xBA
2.192885120000000,0,0x00,0xF6
2.192982560000000,0,0x00,0xBE
2.193079840000000,0,0x00,0xB6
2.193177280000000,0,0x00,0xB2
2.193274720000000,0,0x00,0x46
2.193372160000000,0,0x00,0xC5
2.193469600000000,0,0x00,0xB6
2.193566880000000,0,0x00,0xC8
2.193664320000000,0,0x00,0xF6
2.193761760000000,0,0x00,0xCC
2.193859200000000,0,0x00,0x06
2.193956640000000,0,0x00,0xCE
2.194054080000000,0,0x00,0xF6
2.194151360000000,0,0x00,0xC1
2.194248800000000,0,0x00,0xD6
2.194346240000000,0,0x00,0xD4
2.194443680000000,0,0x00,0x86
2.194541120000000,0,0x00,0xD7
2.194638400000000,0,0x00,0x26
2.194735840000000,0,0x00,0xD9
2.194833280000000,0,0x00,0xB6
2.194930720000000,0,0x00,0xDC
2.195028160000000,0,0x00,0x26
2.195125600000000,0,0x00,0xDE
2.195222880000000,0,0x00,0x76
2.195320320000000,0,0x00,0xDC
2.195417760000000,0,0x00,0x46
2.195515200000000,0,0x00,0xA0
2.195612640000000,0,0x00,0xA7
2.195709920000000,0,0x00,0x11
2.195807360000000,0,0x00,0x57
2.195904800000000,0,0x00,0x4D
2.196002240000000,0,0x00,0x87
2.196099680000000,0,0x00,0x51
2.196197120000000,0,0x00,0x67
2.196294400000000,0,0x00,0x70
2.196391840000000,0,0x00,0xC7
2.196489280000000,0,0x00,0x8D
2.196586720000000,0,0x00,0x57
2.196684160000000,0,0x00,0x87
2.196781440000000,0,0x00,0xE7
2.196878880000000,0,0x00,0x91
2.196976320000000,0,0x00,0x17
2.197073760000000,0,0x00,0xA9
2.197171200000000,0,0x00,0x27
2.197268640000000,0,0x00,0xA0
2.197365920000000,0,0x00,0x67
2.197463360000000,0,0x00,0xB6
2.197560800000000,0,0x00,0xE7
2.197658240000000,0,0x00,0xBC
2.197755680000000,0,0x00,0xE7
2.197852960000000,0,0x00,0xB2
2.197950400000000,0,0x00,0x57
2.198047840000000,0,0x00,0xC7
2.198145280000000,0,0x00,0x77
2.198242720000000,0,0x00,0xCC
2.198340160000000,0,0x00,0x27
2.198437440000000,0,0x00,0xC0
2.198534880000000,0,0x00,0x97
2.198632320000000,0,0x00,0xD4
2.198729760000000,0,0x00,0xB7
2.198827200000000,0,0x00,0xD8
2.198924480000000,0,0x00,0xA7
2.199021920000000,0,0x00,0xDC
2.199119360000000,0,0x00,0x57
2.199216800000000,0,0x00,0xDF
2.199314240000000,0,0x00,0xD7
2.199411680000000,0,0x00,0xD3
2.199508960000000,0,0x00,0x37
2.199606400000000,0,0x00,0xE6
2.199703840000000,0,0x00,0x67
2.199801280000000,0,0x00,0xE9
2.199898720000000,0,0x00,0x67
2.199996000000000,0,0x00,0xEC
2.200093440000000,0,0x00,0x57
2.200190880000000,0,0x00,0xEF
2.200288320000000,0,0x00,0x17
2.200385760000000,0,0x00,0xE1
2.200483200000000,0,0x00,0xC7
2.200580480000000,0,0x00,0xF4
2.200677920000000,0,0x00,0x67
2.200775360000000,0,0x00,0xF6
2.200872800000000,0,0x00,0xD7
2.200970240000000,0,0x00,0xF9
2.201067520000000,0,0x00,0x47
2.201164960000000,0,0x00,0xFB
2.201262400000000,0,0x00,0x97
2.201359840000000,0,0x00,0xFD
2.201457280000000,0,0x00,0xD7
2.201554720000000,0,0x00,0xFF
2.201652000000000,0,0x00,0xF7
2.201749440000000,0,0x00,0xF0
2.201846880000000,0,0x00,0x00
2.201944320000000,0,0x00,0x00
2.202041760000000,0,0x00,0x83
2.202139040000000,0,0x00,0x18
2.202236480000000,0,0x00,0x05
2.202333920000000,0,0x00,0x8A
2.202431360000000,0,0x00,0xD5
2.202528800000000,0,0x00,0xF6
2.202626240000000,0,0x00,0xA6
2.202723520000000,0,0x00,0x21
2.202820960000000,0,0x00,0xA6
2.202918400000000,0,0x00,0x45
2.203015840000000,0,0x00,0x16
2.203113280000000,0,0x00,0x54
2.203210720000000,0,0x00,0x46
2.203308000000000,0,0x00,0x60
2.203405440000000,0,0x00,0xB6
2.203502880000000,0,0x00,0x7B
2.203600320000000,0,0x00,0x46
2.203697760000000,0,0x00,0x74
2.203795040000000,0,0x00,0x76
2.203892480000000,0,0x00,0x8C
2.203989920000000,0,0x00,0x86
2.204087360000000,0,0x00,0x83
2.204184800000000,0,0x00,0xC6
2.204282240000000,0,0x00,0x9A
2.204379520000000,0,0x00,0x56
2.204476960000000,0,0x00,0x90
2.204574400000000,0,0x00,0x46
2.204671840000000,0,0x00,0xA5
2.204769280000000,0,0x00,0xC6
2.204866560000000,0,0x00,0xAA
2.204964000000000,0,0x00,0xE6
2.205061440000000,0,0x00,0xAF
2.205158880000000,0,0x00,0x96
2.205256320000000,0,0x00,0xA4
2.205353760000000,0,0x00,0x06
2.205451040000000,0,0x00,0xB8
2.205548480000000,0,0x00,0x36
2.205645920000000,0,0x00,0xBC
2.205743360000000,0,0x00,0x26
2.205840800000000,0,0x00,0xBF
2.205938080000000,0,0x00,0xD6
2.206035520000000,0,0x00,0xB3
2.206132960000000,0,0x00,0x66
2.206230400000000,0,0x00,0xC6
2.206327840000000,0,0x00,0xB6
2.206425280000000,0,0x00,0xC9
2.206522560000000,0,0x00,0xE6
2.206620000000000,0,0x00,0xCC
2.206717440000000,0,0x00,0xF6
2.206814880000000,0,0x00,0xCF
2.206912320000000,0,0x00,0xE6
2.207009600000000,0,0x00,0xC2
2.207107040000000,0,0x00,0xB6
2.207204480000000,0,0x00,0xD5
2.207301920000000,0,0x00,0x66
2.207399360000000,0,0x00,0xD7
2.207496800000000,0,0x00,0xF6
2.207594080000000,0,0x00,0xDA
2.207691520000000,0,0x00,0x76
2.207788960000000,0,0x00,0xDC
2.207886400000000,0,0x00,0xE6
2.207983840000000,0,0x00,0xDF
2.208081120000000,0,0x00,0x36
2.208178560000000,0,0x00,0xDD
2.208276000000000,0,0x00,0x76
2.208373440000000,0,0x00,0xA0
2.208470880000000,0,0x00,0xF7
2.208568320000000,0,0x00,0x11
2.208665600000000,0,0x00,0x87
2.208763040000000,0,0x00,0x4D
2.208860480000000,0,0x00,0xA7
2.208957920000000,0,0x00,0x51
2.209055360000000,0,0x00,0x77
2.209152640000000,0,0x00,0x70
2.209250080000000,0,0x00,0xD7
2.209347520000000,0,0x00,0x8D
2.209444960000000,0,0x00,0x57
2.209542400000000,0,0x00,0x87
2.209639840000000,0,0x00,0xF7
2.209737120000000,0,0x00,0x91
2.209834560000000,0,0x00,0x17
2.209932000000000,0,0x00,0xA9
2.210029440000000,0,0x00,0x37
2.210126880000000,0,0x00,0xA0
2.210224160000000,0,0x00,0x67
2.210321600000000,0,0x00,0xB6
2.210419040000000,0,0x00,0xF7
2.210516480000000,0,0x00,0xBC
2.210613920000000,0,0x00,0xE7
2.210711360000000,0,0x00,0xB2
2.210808640000000,0,0x00,0x67
2.210906080000000,0,0x00,0xC7
2.211003520000000,0,0x00,0x77
2.211100960000000,0,0x00,0xCC
2.211198400000000,0,0x00,0x27
2.211295680000000,0,0x00,0xC0
2.211393120000000,0,0x00,0x97
2.211490560000000,0,0x00,0xD4
2.211588000000000,0,0x00,0xB7
2.211685440000000,0,0x00,0xD8
2.211782880000000,0,0x00,0xA7
2.211880160000000,0,0x00,0xDC
2.211977600000000,0,0x00,0x57
2.212075040000000,0,0x00,0xDF
2.212172480000000,0,0x00,0xD7
2.212269920000000,0,0x00,0xD3
2.212367200000000,0,0x00,0x37
2.212464640000000,0,0x00,0xE6
2.212562080000000,0,0x00,0x67
2.212659520000000,0,0x00,0xE9
2.212756960000000,0,0x00,0x67
2.212854400000000,0,0x00,0xEC
2.212951680000000,0,0x00,0x57
2.213049120000000,0,0x00,0xEF
2.213146560000000,0,0x00,0x17
2.213244000000000,0,0x00,0xE1
2.213341440000000,0,0x00,0xC7
2.213438720000000,0,0x00,0xF4
2.213536160000000,0,0x00,0x67
2.213633600000000,0,0x00,0xF6
2.213731040000000,0,0x00,0xD7
2.213828480000000,0,0x00,0xF9
2.213925920000000,0,0x00,0x47
2.214023200000000,0,0x00,0xFB
2.214120640000000,0,0x00,0x97
2.214218080000000,0,0x00,0xFD
2.214315520000000,0,0x00,0xD7
2.214412960000000,0,0x00,0xFF
2.214510400000000,0,0x00,0xF7
2.214607680000000,0,0x00,0xF0
2.214705120000000,0,0x00,0x00
2.214802560000000,0,0x00,0x01
2.214900000000000,0,0x00,0x03
2.214997440000000,0,0x00,0x84
2.215094720000000,0,0x00,0x05
2.215192160000000,0,0x00,0xB8
2.215289600000000,0,0x00,0x56
2.215387040000000,0,0x00,0x0E
2.215484480000000,0,0x00,0x76
2.215581920000000,0,0x00,0x27
2.215679200000000,0,0x00,0x26
2.215776640000000,0,0x00,0x49
2.215874080000000,0,0x00,0x56
2.215971520000000,0,0x00,0x57
2.216068960000000,0,0x00,0xB6
2.216166240000000,0,0x00,0x63
2.216263680000000,0,0x00,0xA6
2.216361120000000,0,0x00,0x7D
2.216458560000000,0,0x00,0xD6
2.216556000000000,0,0x00,0x76
2.216653440000000,0,0x00,0xB6
2.216750720000000,0,0x00,0x8E
2.216848160000000,0,0x00,0x86
2.216945600000000,0,0x00,0x85
2.217043040000000,0,0x00,0x96
2.217140480000000,0,0x00,0x9B
2.217237760000000,0,0x00,0xF6
2.217335200000000,0,0x00,0x91
2.217432640000000,0,0x00,0xC6
2.217530080000000,0,0x00,0xA7
2.217627520000000,0,0x00,0x36
2.217724960000000,0,0x00,0xAC
2.217822240000000,0,0x00,0x36
2.217919680000000,0,0x00,0xA0
2.218017120000000,0,0x00,0xD6
2.218114560000000,0,0x00,0xB5
2.218212000000000,0,0x00,0x36
2.218309280000000,0,0x00,0xB9
2.218406720000000,0,0x00,0x46
2.218504160000000,0,0x00,0xBD
2.218601600000000,0,0x00,0x26
2.218699040000000,0,0x00,0xB0
2.218796480000000,0,0x00,0xD6
2.218893760000000,0,0x00,0xC4
2.218991200000000,0,0x00,0x46
2.219088640000000,0,0x00,0xC7
2.219186080000000,0,0x00,0x96
2.219283520000000,0,0x00,0xCA
2.219380800000000,0,0x00,0xC6
2.219478240000000,0,0x00,0xCD
2.219575680000000,0,0x00,0xC6
2.219673120000000,0,0x00,0xC0
2.219770560000000,0,0x00,0xA6
2.219868000000000,0,0x00,0xD3
2.219965280000000,0,0x00,0x76
2.220062720000000,0,0x00,0xD6
2.220160160000000,0,0x00,0x16
2.220257600000000,0,0x00,0xD8
2.220355040000000,0,0x00,0xA6
2.220452320000000,0,0x00,0xDB
2.220549760000000,0,0x00,0x26
2.220647200000000,0,0x00,0xDD
2.220744640000000,0,0x00,0x86
2.220842080000000,0,0x00,0xDF
2.220939520000000,0,0x00,0xD6
2.221036800000000,0,0x00,0xDE
2.221134240000000,0,0x00,0x66
2.221231680000000,0,0x00,0xA1
2.221329120000000,0,0x00,0x47
2.221426560000000,0,0x00,0x11
2.221523840000000,0,0x00,0xA7
2.221621280000000,0,0x00,0x4D
2.221718720000000,0,0x00,0xB7
2.221816160000000,0,0x00,0x51
2.221913600000000,0,0x00,0x87
2.222011040000000,0,0x00,0x70
2.222108320000000,0,0x00,0xE7
2.222205760000000,0,0x00,0x8D
2.222303200000000,0,0x00,0x67
2.222400640000000,0,0x00,0x87
2.222498080000000,0,0x00,0xF7
2.222595360000000,0,0x00,0x91
2.222692800000000,0,0x00,0x27
2.222790240000000,0,0x00,0xA9
2.222887680000000,0,0x00,0x37
2.222985120000000,0,0x00,0xA0
2.223082560000000,0,0x00,0x67
2.223179840000000,0,0x00,0xB6
2.223277280000000,0,0x00,0xF7
2.223374720000000,0,0x00,0xBC
2.223472160000000,0,0x00,0xE7
2.223569600000000,0,0x00,0xB2
2.223666880000000,0,0x00,0x67
2.223764320000000,0,0x00,0xC7
2.223861760000000,0,0x00,0x77
2.223959200000000,0,0x00,0xCC
2.224056640000000,0,0x00,0x37
2.224154080000000,0,0x00,0xC0
2.224251360000000,0,0x00,0x97
2.224348800000000,0,0x00,0xD4
2.224446240000000,0,0x00,0xC7
2.224543680000000,0,0x00,0xD8
2.224641120000000,0,0x00,0xA7
2.224738400000000,0,0x00,0xDC
2.224835840000000,0,0x00,0x57
2.224933280000000,0,0x00,0xDF
2.225030720000000,0,0x00,0xD7
2.225128160000000,0,0x00,0xD3
2.225225600000000,0,0x00,0x37
2.225322880000000,0,0x00,0xE6
2.225420320000000,0,0x00,0x67
2.225517760000000,0,0x00,0xE9
2.225615200000000,0,0x00,0x67
2.225712640000000,0,0x00,0xEC
2.225810080000000,0,0x00,0x57
2.225907360000000,0,0x00,0xEF
2.226004800000000,0,0x00,0x27
2.226102240000000,0,0x00,0xE1
2.226199680000000,0,0x00,0xC7
2.226297120000000,0,0x00,0xF4
2.226394400000000,0,0x00,0x67
2.226491840000000,0,0x00,0xF6
2.226589280000000,0,0x00,0xD7
2.226686720000000,0,0x00,0xF9
2.226784160000000,0,0x00,0x47
2.226881600000000,0,0x00,0xFB
2.226978880000000,0,0x00,0x97
2.227076320000000,0,0x00,0xFD
2.227173760000000,0,0x00,0xD7
2.227271200000000,0,0x00,0xFF
2.227368640000000,0,0x00,0xF7
2.227465920000000,0,0x00,0xF8
2.227563360000000,0,0x00,0x90
2.227660800000000,0,0x00,0x13
2.227758240000000,0,0x00,0x50
2.227855680000000,0,0x00,0x03
2.227953120000000,0,0x00,0x70
2.228050400000000,0,0x00,0x03
2.228147840000000,0,0x00,0x80
2.228245280000000,0,0x00,0x03
2.228342720000000,0,0x00,0x70
2.228440160000000,0,0x00,0x03
2.228537440000000,0,0x00,0x60
2.228634880000000,0,0x00,0x03
2.228732320000000,0,0x00,0x30
2.228829760000000,0,0x00,0x02
2.228927200000000,0,0x00,0xF0
2.229024640000000,0,0x00,0x02
2.229121920000000,0,0x00,0xA0
2.229219360000000,0,0x00,0x02
2.229316800000000,0,0x00,0x40
2.229414240000000,0,0x00,0x01
2.229511680000000,0,0x00,0xD0
2.229608960000000,0,0x00,0x01
2.229706400000000,0,0x00,0x50
2.229803840000000,0,0x00,0x00
2.229901280000000,0,0x00,0xC0
2.229998720000000,0,0x00,0x00
2.230096160000000,0,0x00,0x30
2.230193440000000,0,0x00,0x0F
2.230290880000000,0,0x00,0xBF
2.230388320000000,0,0x00,0xFF
2.230485760000000,0,0x00,0x3F
2.230583200000000,0,0x00,0xFE
2.230680480000000,0,0x00,0xAF
2.230777920000000,0,0x00,0xFE
2.230875360000000,0,0x00,0x3F
2.230972800000000,0,0x00,0xFD
2.231070240000000,0,0x00,0xCF
2.231167680000000,0,0x00,0xFD
2.231264960000000,0,0x00,0x7F
2.231362400000000,0,0x00,0xFD
2.231459840000000,0,0x00,0x2F
2.231557280000000,0,0x00,0xFD
2.231654720000000,0,0x00,0x0F
2.231752000000000,0,0x00,0xFC
2.231849440000000,0,0x00,0xEF
2.231946880000000,0,0x00,0xFC
2.232044320000000,0,0x00,0xFF
2.232141760000000,0,0x00,0xFD
2.232239200000000,0,0x00,0x1F
2.232336480000000,0,0x00,0xFD
2.232433920000000,0,0x00,0x4F
2.232531360000000,0,0x00,0xFD
2.232628800000000,0,0x00,0x9F
2.232726240000000,0,0x00,0xFE
2.232823520000000,0,0x00,0x0F
2.232920960000000,0,0x00,0xFE
2.233018400000000,0,0x00,0x8F
2.233115840000000,0,0x00,0xFF
2.233213280000000,0,0x00,0x0F
2.233310720000000,0,0x00,0xFF
2.233408000000000,0,0x00,0xAF
2.233505440000000,0,0x00,0xF0
2.233602880000000,0,0x00,0x40
2.233700320000000,0,0x00,0x00
2.233797760000000,0,0x00,0xE0
2.233895040000000,0,0x00,0x01
2.233992480000000,0,0x00,0x70
2.234089920000000,0,0x00,0x02
2.234187360000000,0,0x00,0x10
2.234284800000000,0,0x00,0x02
2.234382240000000,0,0x00,0x90
2.234479520000000,0,0x00,0x03
2.234576960000000,0,0x00,0x10
2.234674400000000,0,0x00,0x03
2.234771840000000,0,0x00,0x70
2.234869280000000,0,0x00,0x03
2.234966560000000,0,0x00,0xB0
2.235064000000000,0,0x00,0x03
2.235161440000000,0,0x00,0xE0
2.235258880000000,0,0x00,0x03
2.235356320000000,0,0x00,0xE0
2.235453760000000,0,0x00,0x03
2.235551040000000,0,0x00,0xD0
2.235648480000000,0,0x00,0x03
2.235745920000000,0,0x00,0xA0
2.235843360000000,0,0x00,0x03
2.235940800000000,0,0x00,0x40
2.236038240000000,0,0x00,0x02
2.236135520000000,0,0x00,0xD0
2.236232960000000,0,0x00,0x02
2.236330400000000,0,0x00,0x40
2.236427840000000,0,0x00,0x01
2.236525280000000,0,0x00,0xA0
2.236622560000000,0,0x00,0x00
2.236720000000000,0,0x00,0xE0
2.236817440000000,0,0x00,0x00
2.236914880000000,0,0x00,0x20
2.237012320000000,0,0x00,0x0F
2.237109760000000,0,0x00,0x5F
2.237207040000000,0,0x00,0xFE
2.237304480000000,0,0x00,0x8F
2.237401920000000,0,0x00,0xFD
2.237499360000000,0,0x00,0xBF
2.237596800000000,0,0x00,0xFC
2.237694080000000,0,0x00,0xFF
2.237791520000000,0,0x00,0xFC
2.237888960000000,0,0x00,0x5F
2.237986400000000,0,0x00,0xFB
2.238083840000000,0,0x00,0xBF
2.238181280000000,0,0x00,0xFB
2.238278560000000,0,0x00,0x4F
2.238376000000000,0,0x00,0xFA
2.238473440000000,0,0x00,0xFF
2.238570880000000,0,0x00,0xFA
2.238668320000000,0,0x00,0xDF
2.238765600000000,0,0x00,0xFA
2.238863040000000,0,0x00,0xDF
2.238960480000000,0,0x00,0xFA
2.239057920000000,0,0x00,0xFF
2.239155360000000,0,0x00,0xFB
2.239252800000000,0,0x00,0x4F
2.239350080000000,0,0x00,0xFB
2.239447520000000,0,0x00,0xCF
2.239544960000000,0,0x00,0xFC
2.239642400000000,0,0x00,0x6F
2.239739840000000,0,0x00,0xFD
2.239837120000000,0,0x00,0x3F
2.239934560000000,0,0x00,0xFE
2.240032000000000,0,0x00,0x1F
2.240129440000000,0,0x00,0xFF
2.240226880000000,0,0x00,0x1F
2.240324320000000,0,0x00,0xF0
2.240421600000000,0,0x00,0x10
2.240519040000000,0,0x00,0x01
2.240616480000000,0,0x00,0x20
2.240713920000000,0,0x00,0x02
2.240811360000000,0,0x00,0x30
2.240908640000000,0,0x00,0x03
2.241006080000000,0,0x00,0x40
2.241103520000000,0,0x00,0x04
2.241200960000000,0,0x00,0x30
2.241298400000000,0,0x00,0x05
2.241395840000000,0,0x00,0x10
2.241493120000000,0,0x00,0x05
2.241590560000000,0,0x00,0xC0
2.241688000000000,0,0x00,0x06
2.241785440000000,0,0x00,0x50
2.241882880000000,0,0x00,0x06
2.241980160000000,0,0x00,0xB0
2.242077600000000,0,0x00,0x06
2.242175040000000,0,0x00,0xE0
2.242272480000000,0,0x00,0x06
2.242369920000000,0,0x00,0xD0
2.242467360000000,0,0x00,0x06
2.242564640000000,0,0x00,0x90
2.242662080000000,0,0x00,0x06
2.242759520000000,0,0x00,0x10
2.242856960000000,0,0x00,0x05
2.242954400000000,0,0x00,0x60
2.243051680000000,0,0x00,0x04
2.243149120000000,0,0x00,0x70
2.243246560000000,0,0x00,0x03
2.243344000000000,0,0x00,0x60
2.243441440000000,0,0x00,0x02
2.243538880000000,0,0x00,0x20
2.243636160000000,0,0x00,0x00
2.243733600000000,0,0x00,0xD0
2.243831040000000,0,0x00,0x0F
2.243928480000000,0,0x00,0x6F
2.244025920000000,0,0x00,0xFD
2.244123200000000,0,0x00,0xFF
2.244220640000000,0,0x00,0xFC
2.244318080000000,0,0x00,0x8F
2.244415520000000,0,0x00,0xFB
2.244512960000000,0,0x00,0x2F
2.244610400000000,0,0x00,0xF9
2.244707680000000,0,0x00,0xDF
2.244805120000000,0,0x00,0xF8
2.244902560000000,0,0x00,0xBF
2.245000000000000,0,0x00,0xF7
2.245097440000000,0,0x00,0xCF
2.245194720000000,0,0x00,0xF7
2.245292160000000,0,0x00,0x1F
2.245389600000000,0,0x00,0xF6
2.245487040000000,0,0x00,0x9F
2.245584480000000,0,0x00,0xF6
2.245681920000000,0,0x00,0x7F
2.245779200000000,0,0x00,0xF6
2.245876640000000,0,0x00,0x9F
2.245974080000000,0,0x00,0xF6
2.246071520000000,0,0x00,0xFF
2.246168960000000,0,0x00,0xF7
2.246266240000000,0,0x00,0xBF
2.246363680000000,0,0x00,0xF8
2.246461120000000,0,0x00,0xCF
2.246558560000000,0,0x00,0xFA
2.246656000000000,0,0x00,0x1F
2.246753440000000,0,0x00,0xFB
2.246850720000000,0,0x00,0xAF
2.246948160000000,0,0x00,0xFD
2.247045600000000,0,0x00,0x6F
2.247143040000000,0,0x00,0xFF
2.247240480000000,0,0x00,0x5F
2.247337920000000,0,0x00,0xF1
2.247435200000000,0,0x00,0x50
2.247532640000000,0,0x00,0x03
2.247630080000000,0,0x00,0x60
2.247727520000000,0,0x00,0x05
2.247824960000000,0,0x00,0x70
2.247922240000000,0,0x00,0x07
2.248019680000000,0,0x00,0x70
2.248117120000000,0,0x00,0x09
2.248214560000000,0,0x00,0x40
2.248312000000000,0,0x00,0x0A
2.248409440000000,0,0x00,0xE0
2.248506720000000,0,0x00,0x0C
2.248604160000000,0,0x00,0x30
2.248701600000000,0,0x00,0x0D
2.248799040000000,0,0x00,0x30
2.248896480000000,0,0x00,0x0D
2.248993760000000,0,0x00,0xE0
2.249091200000000,0,0x00,0x0E
2.249188640000000,0,0x00,0x10
2.249286080000000,0,0x00,0x0D
2.249383520000000,0,0x00,0xD0
2.249480960000000,0,0x00,0x0D
2.249578240000000,0,0x00,0x20
2.249675680000000,0,0x00,0x0C
2.249773120000000,0,0x00,0x00
2.249870560000000,0,0x00,0x0A
2.249968000000000,0,0x00,0x60
2.250065280000000,0,0x00,0x08
2.250162720000000,0,0x00,0x60
2.250260160000000,0,0x00,0x05
2.250357600000000,0,0x00,0xF0
2.250455040000000,0,0x00,0x03
2.250552480000000,0,0x00,0x30
2.250649760000000,0,0x00,0x00
2.250747200000000,0,0x00,0x20
2.250844640000000,0,0x00,0x0C
2.250942080000000,0,0x00,0xEF
2.251039520000000,0,0x00,0xF9
2.251136800000000,0,0x00,0x9F
2.251234240000000,0,0x00,0xF6
2.251331680000000,0,0x00,0x4F
2.251429120000000,0,0x00,0xF3
2.251526560000000,0,0x00,0x0F
2.251624000000000,0,0x00,0xFF
2.251721280000000,0,0x00,0xFF
2.251818720000000,0,0x00,0xED
2.251916160000000,0,0x00,0x3F
2.252013600000000,0,0x00,0xEA
2.252111040000000,0,0x00,0xDF
2.252208320000000,0,0x00,0xE9
2.252305760000000,0,0x00,0x0F
2.252403200000000,0,0x00,0xE7
2.252500640000000,0,0x00,0xDF
2.252598080000000,0,0x00,0xE7
2.252695520000000,0,0x00,0x5F
2.252792800000000,0,0x00,0xE7
2.252890240000000,0,0x00,0x8F
2.252987680000000,0,0x00,0xE8
2.253085120000000,0,0x00,0x9F
2.253182560000000,0,0x00,0xEA
2.253279840000000,0,0x00,0x8F
2.253377280000000,0,0x00,0xED
2.253474720000000,0,0x00,0x6F
2.253572160000000,0,0x00,0xE1
2.253669600000000,0,0x00,0x1F
2.253767040000000,0,0x00,0xF5
2.253864320000000,0,0x00,0xBF
2.253961760000000,0,0x00,0xFB
2.254059200000000,0,0x00,0x2F
2.254156640000000,0,0x00,0xF1
2.254254080000000,0,0x00,0x60
2.254351360000000,0,0x00,0x08
2.254448800000000,0,0x00,0x60
2.254546240000000,0,0x00,0x00
2.254643680000000,0,0x00,0x00
2.254741120000000,0,0x00,0x18
2.254838560000000,0,0x00,0x20
2.254935840000000,0,0x00,0x10
2.255033280000000,0,0x00,0xA0
2.255130720000000,0,0x00,0x29
2.255228160000000,0,0x00,0x70
2.255325600000000,0,0x00,0x22
2.255422880000000,0,0x00,0x60
2.255520320000000,0,0x00,0x3B
2.255617760000000,0,0x00,0x40
2.255715200000000,0,0x00,0x34
2.255812640000000,0,0x00,0x00
2.255910080000000,0,0x00,0x4C
2.256007360000000,0,0x00,0x60
2.256104800000000,0,0x00,0x44
2.256202240000000,0,0x00,0x40
2.256299680000000,0,0x00,0x5B
2.256397120000000,0,0x00,0x80
2.256494400000000,0,0x00,0x52
2.256591840000000,0,0x00,0x00
2.256689280000000,0,0x00,0x67
2.256786720000000,0,0x00,0x90
2.256884160000000,0,0x00,0x6C
2.256981600000000,0,0x00,0x30
2.257078880000000,0,0x00,0x6F
2.257176320000000,0,0x00,0xC0
2.257273760000000,0,0x00,0x62
2.257371200000000,0,0x00,0x20
2.257468640000000,0,0x00,0x73
2.257565920000000,0,0x00,0x60
2.257663360000000,0,0x00,0x73
2.257760800000000,0,0x00,0x60
2.257858240000000,0,0x00,0x72
2.257955680000000,0,0x00,0x20
2.258053120000000,0,0x00,0x7F
2.258150400000000,0,0x00,0xC0
2.258247840000000,0,0x00,0x6C
2.258345280000000,0,0x00,0x30
2.258442720000000,0,0x00,0x67
2.258540160000000,0,0x00,0x90
2.258637600000000,0,0x00,0x62
2.258734880000000,0,0x00,0x00
2.258832320000000,0,0x00,0x6B
2.258929760000000,0,0x00,0x80
2.259027200000000,0,0x00,0x54
2.259124640000000,0,0x00,0x40
2.259221920000000,0,0x00,0x5C
2.259319360000000,0,0x00,0x60
2.259416800000000,0,0x00,0x44
2.259514240000000,0,0x00,0x00
2.259611680000000,0,0x00,0x4B
2.259709120000000,0,0x00,0x40
2.259806400000000,0,0x00,0x32
2.259903840000000,0,0x00,0x60
2.260001280000000,0,0x00,0x39
2.260098720000000,0,0x00,0x70
2.260196160000000,0,0x00,0x20
2.260293440000000,0,0x00,0xA0
2.260390880000000,0,0x00,0x28
2.260488320000000,0,0x00,0x20
2.260585760000000,0,0x00,0x10
2.260683200000000,0,0x00,0x00
2.260780640000000,0,0x00,0x18
2.260877920000000,0,0x00,0x60
2.260975360000000,0,0x00,0x01
2.261072800000000,0,0x00,0x60
2.261170240000000,0,0x00,0x0B
2.261267680000000,0,0x00,0x2F
2.261364960000000,0,0x00,0xF5
2.261462400000000,0,0x00,0xBF
2.261559840000000,0,0x00,0xF1
2.261657280000000,0,0x00,0x1F
2.261754720000000,0,0x00,0xFD
2.261852160000000,0,0x00,0x6F
2.261949440000000,0,0x00,0xEA
2.262046880000000,0,0x00,0x8F
2.262144320000000,0,0x00,0xE8
2.262241760000000,0,0x00,0x9F
2.262339200000000,0,0x00,0xE7
2.262436480000000,0,0x00,0x8F
2.262533920000000,0,0x00,0xE7
2.262631360000000,0,0x00,0x5F
2.262728800000000,0,0x00,0xE7
2.262826240000000,0,0x00,0xDF
2.262923680000000,0,0x00,0xE9
2.263020960000000,0,0x00,0x0F
2.263118400000000,0,0x00,0xEA
2.263215840000000,0,0x00,0xDF
2.263313280000000,0,0x00,0xED
2.263410720000000,0,0x00,0x3F
2.263508000000000,0,0x00,0xEF
2.263605440000000,0,0x00,0xFF
2.263702880000000,0,0x00,0xE3
2.263800320000000,0,0x00,0x0F
2.263897760000000,0,0x00,0xF6
2.263995200000000,0,0x00,0x4F
2.264092480000000,0,0x00,0xF9
2.264189920000000,0,0x00,0x9F
2.264287360000000,0,0x00,0xFC
2.264384800000000,0,0x00,0xEF
2.264482240000000,0,0x00,0xF0
2.264579520000000,0,0x00,0x20
2.264676960000000,0,0x00,0x03
2.264774400000000,0,0x00,0x30
2.264871840000000,0,0x00,0x05
2.264969280000000,0,0x00,0xF0
2.265066720000000,0,0x00,0x08
2.265164000000000,0,0x00,0x60
2.265261440000000,0,0x00,0x0A
2.265358880000000,0,0x00,0x60
2.265456320000000,0,0x00,0x0C
2.265553760000000,0,0x00,0x00
2.265651040000000,0,0x00,0x0D
2.265748480000000,0,0x00,0x20
2.265845920000000,0,0x00,0x0D
2.265943360000000,0,0x00,0xD0
2.266040800000000,0,0x00,0x0E
2.266138240000000,0,0x00,0x10
2.266235520000000,0,0x00,0x0D
2.266332960000000,0,0x00,0xE0
2.266430400000000,0,0x00,0x0D
2.266527840000000,0,0x00,0x30
2.266625280000000,0,0x00,0x0C
2.266722560000000,0,0x00,0x30
2.266820000000000,0,0x00,0x0A
2.266917440000000,0,0x00,0xE0
2.267014880000000,0,0x00,0x09
2.267112320000000,0,0x00,0x40
2.267209760000000,0,0x00,0x07
2.267307040000000,0,0x00,0x70
2.267404480000000,0,0x00,0x05
2.267501920000000,0,0x00,0x70
2.267599360000000,0,0x00,0x03
2.267696800000000,0,0x00,0x60
2.267794080000000,0,0x00,0x01
2.267891520000000,0,0x00,0x50
2.267988960000000,0,0x00,0x0F
2.268086400000000,0,0x00,0x5F
2.268183840000000,0,0x00,0xFD
2.268281280000000,0,0x00,0x6F
2.268378560000000,0,0x00,0xFB
2.268476000000000,0,0x00,0xAF
2.268573440000000,0,0x00,0xFA
2.268670880000000,0,0x00,0x1F
2.268768320000000,0,0x00,0xF8
2.268865600000000,0,0x00,0xCF
2.268963040000000,0,0x00,0xF7
2.269060480000000,0,0x00,0xBF
2.269157920000000,0,0x00,0xF6
2.269255360000000,0,0x00,0xFF
2.269352800000000,0,0x00,0xF6
2.269450080000000,0,0x00,0x9F
2.269547520000000,0,0x00,0xF6
2.269644960000000,0,0x00,0x7F
2.269742400000000,0,0x00,0xF6
2.269839840000000,0,0x00,0x9F
2.269937280000000,0,0x00,0xF7
2.270034560000000,0,0x00,0x1F
2.270132000000000,0,0x00,0xF7
2.270229440000000,0,0x00,0xCF
2.270326880000000,0,0x00,0xF8
2.270424320000000,0,0x00,0xBF
2.270521600000000,0,0x00,0xF9
2.270619040000000,0,0x00,0xDF
2.270716480000000,0,0x00,0xFB
2.270813920000000,0,0x00,0x2F
2.270911360000000,0,0x00,0xFC
2.271008800000000,0,0x00,0x8F
2.271106080000000,0,0x00,0xFD
2.271203520000000,0,0x00,0xFF
2.271300960000000,0,0x00,0xFF
2.271398400000000,0,0x00,0x6F
2.271495840000000,0,0x00,0xF0
2.271593120000000,0,0x00,0xD0
2.271690560000000,0,0x00,0x02
2.271788000000000,0,0x00,0x20
2.271885440000000,0,0x00,0x03
2.271982880000000,0,0x00,0x60
2.272080320000000,0,0x00,0x04
2.272177600000000,0,0x00,0x70
2.272275040000000,0,0x00,0x05
2.272372480000000,0,0x00,0x60
2.272469920000000,0,0x00,0x06
2.272567360000000,0,0x00,0x10
2.272664640000000,0,0x00,0x06
2.272762080000000,0,0x00,0x90
2.272859520000000,0,0x00,0x06
2.272956960000000,0,0x00,0xD0
2.273054400000000,0,0x00,0x06
2.273151840000000,0,0x00,0xE0
2.273249120000000,0,0x00,0x06
2.273346560000000,0,0x00,0xB0
2.273444000000000,0,0x00,0x06
2.273541440000000,0,0x00,0x50
2.273638880000000,0,0x00,0x05
2.273736160000000,0,0x00,0xC0
2.273833600000000,0,0x00,0x05
2.273931040000000,0,0x00,0x10
2.274028480000000,0,0x00,0x04
2.274125920000000,0,0x00,0x30
2.274223360000000,0,0x00,0x03
2.274320640000000,0,0x00,0x40
2.274418080000000,0,0x00,0x02
2.274515520000000,0,0x00,0x30
2.274612960000000,0,0x00,0x01
2.274710400000000,0,0x00,0x20
2.274807680000000,0,0x00,0x00
2.274905120000000,0,0x00,0x10
2.275002560000000,0,0x00,0x0F
2.275100000000000,0,0x00,0x1F
2.275197440000000,0,0x00,0xFE
2.275294880000000,0,0x00,0x1F
2.275392160000000,0,0x00,0xFD
2.275489600000000,0,0x00,0x3F
2.275587040000000,0,0x00,0xFC
2.275684480000000,0,0x00,0x6F
2.275781920000000,0,0x00,0xFB
2.275879200000000,0,0x00,0xCF
2.275976640000000,0,0x00,0xFB
2.276074080000000,0,0x00,0x4F
2.276171520000000,0,0x00,0xFA
2.276268960000000,0,0x00,0xFF
2.276366400000000,0,0x00,0xFA
2.276463680000000,0,0x00,0xDF
2.276561120000000,0,0x00,0xFA
2.276658560000000,0,0x00,0xDF
2.276756000000000,0,0x00,0xFA
2.276853440000000,0,0x00,0xFF
2.276950720000000,0,0x00,0xFB
2.277048160000000,0,0x00,0x4F
2.277145600000000,0,0x00,0xFB
2.277243040000000,0,0x00,0xBF
2.277340480000000,0,0x00,0xFC
2.277437920000000,0,0x00,0x5F
2.277535200000000,0,0x00,0xFC
2.277632640000000,0,0x00,0xFF
2.277730080000000,0,0x00,0xFD
2.277827520000000,0,0x00,0xBF
2.277924960000000,0,0x00,0xFE
2.278022240000000,0,0x00,0x8F
2.278119680000000,0,0x00,0xFF
2.278217120000000,0,0x00,0x5F
2.278314560000000,0,0x00,0xF0
2.278412000000000,0,0x00,0x20
2.278509440000000,0,0x00,0x00
2.278606720000000,0,0x00,0xE0
2.278704160000000,0,0x00,0x01
2.278801600000000,0,0x00,0xA0
2.278899040000000,0,0x00,0x02
2.278996480000000,0,0x00,0x40
2.279093760000000,0,0x00,0x02
2.279191200000000,0,0x00,0xD0
2.279288640000000,0,0x00,0x03
2.279386080000000,0,0x00,0x40
2.279483520000000,0,0x00,0x03
2.279580960000000,0,0x00,0xA0
2.279678240000000,0,0x00,0x03
2.279775680000000,0,0x00,0xD0
2.279873120000000,0,0x00,0x03
2.279970560000000,0,0x00,0xE0
2.280068000000000,0,0x00,0x03
2.280165280000000,0,0x00,0xE0
2.280262720000000,0,0x00,0x03
2.280360160000000,0,0x00,0xB0
2.280457600000000,0,0x00,0x03
2.280555040000000,0,0x00,0x70
2.280652480000000,0,0x00,0x03
2.280749760000000,0,0x00,0x10
2.280847200000000,0,0x00,0x02
2.280944640000000,0,0x00,0x90
2.281042080000000,0,0x00,0x02
2.281139520000000,0,0x00,0x10
2.281236960000000,0,0x00,0x01
2.281334240000000,0,0x00,0x70
2.281431680000000,0,0x00,0x00
2.281529120000000,0,0x00,0xE0
2.281626560000000,0,0x00,0x00
2.281724000000000,0,0x00,0x40
2.281821280000000,0,0x00,0x0F
2.281918720000000,0,0x00,0xAF
2.282016160000000,0,0x00,0xFF
2.282113600000000,0,0x00,0x0F
2.282211040000000,0,0x00,0xFE
2.282308480000000,0,0x00,0x8F
2.282405760000000,0,0x00,0xFE
2.282503200000000,0,0x00,0x0F
2.282600640000000,0,0x00,0xFD
2.282698080000000,0,0x00,0x9F
2.282795520000000,0,0x00,0xFD
2.282892800000000,0,0x00,0x4F
2.282990240000000,0,0x00,0xFD
2.283087680000000,0,0x00,0x1F
2.283185120000000,0,0x00,0xFC
2.283282560000000,0,0x00,0xFF
2.283380000000000,0,0x00,0xFC
2.283477280000000,0,0x00,0xEF
2.283574720000000,0,0x00,0xFD
2.283672160000000,0,0x00,0x0F
2.283769600000000,0,0x00,0xFD
2.283867040000000,0,0x00,0x2F
2.283964320000000,0,0x00,0xFD
2.284061760000000,0,0x00,0x7F
2.284159200000000,0,0x00,0xFD
2.284256640000000,0,0x00,0xCF
2.284354080000000,0,0x00,0xFE
2.284451520000000,0,0x00,0x3F
2.284548800000000,0,0x00,0xFE
2.284646240000000,0,0x00,0xAF
2.284743680000000,0,0x00,0xFF
2.284841120000000,0,0x00,0x3F
2.284938560000000,0,0x00,0xFF
2.285035840000000,0,0x00,0xBF
2.285133280000000,0,0x00,0xF0
2.285230720000000,0,0x00,0x30
2.285328160000000,0,0x00,0x00
2.285425600000000,0,0x00,0xC0
2.285523040000000,0,0x00,0x01
2.285620320000000,0,0x00,0x50
2.285717760000000,0,0x00,0x01
2.285815200000000,0,0x00,0xD0
2.285912640000000,0,0x00,0x02
2.286010080000000,0,0x00,0x40
2.286107360000000,0,0x00,0x02
2.286204800000000,0,0x00,0xA0
2.286302240000000,0,0x00,0x02
2.286399680000000,0,0x00,0xF0
2.286497120000000,0,0x00,0x03
2.286594560000000,0,0x00,0x30
2.286691840000000,0,0x00,0x03
2.286789280000000,0,0x00,0x60
2.286886720000000,0,0x00,0x03
2.286984160000000,0,0x00,0x70
2.287081600000000,0,0x00,0x03
2.287178880000000,0,0x00,0x80
2.287276320000000,0,0x00,0x03
2.287373760000000,0,0x00,0x70
2.287471200000000,0,0x00,0x03
2.287568640000000,0,0x00,0x50
2.287666080000000,0,0x00,0x08
2.287763360000000,0,0x00,0x90
2.287860800000000,0,0x00,0x10
2.287958240000000,0,0x00,0x00
2.288055680000000,0,0x00,0x07
2.288153120000000,0,0x00,0x40
2.288250400000000,0,0x00,0x0E
2.288347840000000,0,0x00,0x70
2.288445280000000,0,0x00,0x05
2.288542720000000,0,0x00,0xB0
2.288640160000000,0,0x00,0x1C
2.288737600000000,0,0x00,0xF0
2.288834880000000,0,0x00,0x14
2.288932320000000,0,0x00,0x20
2.289029760000000,0,0x00,0x2B
2.289127200000000,0,0x00,0x60
2.289224640000000,0,0x00,0x22
2.289321920000000,0,0x00,0xA0
2.289419360000000,0,0x00,0x39
2.289516800000000,0,0x00,0xE0
2.289614240000000,0,0x00,0x31
2.289711680000000,0,0x00,0x10
2.289809120000000,0,0x00,0x49
2.289906400000000,0,0x00,0x50
2.290003840000000,0,0x00,0x4A
2.290101280000000,0,0x00,0x50
2.290198720000000,0,0x00,0x4B
2.290296160000000,0,0x00,0x50
2.290393440000000,0,0x00,0x4C
2.290490880000000,0,0x00,0x60
2.290588320000000,0,0x00,0x4D
2.290685760000000,0,0x00,0x60
2.290783200000000,0,0x00,0x4E
2.290880640000000,0,0x00,0x70
2.290977920000000,0,0x00,0x4F
2.291075360000000,0,0x00,0x80
2.291172800000000,0,0x00,0x40
2.291270240000000,0,0x00,0xA0
2.291367680000000,0,0x00,0x51
2.291465120000000,0,0x00,0xC0
2.291562400000000,0,0x00,0x52
2.291659840000000,0,0x00,0xD0
2.291757280000000,0,0x00,0x54
2.291854720000000,0,0x00,0x00
2.291952160000000,0,0x00,0x55
2.292049440000000,0,0x00,0x20
2.292146880000000,0,0x00,0x56
2.292244320000000,0,0x00,0x50
2.292341760000000,0,0x00,0x57
2.292439200000000,0,0x00,0x70
2.292536640000000,0,0x00,0x58
2.292633920000000,0,0x00,0xB0
2.292731360000000,0,0x00,0x59
2.292828800000000,0,0x00,0xE0
2.292926240000000,0,0x00,0x5B
2.293023680000000,0,0x00,0x20
2.293120960000000,0,0x00,0x5C
2.293218400000000,0,0x00,0x60
2.293315840000000,0,0x00,0x5D
2.293413280000000,0,0x00,0xA0
2.293510720000000,0,0x00,0x5E
2.293608160000000,0,0x00,0xE0
2.293705440000000,0,0x00,0x50
2.293802880000000,0,0x00,0x30
2.293900320000000,0,0x00,0x61
2.293997760000000,0,0x00,0x80
2.294095200000000,0,0x00,0x62
2.294192480000000,0,0x00,0xE0
2.294289920000000,0,0x00,0x64
2.294387360000000,0,0x00,0x30
2.294484800000000,0,0x00,0x65
2.294582240000000,0,0x00,0x90
2.294679680000000,0,0x00,0x66
2.294776960000000,0,0x00,0xF0
2.294874400000000,0,0x00,0x68
2.294971840000000,0,0x00,0x60
2.295069280000000,0,0x00,0x69
2.295166720000000,0,0x00,0xD0
2.295264000000000,0,0x00,0x6B
2.295361440000000,0,0x00,0x40
2.295458880000000,0,0x00,0x6C
2.295556320000000,0,0x00,0xB0
2.295653760000000,0,0x00,0x6E
2.295751200000000,0,0x00,0x30
2.295848480000000,0,0x00,0x6F
2.295945920000000,0,0x00,0xB0
2.296043360000000,0,0x00,0x61
2.296140800000000,0,0x00,0x40
2.296238240000000,0,0x00,0x72
2.296335520000000,0,0x00,0xD0
2.296432960000000,0,0x00,0x74
2.296530400000000,0,0x00,0x60
2.296627840000000,0,0x00,0x75
2.296725280000000,0,0x00,0xF0
2.296822720000000,0,0x00,0x77
2.296920000000000,0,0x00,0x90
2.297017440000000,0,0x00,0x79
2.297114880000000,0,0x00,0x30
2.297212320000000,0,0x00,0x7A
2.297309760000000,0,0x00,0xE0
2.297407040000000,0,0x00,0x7C
2.297504480000000,0,0x00,0x90
2.297601920000000,0,0x00,0x7E
2.297699360000000,0,0x00,0x40
2.297796800000000,0,0x00,0x70
2.297894240000000,0,0x00,0x00
2.297991520000000,0,0x00,0x81
2.298088960000000,0,0x00,0xC0
2.298186400000000,0,0x00,0x83
2.298283840000000,0,0x00,0x80
2.298381280000000,0,0x00,0x85
2.298478560000000,0,0x00,0x50
2.298576000000000,0,0x00,0x87
2.298673440000000,0,0x00,0x20
2.298770880000000,0,0x00,0x89
2.298868320000000,0,0x00,0x00
2.298965760000000,0,0x00,0x8A
2.299063040000000,0,0x00,0xE0
2.299160480000000,0,0x00,0x8C
2.299257920000000,0,0x00,0xC0
2.299355360000000,0,0x00,0x8E
2.299452800000000,0,0x00,0xB0
2.299550080000000,0,0x00,0x80
2.299647520000000,0,0x00,0xA0
2.299744960000000,0,0x00,0x92
2.299842400000000,0,0x00,0xA0
2.299939840000000,0,0x00,0x94
2.300037280000000,0,0x00,0xA0
2.300134560000000,0,0x00,0x96
2.300232000000000,0,0x00,0xA0
2.300329440000000,0,0x00,0x98
2.300426880000000,0,0x00,0xB0
2.300524320000000,0,0x00,0x9A
2.300621600000000,0,0x00,0xD0
2.300719040000000,0,0x00,0x9C
2.300816480000000,0,0x00,0xF0
2.300913920000000,0,0x00,0x9F
2.301011360000000,0,0x00,0x10
2.301108800000000,0,0x00,0x91
2.301206080000000,0,0x00,0x40
2.301303520000000,0,0x00,0xA3
2.301400960000000,0,0x00,0x70
2.301498400000000,0,0x00,0xA5
2.301595840000000,0,0x00,0xB0
2.301693120000000,0,0x00,0xA7
2.301790560000000,0,0x00,0xF0
2.301888000000000,0,0x00,0xAA
2.301985440000000,0,0x00,0x40
2.302082880000000,0,0x00,0xAC
2.302180320000000,0,0x00,0x90
2.302277600000000,0,0x00,0xAE
2.302375040000000,0,0x00,0xF0
2.302472480000000,0,0x00,0xA1
2.302569920000000,0,0x00,0x50
2.302667360000000,0,0x00,0xB3
2.302764800000000,0,0x00,0xC0
2.302862080000000,0,0x00,0xB6
2.302959520000000,0,0x00,0x40
2.303056960000000,0,0x00,0xB8
2.303154400000000,0,0x00,0xB0
2.303251840000000,0,0x00,0xBB
2.303349120000000,0,0x00,0x40
2.303446560000000,0,0x00,0xBD
2.303544000000000,0,0x00,0xD0
2.303641440000000,0,0x00,0xB0
2.303738880000000,0,0x00,0x60
2.303836320000000,0,0x00,0xC3
2.303933600000000,0,0x00,0x10
2.304031040000000,0,0x00,0xC5
2.304128480000000,0,0x00,0xB0
2.304225920000000,0,0x00,0xC8
2.304323360000000,0,0x00,0x70
2.304420640000000,0,0x00,0xCB
2.304518080000000,0,0x00,0x20
2.304615520000000,0,0x00,0xCD
2.304712960000000,0,0x00,0xF0
2.304810400000000,0,0x00,0xC0
2.304907840000000,0,0x00,0xC0
2.305005120000000,0,0x00,0xD3
2.305102560000000,0,0x00,0xA0
2.305200000000000,0,0x00,0xD6
2.305297440000000,0,0x00,0x80
2.305394880000000,0,0x00,0xD9
2.305492160000000,0,0x00,0x70
2.305589600000000,0,0x00,0xDC
2.305687040000000,0,0x00,0x70
2.305784480000000,0,0x00,0xDF
2.305881920000000,0,0x00,0x70
2.305979360000000,0,0x00,0xD2
2.306076640000000,0,0x00,0x80
2.306174080000000,0,0x00,0xE5
2.306271520000000,0,0x00,0x90
2.306368960000000,0,0x00,0xE8
2.306466400000000,0,0x00,0xC0
2.306563680000000,0,0x00,0xEB
2.306661120000000,0,0x00,0xF0
2.306758560000000,0,0x00,0xEF
2.306856000000000,0,0x00,0x20
2.306953440000000,0,0x00,0xE2
2.307050880000000,0,0x00,0x70
2.307148160000000,0,0x00,0xF5
2.307245600000000,0,0x00,0xC0
2.307343040000000,0,0x00,0xF9
2.307440480000000,0,0x00,0x20
2.307537920000000,0,0x00,0xFC
2.307635200000000,0,0x00,0x80
2.307732640000000,0,0x00,0xFF
2.307830080000000,0,0x00,0xF0
2.307927520000000,0,0x00,0xF3
2.308024960000000,0,0x00,0x71
2.308122400000000,0,0x00,0x07
2.308219680000000,0,0x00,0x01
2.308317120000000,0,0x00,0x0A
2.308414560000000,0,0x00,0xA1
2.308512000000000,0,0x00,0x0E
2.308609440000000,0,0x00,0x41
2.308706720000000,0,0x00,0x01
2.308804160000000,0,0x00,0xF1
2.308901600000000,0,0x00,0x15
2.308999040000000,0,0x00,0xB1
2.309096480000000,0,0x00,0x19
2.309193920000000,0,0x00,0x81
2.309291200000000,0,0x00,0x1D
2.309388640000000,0,0x00,0x61
2.309486080000000,0,0x00,0x11
2.309583520000000,0,0x00,0x41
2.309680960000000,0,0x00,0x25
2.309778240000000,0,0x00,0x41
2.309875680000000,0,0x00,0x29
2.309973120000000,0,0x00,0x41
2.310070560000000,0,0x00,0x2D
2.310168000000000,0,0x00,0x51
2.310265440000000,0,0x00,0x21
2.310362720000000,0,0x00,0x71
2.310460160000000,0,0x00,0x35
2.310557600000000,0,0x00,0xA1
2.310655040000000,0,0x00,0x39
2.310752480000000,0,0x00,0xE1
2.310849760000000,0,0x00,0x3E
2.310947200000000,0,0x00,0x21
2.311044640000000,0,0x00,0x32
2.311142080000000,0,0x00,0x81
2.311239520000000,0,0x00,0x46
2.311336960000000,0,0x00,0xF1
2.311434240000000,0,0x00,0x4B
2.311531680000000,0,0x00,0x61
2.311629120000000,0,0x00,0x4F
2.311726560000000,0,0x00,0xF1
2.311824000000000,0,0x00,0x44
2.311921280000000,0,0x00,0x81
2.312018720000000,0,0x00,0x59
2.312116160000000,0,0x00,0x31
2.312213600000000,0,0x00,0x5D
2.312311040000000,0,0x00,0xE1
2.312408480000000,0,0x00,0x52
2.312505760000000,0,0x00,0xB1
2.312603200000000,0,0x00,0x67
2.312700640000000,0,0x00,0x91
2.312798080000000,0,0x00,0x6C
2.312895520000000,0,0x00,0x71
2.312992800000000,0,0x00,0x61
2.313090240000000,0,0x00,0x71
2.313187680000000,0,0x00,0x76
2.313285120000000,0,0x00,0x81
2.313382560000000,0,0x00,0x7B
2.313480000000000,0,0x00,0xA1
2.313577280000000,0,0x00,0x70
2.313674720000000,0,0x00,0xD1
2.313772160000000,0,0x00,0x86
2.313869600000000,0,0x00,0x11
2.313967040000000,0,0x00,0x8B
2.314064480000000,0,0x00,0x71
2.314161760000000,0,0x00,0x80
2.314259200000000,0,0x00,0xD1
2.314356640000000,0,0x00,0x96
2.314454080000000,0,0x00,0x51
2.314551520000000,0,0x00,0x9B
2.314648800000000,0,0x00,0xE1
2.314746240000000,0,0x00,0x91
2.314843680000000,0,0x00,0x81
2.314941120000000,0,0x00,0xA7
2.315038560000000,0,0x00,0x41
2.315136000000000,0,0x00,0xAD
2.315233280000000,0,0x00,0x01
2.315330720000000,0,0x00,0xA2
2.315428160000000,0,0x00,0xE1
2.315525600000000,0,0x00,0xB8
2.315623040000000,0,0x00,0xE1
2.315720320000000,0,0x00,0xBE
2.315817760000000,0,0x00,0xE1
2.315915200000000,0,0x00,0xB5
2.316012640000000,0,0x00,0x01
2.316110080000000,0,0x00,0xCB
2.316207520000000,0,0x00,0x31
2.316304800000000,0,0x00,0xC1
2.316402240000000,0,0x00,0x81
2.316499680000000,0,0x00,0xD7
2.316597120000000,0,0x00,0xE1
2.316694560000000,0,0x00,0xDE
2.316791840000000,0,0x00,0x51
2.316889280000000,0,0x00,0xD4
2.316986720000000,0,0x00,0xE1
2.317084160000000,0,0x00,0xEB
2.317181600000000,0,0x00,0x81
2.317279040000000,0,0x00,0xE2
2.317376320000000,0,0x00,0x31
2.317473760000000,0,0x00,0xF9
2.317571200000000,0,0x00,0x01
2.317668640000000,0,0x00,0xFF
2.317766080000000,0,0x00,0xF1
2.317863360000000,0,0x00,0xF6
2.317960800000000,0,0x00,0xF2
2.318058240000000,0,0x00,0x0E
2.318155680000000,0,0x00,0x12
2.318253120000000,0,0x00,0x05
2.318350560000000,0,0x00,0x42
2.318447840000000,0,0x00,0x1C
2.318545280000000,0,0x00,0x92
2.318642720000000,0,0x00,0x13
2.318740160000000,0,0x00,0xF2
2.318837600000000,0,0x00,0x2B
2.318934880000000,0,0x00,0x72
2.319032320000000,0,0x00,0x23
2.319129760000000,0,0x00,0x12
2.319227200000000,0,0x00,0x3A
2.319324640000000,0,0x00,0xC2
2.319422080000000,0,0x00,0x32
2.319519360000000,0,0x00,0x92
2.319616800000000,0,0x00,0x4A
2.319714240000000,0,0x00,0x82
2.319811680000000,0,0x00,0x42
2.319909120000000,0,0x00,0x82
2.320006400000000,0,0x00,0x5A
2.320103840000000,0,0x00,0xA2
2.320201280000000,0,0x00,0x52
2.320298720000000,0,0x00,0xE2
2.320396160000000,0,0x00,0x6B
2.320493600000000,0,0x00,0x42
2.320590880000000,0,0x00,0x63
2.320688320000000,0,0x00,0xB2
2.320785760000000,0,0x00,0x7C
2.320883200000000,0,0x00,0x52
2.320980640000000,0,0x00,0x75
2.321077920000000,0,0x00,0x02
2.321175360000000,0,0x00,0x8D
2.321272800000000,0,0x00,0xD2
2.321370240000000,0,0x00,0x86
2.321467680000000,0,0x00,0xD2
2.321565120000000,0,0x00,0x9F
2.321662400000000,0,0x00,0xE2
2.321759840000000,0,0x00,0x99
2.321857280000000,0,0x00,0x12
2.321954720000000,0,0x00,0xA2
2.322052160000000,0,0x00,0x62
2.322149440000000,0,0x00,0xBB
2.322246880000000,0,0x00,0xD2
2.322344320000000,0,0x00,0xB5
2.322441760000000,0,0x00,0x62
2.322539200000000,0,0x00,0xCF
2.322636640000000,0,0x00,0x22
2.322733920000000,0,0x00,0xC8
2.322831360000000,0,0x00,0xF2
2.322928800000000,0,0x00,0xD2
2.323026240000000,0,0x00,0xF2
2.323123680000000,0,0x00,0xED
2.323220960000000,0,0x00,0x12
2.323318400000000,0,0x00,0xE7
2.323415840000000,0,0x00,0x52
2.323513280000000,0,0x00,0xF1
2.323610720000000,0,0x00,0xB3
2.323708160000000,0,0x00,0x0C
2.323805440000000,0,0x00,0x33
2.323902880000000,0,0x00,0x06
2.324000320000000,0,0x00,0xE3
2.324097760000000,0,0x00,0x11
2.324195200000000,0,0x00,0xB3
2.324292480000000,0,0x00,0x2C
2.324389920000000,0,0x00,0xB3
2.324487360000000,0,0x00,0x27
2.324584800000000,0,0x00,0xD3
2.324682240000000,0,0x00,0x33
2.324779680000000,0,0x00,0x13
2.324876960000000,0,0x00,0x4E
2.324974400000000,0,0x00,0x83
2.325071840000000,0,0x00,0x4A
2.325169280000000,0,0x00,0x13
2.325266720000000,0,0x00,0x55
2.325364160000000,0,0x00,0xD3
2.325461440000000,0,0x00,0x61
2.325558880000000,0,0x00,0xC3
2.325656320000000,0,0x00,0x7D
2.325753760000000,0,0x00,0xD3
2.325851200000000,0,0x00,0x7A
2.325948480000000,0,0x00,0x03
2.326045920000000,0,0x00,0x86
2.326143360000000,0,0x00,0x73
2.326240800000000,0,0x00,0x93
2.326338240000000,0,0x00,0x03
2.326435680000000,0,0x00,0xAF
2.326532960000000,0,0x00,0xC3
2.326630400000000,0,0x00,0xAC
2.326727840000000,0,0x00,0xA3
2.326825280000000,0,0x00,0xB9
2.326922720000000,0,0x00,0xC3
2.327020000000000,0,0x00,0xC7
2.327117440000000,0,0x00,0x03
2.327214880000000,0,0x00,0xD4
2.327312320000000,0,0x00,0x73
2.327409760000000,0,0x00,0xE2
2.327507200000000,0,0x00,0x23
2.327604480000000,0,0x00,0xFF
2.327701920000000,0,0x00,0xF3
2.327799360000000,0,0x00,0xFD
2.327896800000000,0,0x00,0xF4
2.327994240000000,0,0x00,0x0C
2.328091520000000,0,0x00,0x24
2.328188960000000,0,0x00,0x1A
2.328286400000000,0,0x00,0x94
2.328383840000000,0,0x00,0x29
2.328481280000000,0,0x00,0x24
2.328578720000000,0,0x00,0x37
2.328676000000000,0,0x00,0xF4
2.328773440000000,0,0x00,0x46
2.328870880000000,0,0x00,0xF4
2.328968320000000,0,0x00,0x56
2.329065760000000,0,0x00,0x24
2.329163040000000,0,0x00,0x65
2.329260480000000,0,0x00,0x94
2.329357920000000,0,0x00,0x75
2.329450720000000,0,0x00,0x1A
2.329541920000000,0,0x00,0x42
2.329639360000000,0,0x00,0x82
2.329736800000000,0,0x00,0x4A
2.329834240000000,0,0x00,0x8A
2.329931520000000,0,0x00,0x52
2.330028960000000,0,0x00,0xAA
2.330126400000000,0,0x00,0x5A
2.330223840000000,0,0x00,0xEA
2.330321280000000,0,0x00,0x63
2.330418560000000,0,0x00,0x4A
2.330516000000000,0,0x00,0x6B
2.330613440000000,0,0x00,0xC2
2.330710880000000,0,0x00,0x74
2.330808320000000,0,0x00,0x5A
2.330905760000000,0,0x00,0x7D
2.331003040000000,0,0x00,0x0A
2.331100480000000,0,0x00,0x85
2.331197920000000,0,0x00,0xE2
2.331295360000000,0,0x00,0x8E
2.331392800000000,0,0x00,0xD2
2.331490080000000,0,0x00,0x97
2.331587520000000,0,0x00,0xE2
2.331684960000000,0,0x00,0x99
2.331782400000000,0,0x00,0x1A
2.331879840000000,0,0x00,0xAA
2.331977280000000,0,0x00,0x6A
2.332074560000000,0,0x00,0xB3
2.332172000000000,0,0x00,0xDA
2.332269440000000,0,0x00,0xBD
2.332366880000000,0,0x00,0x72
2.332464320000000,0,0x00,0xC7
2.332561600000000,0,0x00,0x22
2.332659040000000,0,0x00,0xC8
2.332756480000000,0,0x00,0xFA
2.332853920000000,0,0x00,0xDA
2.332951360000000,0,0x00,0xF2
2.333048800000000,0,0x00,0xE5
2.333146080000000,0,0x00,0x12
2.333243520000000,0,0x00,0xEF
2.333340960000000,0,0x00,0x52
2.333438400000000,0,0x00,0xF1
2.333535840000000,0,0x00,0xBB
2.333633120000000,0,0x00,0x04
2.333730560000000,0,0x00,0x43
2.333828000000000,0,0x00,0x0E
2.333925440000000,0,0x00,0xEB
2.334022880000000,0,0x00,0x11
2.334120320000000,0,0x00,0xC3
2.334217600000000,0,0x00,0x24
2.334315040000000,0,0x00,0xBB
2.334412480000000,0,0x00,0x2F
2.334509920000000,0,0x00,0xDB
2.334607360000000,0,0x00,0x33
2.334704640000000,0,0x00,0x1B
2.334802080000000,0,0x00,0x46
2.334899520000000,0,0x00,0x8B
2.334996960000000,0,0x00,0x4A
2.335094400000000,0,0x00,0x23
2.335191840000000,0,0x00,0x5D
2.335289120000000,0,0x00,0xE3
2.335386560000000,0,0x00,0x61
2.335484000000000,0,0x00,0xCB
2.335581440000000,0,0x00,0x75
2.335678880000000,0,0x00,0xDB
2.335776160000000,0,0x00,0x7A
2.335873600000000,0,0x00,0x13
2.335971040000000,0,0x00,0x8E
2.336068480000000,0,0x00,0x7B
2.336165920000000,0,0x00,0x93
2.336263360000000,0,0x00,0x0B
2.336360640000000,0,0x00,0xA7
2.336458080000000,0,0x00,0xCB
2.336555520000000,0,0x00,0xAC
2.336652960000000,0,0x00,0xB3
2.336750400000000,0,0x00,0xB9
2.336847680000000,0,0x00,0xCB
2.336945120000000,0,0x00,0xCF
2.337042560000000,0,0x00,0x13
2.337140000000000,0,0x00,0xD4
2.337237440000000,0,0x00,0x83
2.337334880000000,0,0x00,0xE2
2.337432160000000,0,0x00,0x2B
2.337529600000000,0,0x00,0xF7
2.337627040000000,0,0x00,0xFB
2.337724480000000,0,0x00,0xF8
2.337821920000000,0,0x00,0x00
2.337919360000000,0,0x00,0x00
2.338016640000000,0,0x00,0x00
2.338114080000000,0,0x00,0x04
2.338211520000000,0,0x00,0x04
2.338308960000000,0,0x00,0x04
2.338406400000000,0,0x00,0x04
2.338503680000000,0,0x00,0x04
2.338601120000000,0,0x00,0x04
2.338698560000000,0,0x00,0x00
2.338796000000000,0,0x00,0x00
2.338893440000000,0,0x00,0x00
2.338990880000000,0,0x00,0x00
2.339088160000000,0,0x00,0x00
2.339185600000000,0,0x00,0x00
2.339283040000000,0,0x00,0x00
2.339380480000000,0,0x00,0x00
2.339477920000000,0,0x00,0x00
2.339575200000000,0,0x00,0x00
2.339672640000000,0,0x00,0x07
2.339770080000000,0,0x00,0xF8
2.339867520000000,0,0x00,0x00
2.339964960000000,0,0x00,0x00
2.340062400000000,0,0x00,0x00
2.340159680000000,0,0x00,0x00
2.340257120000000,0,0x00,0x00
2.340354560000000,0,0x00,0x00
2.340452000000000,0,0x00,0x00
2.340549440000000,0,0x00,0x00
2.340646720000000,0,0x00,0x00
2.340744160000000,0,0x00,0x00
2.340841600000000,0,0x00,0x00
2.340939040000000,0,0x00,0x00
2.341036480000000,0,0x00,0x00
2.341133920000000,0,0x00,0x00
2.341231200000000,0,0x00,0x08
2.341328640000000,0,0x00,0x08
2.341426080000000,0,0x00,0x00
2.341523520000000,0,0x00,0x00
2.341620960000000,0,0x00,0x04
2.341718240000000,0,0x00,0x01
2.341815680000000,0,0x00,0xC4
2.341913120000000,0,0x00,0x35
2.342010560000000,0,0x00,0x2E
2.342108000000000,0,0x00,0x09
2.342205440000000,0,0x00,0xA3
2.342302720000000,0,0x00,0x77
2.342400160000000,0,0x00,0x3E
2.342497600000000,0,0x00,0x58
2.342595040000000,0,0x00,0x28
2.342692480000000,0,0x00,0x00
2.342789760000000,0,0x00,0x00
2.342887200000000,0,0x00,0x61
2.342984640000000,0,0x00,0xF9
2.343082080000000,0,0x00,0xF8
2.343179520000000,0,0x00,0x01
2.343276960000000,0,0x00,0xF8
2.343374240000000,0,0x00,0xA0
2.343471680000000,0,0x00,0x98
2.343569120000000,0,0x00,0xB8
2.343666560000000,0,0x00,0x98
2.343764000000000,0,0x00,0xD1
2.343861280000000,0,0x00,0xF2
2.343958720000000,0,0x00,0x08
2.344056160000000,0,0x00,0x62
2.344153600000000,0,0x00,0x61
2.344251040000000,0,0x00,0xF8
2.344348480000000,0,0x00,0x01
2.344445760000000,0,0x00,0xF8
2.344543200000000,0,0x00,0xC9
2.344640640000000,0,0x00,0x31
2.344738080000000,0,0x00,0x70
2.344835520000000,0,0x00,0xD9
2.344932800000000,0,0x00,0x02
2.345030240000000,0,0x00,0x18
2.345127680000000,0,0x00,0xB8
2.345225120000000,0,0x00,0x61
2.345322560000000,0,0x00,0x31
2.345420000000000,0,0x00,0xF8
2.345517280000000,0,0x00,0x01
2.345614720000000,0,0x00,0xF8
2.345712160000000,0,0x00,0xD0
2.345809600000000,0,0x00,0xC9
2.345907040000000,0,0x00,0xA8
2.346004320000000,0,0x00,0xB9
2.346101760000000,0,0x00,0x0A
2.346199200000000,0,0x00,0x10
2.346296640000000,0,0x00,0xA0
2.346394080000000,0,0x00,0x01
2.346491520000000,0,0x00,0xF9
2.346588800000000,0,0x00,0xF8
2.346686240000000,0,0x00,0x01
2.346783680000000,0,0x00,0xF8
2.346881120000000,0,0x00,0x00
2.346978560000000,0,0x00,0x08
2.347075840000000,0,0x00,0x00
2.347173280000000,0,0x00,0x01
2.347270720000000,0,0x00,0x22
2.347368160000000,0,0x00,0x30
2.347465600000000,0,0x00,0x48
2.347563040000000,0,0x00,0x08
2.347660320000000,0,0x00,0x00
2.347757760000000,0,0x00,0x00
2.347855200000000,0,0x00,0x00
2.347952640000000,0,0x00,0x00
2.348050080000000,0,0x00,0x00
2.348147360000000,0,0x00,0x00
2.348244800000000,0,0x00,0x00
2.348342240000000,0,0x00,0x02
2.348439680000000,0,0x00,0x88
2.348537120000000,0,0x00,0x08
2.348634560000000,0,0x00,0x08
2.348731840000000,0,0x00,0xE1
2.348829280000000,0,0x00,0x20
2.348926720000000,0,0x00,0x08
2.349024160000000,0,0x00,0x08
2.349121600000000,0,0x00,0x00
2.349219040000000,0,0x00,0x00
2.349316320000000,0,0x00,0x02
2.349413760000000,0,0x00,0x28
2.349511200000000,0,0x00,0x00
2.349608640000000,0,0x00,0x02
2.349706080000000,0,0x00,0xA8
2.349803360000000,0,0x00,0x00
2.349900800000000,0,0x00,0x02
2.349998240000000,0,0x00,0x30
2.350095680000000,0,0x00,0x00
2.350193120000000,0,0x00,0x00
2.350290560000000,0,0x00,0x78
2.350387840000000,0,0x00,0x03
2.350485280000000,0,0x00,0xA8
2.350582720000000,0,0x00,0x00
2.350680160000000,0,0x00,0x00
2.350777600000000,0,0x00,0x00
2.350874880000000,0,0x00,0x10
2.350972320000000,0,0x00,0x00
2.351069760000000,0,0x00,0x00
2.351167200000000,0,0x00,0xD2
2.351264640000000,0,0x00,0x3A
2.351362080000000,0,0x00,0x20
2.351459360000000,0,0x00,0x00
2.351556800000000,0,0x00,0x10
2.351654240000000,0,0x00,0x00
2.351751680000000,0,0x00,0x0A
2.351849120000000,0,0x00,0x10
2.351946400000000,0,0x00,0x48
2.352043840000000,0,0x00,0x00
2.352141280000000,0,0x00,0x00
2.352238720000000,0,0x00,0x00
2.352336160000000,0,0x00,0x00
2.352433600000000,0,0x00,0x00
2.352530880000000,0,0x00,0x00
2.352628320000000,0,0x00,0x00
2.352725760000000,0,0x00,0x00
2.352823200000000,0,0x00,0x00
2.352920640000000,0,0x00,0x00
2.353017920000000,0,0x00,0x61
2.353115360000000,0,0x00,0xA9
2.353212800000000,0,0x00,0xFB
2.353310240000000,0,0x00,0xF9
2.353407680000000,0,0x00,0xF8
2.353505120000000,0,0x00,0xB2
2.353602400000000,0,0x00,0x60
2.353699840000000,0,0x00,0x02
2.353797280000000,0,0x00,0xC8
2.353894720000000,0,0x00,0x00
2.353992160000000,0,0x00,0x01
2.354089440000000,0,0x00,0x00
2.354186880000000,0,0x00,0x9A
2.354284320000000,0,0x00,0x61
2.354381760000000,0,0x00,0xF8
2.354479200000000,0,0x00,0x01
2.354576640000000,0,0x00,0xF8
2.354673920000000,0,0x00,0x00
2.354771360000000,0,0x00,0x08
2.354868800000000,0,0x00,0x02
2.354966240000000,0,0x00,0x00
2.355063680000000,0,0x00,0x00
2.355160960000000,0,0x00,0x01
2.355258400000000,0,0x00,0x00
2.355355840000000,0,0x00,0xC2
2.355453280000000,0,0x00,0x29
2.355550720000000,0,0x00,0xF8
2.355648160000000,0,0x00,0x01
2.355745440000000,0,0x00,0xF8
2.355842880000000,0,0x00,0x00
2.355940320000000,0,0x00,0x08
2.356037760000000,0,0x00,0x02
2.356135200000000,0,0x00,0x48
2.356232480000000,0,0x00,0x00
2.356329920000000,0,0x00,0x01
2.356427360000000,0,0x00,0x01
2.356524800000000,0,0x00,0x22
2.356622240000000,0,0x00,0xC9
2.356719680000000,0,0x00,0xFB
2.356816960000000,0,0x00,0xFB
2.356914400000000,0,0x00,0xF0
2.357011840000000,0,0x00,0x00
2.357109280000000,0,0x00,0x08
2.357206720000000,0,0x00,0x00
2.357304000000000,0,0x00,0x00
2.357401440000000,0,0x00,0x00
2.357498880000000,0,0x00,0x00
2.357596320000000,0,0x00,0xF8
2.357693760000000,0,0x00,0x00
2.357791200000000,0,0x00,0x0B
2.357888480000000,0,0x00,0xF8
2.357985920000000,0,0x00,0x03
2.358083360000000,0,0x00,0xFB
2.358180800000000,0,0x00,0xF8
2.358278240000000,0,0x00,0x02
2.358375520000000,0,0x00,0x00
2.358472960000000,0,0x00,0x03
2.358570400000000,0,0x00,0x0A
2.358667840000000,0,0x00,0x60
2.358765280000000,0,0x00,0x08
2.358862720000000,0,0x00,0x08
2.358960000000000,0,0x00,0xE0
2.359057440000000,0,0x00,0x08
2.359154880000000,0,0x00,0x08
2.359252320000000,0,0x00,0x00
2.359349760000000,0,0x00,0x03
2.359447040000000,0,0x00,0x49
2.359544480000000,0,0x00,0xF0
2.359641920000000,0,0x00,0x00
2.359739360000000,0,0x00,0x02
2.359836800000000,0,0x00,0x78
2.359934240000000,0,0x00,0x00
2.360031520000000,0,0x00,0x01
2.360128960000000,0,0x00,0x90
2.360226400000000,0,0x00,0x00
2.360323840000000,0,0x00,0x00
2.360421280000000,0,0x00,0x58
2.360518720000000,0,0x00,0x08
2.360616000000000,0,0x00,0x00
2.360713440000000,0,0x00,0x00
2.360810880000000,0,0x00,0x00
2.360908320000000,0,0x00,0x00
2.361005760000000,0,0x00,0x10
2.361103040000000,0,0x00,0x00
2.361200480000000,0,0x00,0x00
2.361297920000000,0,0x00,0x08
2.361395360000000,0,0x00,0x00
2.361492800000000,0,0x00,0x00
2.361590240000000,0,0x00,0x00
2.361687520000000,0,0x00,0x00
2.361784960000000,0,0x00,0x00
2.361882400000000,0,0x00,0x00
2.361979840000000,0,0x00,0x00
2.362077280000000,0,0x00,0x00
2.362174560000000,0,0x00,0x00
2.362272000000000,0,0x00,0x00
2.362369440000000,0,0x00,0x00
2.362466880000000,0,0x00,0x00
2.362564320000000,0,0x00,0x00
2.362661760000000,0,0x00,0x00
2.362759040000000,0,0x00,0x00
2.362856480000000,0,0x00,0x00
2.362953920000000,0,0x00,0x00
2.363051360000000,0,0x00,0x00
2.363148800000000,0,0x00,0x01
2.363246080000000,0,0x00,0xF9
2.363343520000000,0,0x00,0xF8
2.363440960000000,0,0x00,0x4B
2.363538400000000,0,0x00,0xF2
2.363635840000000,0,0x00,0x2A
2.363733280000000,0,0x00,0x62
2.363830560000000,0,0x00,0x3B
2.363928000000000,0,0x00,0x38
2.364025440000000,0,0x00,0x03
2.364122880000000,0,0x00,0xF9
2.364220320000000,0,0x00,0x00
2.364317600000000,0,0x00,0x62
2.364415040000000,0,0x00,0xD1
2.364512480000000,0,0x00,0xF8
2.364609920000000,0,0x00,0x01
2.364707360000000,0,0x00,0xF8
2.364804800000000,0,0x00,0x00
2.364902080000000,0,0x00,0x08
2.364999520000000,0,0x00,0x00
2.365096960000000,0,0x00,0x00
2.365194400000000,0,0x00,0x00
2.365291840000000,0,0x00,0x01
2.365389120000000,0,0x00,0x00
2.365486560000000,0,0x00,0x60
2.365584000000000,0,0x00,0xD9
2.365681440000000,0,0x00,0xF8
2.365778880000000,0,0x00,0x01
2.365876320000000,0,0x00,0xF8
2.365973600000000,0,0x00,0x00
2.366071040000000,0,0x00,0x08
2.366168480000000,0,0x00,0x00
2.366265920000000,0,0x00,0x00
2.366363360000000,0,0x00,0x00
2.366460640000000,0,0x00,0x01
2.366558080000000,0,0x00,0x00
2.366655520000000,0,0x00,0x01
2.366752960000000,0,0x00,0xF9
2.366850400000000,0,0x00,0xF8
2.366947840000000,0,0x00,0x01
2.367045120000000,0,0x00,0xF8
2.367142560000000,0,0x00,0x00
2.367240000000000,0,0x00,0x08
2.367337440000000,0,0x00,0x00
2.367434880000000,0,0x00,0x00
2.367532160000000,0,0x00,0x00
2.367629600000000,0,0x00,0x01
2.367727040000000,0,0x00,0x00
2.367824480000000,0,0x00,0x18
2.367921920000000,0,0x00,0x02
2.368019360000000,0,0x00,0xD8
2.368116640000000,0,0x00,0x00
2.368214080000000,0,0x00,0x00
2.368311520000000,0,0x00,0x00
2.368408960000000,0,0x00,0x02
2.368506400000000,0,0x00,0x00
2.368603680000000,0,0x00,0x03
2.368701120000000,0,0x00,0xF8
2.368798560000000,0,0x00,0x08
2.368896000000000,0,0x00,0x08
2.368993440000000,0,0x00,0x08
2.369090880000000,0,0x00,0xE0
2.369188160000000,0,0x00,0x08
2.369285600000000,0,0x00,0x08
2.369383040000000,0,0x00,0x00
2.369480480000000,0,0x00,0x00
2.369577920000000,0,0x00,0x02
2.369675200000000,0,0x00,0xF0
2.369772640000000,0,0x00,0x00
2.369870080000000,0,0x00,0x09
2.369967520000000,0,0x00,0x20
2.370064960000000,0,0x00,0x01
2.370162400000000,0,0x00,0x79
2.370259680000000,0,0x00,0x00
2.370357120000000,0,0x00,0x00
2.370454560000000,0,0x00,0x00
2.370552000000000,0,0x00,0xA8
2.370649440000000,0,0x00,0x08
2.370746880000000,0,0x00,0x00
2.370844160000000,0,0x00,0x00
2.370941600000000,0,0x00,0x00
2.371039040000000,0,0x00,0x00
2.371136480000000,0,0x00,0x10
2.371233920000000,0,0x00,0x00
2.371331200000000,0,0x00,0x00
2.371428640000000,0,0x00,0x08
2.371526080000000,0,0x00,0x00
2.371623520000000,0,0x00,0x00
2.371720960000000,0,0x00,0x00
2.371818400000000,0,0x00,0x00
2.371915680000000,0,0x00,0x00
2.372013120000000,0,0x00,0x00
2.372110560000000,0,0x00,0x00
2.372208000000000,0,0x00,0x00
2.372305440000000,0,0x00,0x00
2.372402720000000,0,0x00,0x00
2.372500160000000,0,0x00,0x00
2.372597600000000,0,0x00,0x00
2.372695040000000,0,0x00,0x00
2.372792480000000,0,0x00,0x00
2.372889920000000,0,0x00,0x00
2.372987200000000,0,0x00,0x00
2.373084640000000,0,0x00,0x00
2.373182080000000,0,0x00,0x00
2.373279520000000,0,0x00,0x61
2.373376960000000,0,0x00,0xF9
2.373474240000000,0,0x00,0xFB
2.373571680000000,0,0x00,0xF9
2.373669120000000,0,0x00,0xFB
2.373766560000000,0,0x00,0x58
2.373864000000000,0,0x00,0x08
2.373961440000000,0,0x00,0x68
2.374058720000000,0,0x00,0x01
2.374156160000000,0,0x00,0xE0
2.374253600000000,0,0x00,0x01
2.374351040000000,0,0x00,0x00
2.374448480000000,0,0x00,0x61
2.374545760000000,0,0x00,0xE3
2.374643200000000,0,0x00,0xF0
2.374740640000000,0,0x00,0x01
2.374838080000000,0,0x00,0xF8
2.374935520000000,0,0x00,0x58
2.375032960000000,0,0x00,0x08
2.375130240000000,0,0x00,0x00
2.375227680000000,0,0x00,0x00
2.375325120000000,0,0x00,0xD8
2.375422560000000,0,0x00,0x01
2.375520000000000,0,0x00,0x98
2.375617280000000,0,0x00,0x61
2.375714720000000,0,0x00,0x61
2.375812160000000,0,0x00,0xF8
2.375909600000000,0,0x00,0x01
2.376007040000000,0,0x00,0xF8
2.376104480000000,0,0x00,0x00
2.376201760000000,0,0x00,0x08
2.376299200000000,0,0x00,0x02
2.376396640000000,0,0x00,0x00
2.376494080000000,0,0x00,0x00
2.376591520000000,0,0x00,0x08
2.376688800000000,0,0x00,0x00
2.376786240000000,0,0x00,0x00
2.376883680000000,0,0x00,0xC1
2.376981120000000,0,0x00,0xF8
2.377078560000000,0,0x00,0x01
2.377176000000000,0,0x00,0xF8
2.377273280000000,0,0x00,0x00
2.377370720000000,0,0x00,0x08
2.377468160000000,0,0x00,0x00
2.377565600000000,0,0x00,0x03
2.377663040000000,0,0x00,0xFA
2.377760320000000,0,0x00,0x00
2.377857760000000,0,0x00,0x00
2.377955200000000,0,0x00,0x00
2.378052640000000,0,0x00,0x00
2.378150080000000,0,0x00,0x00
2.378247520000000,0,0x00,0x00
2.378344800000000,0,0x00,0x00
2.378442240000000,0,0x00,0x00
2.378539680000000,0,0x00,0x78
2.378637120000000,0,0x00,0xA0
2.378734560000000,0,0x00,0x02
2.378831840000000,0,0x00,0x78
2.378929280000000,0,0x00,0x08
2.379026720000000,0,0x00,0x08
2.379124160000000,0,0x00,0x09
2.379221600000000,0,0x00,0x01
2.379319040000000,0,0x00,0x92
2.379416320000000,0,0x00,0x51
2.379513760000000,0,0x00,0x68
2.379611200000000,0,0x00,0x00
2.379708640000000,0,0x00,0xDB
2.379806080000000,0,0x00,0xF8
2.379903360000000,0,0x00,0x28
2.380000800000000,0,0x00,0x01
2.380098240000000,0,0x00,0x50
2.380195680000000,0,0x00,0x48
2.380293120000000,0,0x00,0x3A
2.380390560000000,0,0x00,0xC8
2.380487840000000,0,0x00,0x08
2.380585280000000,0,0x00,0x18
2.380682720000000,0,0x00,0xB0
2.380780160000000,0,0x00,0x00
2.380877600000000,0,0x00,0x00
2.380974880000000,0,0x00,0x00
2.381072320000000,0,0x00,0x00
2.381169760000000,0,0x00,0x00
2.381267200000000,0,0x00,0x10
2.381364640000000,0,0x00,0x00
2.381462080000000,0,0x00,0x00
2.381559360000000,0,0x00,0xF1
2.381656800000000,0,0x00,0xE0
2.381754240000000,0,0x00,0xF8
2.381851680000000,0,0x00,0x10
2.381949120000000,0,0x00,0x18
2.382046560000000,0,0x00,0x08
2.382143840000000,0,0x00,0x09
2.382241280000000,0,0x00,0x53
2.382338720000000,0,0x00,0xF8
2.382436160000000,0,0x00,0xCA
2.382533600000000,0,0x00,0x08
2.382630880000000,0,0x00,0xE8
2.382728320000000,0,0x00,0xC2
2.382825760000000,0,0x00,0x18
2.382923200000000,0,0x00,0xC0
2.383020640000000,0,0x00,0xC9
2.383118080000000,0,0x00,0x53
2.383215360000000,0,0x00,0xF8
2.383312800000000,0,0x00,0x38
2.383410240000000,0,0x00,0x61
2.383507680000000,0,0x00,0xF9
2.383605120000000,0,0x00,0xF8
2.383702400000000,0,0x00,0x01
2.383799840000000,0,0x00,0xF8
2.383897280000000,0,0x00,0x00
2.383994720000000,0,0x00,0x98
2.384092160000000,0,0x00,0x00
2.384189600000000,0,0x00,0x01
2.384286880000000,0,0x00,0x18
2.384384320000000,0,0x00,0x01
2.384481760000000,0,0x00,0x30
2.384579200000000,0,0x00,0xC2
2.384676640000000,0,0x00,0x61
2.384773920000000,0,0x00,0xF8
2.384871360000000,0,0x00,0x01
2.384968800000000,0,0x00,0xF8
2.385066240000000,0,0x00,0xC9
2.385163680000000,0,0x00,0x31
2.385261120000000,0,0x00,0x70
2.385358400000000,0,0x00,0x00
2.385455840000000,0,0x00,0x01
2.385553280000000,0,0x00,0xC0
2.385650720000000,0,0x00,0x00
2.385748160000000,0,0x00,0x01
2.385845440000000,0,0x00,0xF9
2.385942880000000,0,0x00,0xF8
2.386040320000000,0,0x00,0x01
2.386137760000000,0,0x00,0xF8
2.386235200000000,0,0x00,0xE0
2.386332640000000,0,0x00,0xA0
2.386429920000000,0,0x00,0xC0
2.386527360000000,0,0x00,0x01
2.386624800000000,0,0x00,0x00
2.386722240000000,0,0x00,0x00
2.386819680000000,0,0x00,0xA0
2.386916960000000,0,0x00,0x61
2.387014400000000,0,0x00,0xF9
2.387111840000000,0,0x00,0xF8
2.387209280000000,0,0x00,0x01
2.387306720000000,0,0x00,0xF8
2.387404160000000,0,0x00,0xD0
2.387501440000000,0,0x00,0xC9
2.387598880000000,0,0x00,0xA8
2.387696320000000,0,0x00,0x00
2.387793760000000,0,0x00,0x01
2.387891200000000,0,0x00,0x90
2.387988480000000,0,0x00,0x00
2.388085920000000,0,0x00,0x08
2.388183360000000,0,0x00,0x00
2.388280800000000,0,0x00,0x00
2.388378240000000,0,0x00,0x00
2.388475680000000,0,0x00,0x00
2.388572960000000,0,0x00,0x00
2.388670400000000,0,0x00,0x00
2.388767840000000,0,0x00,0x00
2.388865280000000,0,0x00,0x03
2.388962720000000,0,0x00,0xF8
2.389060000000000,0,0x00,0x50
2.389157440000000,0,0x00,0x08
2.389254880000000,0,0x00,0xB9
2.389352320000000,0,0x00,0x08
2.389449760000000,0,0x00,0x08
2.389547200000000,0,0x00,0x08
2.389644480000000,0,0x00,0x00
2.389741920000000,0,0x00,0x00
2.389839360000000,0,0x00,0x03
2.389936800000000,0,0x00,0xF8
2.390034240000000,0,0x00,0x00
2.390131520000000,0,0x00,0x01
2.390228960000000,0,0x00,0xD0
2.390326400000000,0,0x00,0x00
2.390423840000000,0,0x00,0x00
2.390521280000000,0,0x00,0x00
2.390618720000000,0,0x00,0x08
2.390716000000000,0,0x00,0x00
2.390813440000000,0,0x00,0x80
2.390910880000000,0,0x00,0x08
2.391008320000000,0,0x00,0x00
2.391105760000000,0,0x00,0x00
2.391203040000000,0,0x00,0x00
2.391300480000000,0,0x00,0x00
2.391397920000000,0,0x00,0x10
2.391495360000000,0,0x00,0x00
2.391592800000000,0,0x00,0x01
2.391690240000000,0,0x00,0x89
2.391787520000000,0,0x00,0xE8
2.391884960000000,0,0x00,0x00
2.391982400000000,0,0x00,0x00
2.392079840000000,0,0x00,0x10
2.392177280000000,0,0x00,0x00
2.392274560000000,0,0x00,0x08
2.392372000000000,0,0x00,0x90
2.392469440000000,0,0x00,0x60
2.392566880000000,0,0x00,0x00
2.392664320000000,0,0x00,0x00
2.392761760000000,0,0x00,0x00
2.392859040000000,0,0x00,0x00
2.392956480000000,0,0x00,0x00
2.393053920000000,0,0x00,0x00
2.393151360000000,0,0x00,0x00
2.393248800000000,0,0x00,0x00
2.393346240000000,0,0x00,0x00
2.393443520000000,0,0x00,0x00
2.393540960000000,0,0x00,0x61
2.393638400000000,0,0x00,0xF9
2.393735840000000,0,0x00,0xF8
2.393833280000000,0,0x00,0x03
2.393930560000000,0,0x00,0xF1
2.394028000000000,0,0x00,0x20
2.394125440000000,0,0x00,0xE0
2.394222880000000,0,0x00,0x58
2.394320320000000,0,0x00,0x00
2.394417760000000,0,0x00,0x00
2.394515040000000,0,0x00,0x02
2.394612480000000,0,0x00,0xB0
2.394709920000000,0,0x00,0xC1
2.394807360000000,0,0x00,0xE9
2.394904800000000,0,0x00,0xF0
2.395002080000000,0,0x00,0x02
2.395099520000000,0,0x00,0x00
2.395196960000000,0,0x00,0x01
2.395294400000000,0,0x00,0x48
2.395391840000000,0,0x00,0x18
2.395489280000000,0,0x00,0xA0
2.395586560000000,0,0x00,0x02
2.395684000000000,0,0x00,0xF2
2.395781440000000,0,0x00,0x60
2.395878880000000,0,0x00,0xC1
2.395976320000000,0,0x00,0xF9
2.396073600000000,0,0x00,0xF9
2.396171040000000,0,0x00,0xF2
2.396268480000000,0,0x00,0x00
2.396365920000000,0,0x00,0x00
2.396463360000000,0,0x00,0x08
2.396560800000000,0,0x00,0x00
2.396658080000000,0,0x00,0x00
2.396755520000000,0,0x00,0x93
2.396852960000000,0,0x00,0xFA
2.396950400000000,0,0x00,0x78
2.397047840000000,0,0x00,0x00
2.397145120000000,0,0x00,0xB9
2.397242560000000,0,0x00,0xA0
2.397340000000000,0,0x00,0x02
2.397437440000000,0,0x00,0x38
2.397534880000000,0,0x00,0x00
2.397632320000000,0,0x00,0x08
2.397729600000000,0,0x00,0x02
2.397827040000000,0,0x00,0xA0
2.397924480000000,0,0x00,0xBA
2.398021920000000,0,0x00,0x02
2.398119360000000,0,0x00,0x48
2.398216640000000,0,0x00,0x10
2.398314080000000,0,0x00,0x00
2.398411520000000,0,0x00,0xE9
2.398508960000000,0,0x00,0x98
2.398606400000000,0,0x00,0x00
2.398703840000000,0,0x00,0x00
2.398801120000000,0,0x00,0x50
2.398898560000000,0,0x00,0xD8
2.398996000000000,0,0x00,0x00
2.399093440000000,0,0x00,0x78
2.399190880000000,0,0x00,0x08
2.399288160000000,0,0x00,0x08
2.399385600000000,0,0x00,0x08
2.399483040000000,0,0x00,0xF8
2.399580480000000,0,0x00,0x08
2.399677920000000,0,0x00,0x08
2.399775360000000,0,0x00,0x00
2.399872640000000,0,0x00,0x00
2.399970080000000,0,0x00,0x42
2.400067520000000,0,0x00,0x68
2.400164960000000,0,0x00,0x00
2.400262400000000,0,0x00,0x01
2.400359680000000,0,0x00,0x20
2.400457120000000,0,0x00,0x00
2.400554560000000,0,0x00,0x5A
2.400652000000000,0,0x00,0xC8
2.400749440000000,0,0x00,0x00
2.400846880000000,0,0x00,0x00
2.400944160000000,0,0x00,0x48
2.401041600000000,0,0x00,0x08
2.401139040000000,0,0x00,0x00
2.401236480000000,0,0x00,0x00
2.401333920000000,0,0x00,0x00
2.401431200000000,0,0x00,0x00
2.401528640000000,0,0x00,0x10
2.401626080000000,0,0x00,0x00
2.401723520000000,0,0x00,0x00
2.401820960000000,0,0x00,0x08
2.401918400000000,0,0x00,0x38
2.402015680000000,0,0x00,0x98
2.402113120000000,0,0x00,0x08
2.402210560000000,0,0x00,0x18
2.402308000000000,0,0x00,0x00
2.402405440000000,0,0x00,0x0A
2.402502720000000,0,0x00,0x2B
2.402600160000000,0,0x00,0x69
2.402697600000000,0,0x00,0x43
2.402795040000000,0,0x00,0x60
2.402892480000000,0,0x00,0x50
2.402989920000000,0,0x00,0xB1
2.403087200000000,0,0x00,0x30
2.403184640000000,0,0x00,0x50
2.403282080000000,0,0x00,0xDA
2.403379520000000,0,0x00,0xAB
2.403476960000000,0,0x00,0xF8
2.403574240000000,0,0x00,0x50
2.403671680000000,0,0x00,0x61
2.403769120000000,0,0x00,0xF9
2.403866560000000,0,0x00,0xFB
2.403964000000000,0,0x00,0xF9
2.404061440000000,0,0x00,0xF8
2.404158720000000,0,0x00,0xA1
2.404256160000000,0,0x00,0xE0
2.404353600000000,0,0x00,0xB8
2.404451040000000,0,0x00,0x01
2.404548480000000,0,0x00,0x72
2.404645920000000,0,0x00,0x98
2.404743200000000,0,0x00,0xA0
2.404840640000000,0,0x00,0x61
2.404938080000000,0,0x00,0x29
2.405035520000000,0,0x00,0xF8
2.405132960000000,0,0x00,0x01
2.405230240000000,0,0x00,0xF8
2.405327680000000,0,0x00,0x00
2.405425120000000,0,0x00,0x08
2.405522560000000,0,0x00,0x00
2.405620000000000,0,0x00,0x01
2.405717440000000,0,0x00,0x4A
2.405814720000000,0,0x00,0x48
2.405912160000000,0,0x00,0x68
2.406009600000000,0,0x00,0x63
2.406107040000000,0,0x00,0x09
2.406204480000000,0,0x00,0xF8
2.406301760000000,0,0x00,0x01
2.406399200000000,0,0x00,0xF8
2.406496640000000,0,0x00,0x00
2.406594080000000,0,0x00,0x08
2.406691520000000,0,0x00,0x00
2.406788960000000,0,0x00,0x01
2.406886240000000,0,0x00,0x19
2.406983680000000,0,0x00,0xD0
2.407081120000000,0,0x00,0x88
2.407178560000000,0,0x00,0x00
2.407276000000000,0,0x00,0xC1
2.407373280000000,0,0x00,0xF8
2.407470720000000,0,0x00,0x01
2.407568160000000,0,0x00,0xF8
2.407665600000000,0,0x00,0x00
2.407763040000000,0,0x00,0x08
2.407860480000000,0,0x00,0x03
2.407957760000000,0,0x00,0x0B
2.408055200000000,0,0x00,0xFA
2.408152640000000,0,0x00,0x00
2.408250080000000,0,0x00,0x00
2.408347520000000,0,0x00,0x18
2.408444800000000,0,0x00,0x00
2.408542240000000,0,0x00,0x00
2.408639680000000,0,0x00,0x00
2.408737120000000,0,0x00,0x00
2.408834560000000,0,0x00,0x00
2.408932000000000,0,0x00,0x00
2.409029280000000,0,0x00,0x00
2.409126720000000,0,0x00,0x03
2.409224160000000,0,0x00,0xF8
2.409321600000000,0,0x00,0xA0
2.409419040000000,0,0x00,0x08
2.409516320000000,0,0x00,0x08
2.409613760000000,0,0x00,0x10
2.409711200000000,0,0x00,0x08
2.409808640000000,0,0x00,0x08
2.409906080000000,0,0x00,0x00
2.410003520000000,0,0x00,0x08
2.410100800000000,0,0x00,0x03
2.410198240000000,0,0x00,0xF9
2.410295680000000,0,0x00,0x58
2.410393120000000,0,0x00,0x02
2.410490560000000,0,0x00,0x48
2.410587840000000,0,0x00,0x00
2.410685280000000,0,0x00,0x00
2.410782720000000,0,0x00,0x28
2.410880160000000,0,0x00,0x00
2.410977600000000,0,0x00,0x00
2.411075040000000,0,0x00,0xB0
2.411172320000000,0,0x00,0x08
2.411269760000000,0,0x00,0x00
2.411367200000000,0,0x00,0x00
2.411464640000000,0,0x00,0x00
2.411562080000000,0,0x00,0x00
2.411659360000000,0,0x00,0x10
2.411756800000000,0,0x00,0x00
2.411854240000000,0,0x00,0x00
2.411951680000000,0,0x00,0xF0
2.412049120000000,0,0x00,0x03
2.412146560000000,0,0x00,0x60
2.412243840000000,0,0x00,0x00
2.412341280000000,0,0x00,0x10
2.412438720000000,0,0x00,0x00
2.412536160000000,0,0x00,0x08
2.412633600000000,0,0x00,0x90
2.412730880000000,0,0x00,0x60
2.412828320000000,0,0x00,0x00
2.412925760000000,0,0x00,0x00
2.413023200000000,0,0x00,0x00
2.413120640000000,0,0x00,0x00
2.413218080000000,0,0x00,0x00
2.413315360000000,0,0x00,0x00
2.413412800000000,0,0x00,0x00
2.413510240000000,0,0x00,0x00
2.413607680000000,0,0x00,0x00
2.413705120000000,0,0x00,0x00
2.413802400000000,0,0x00,0x61
2.413899840000000,0,0x00,0xF9
2.413997280000000,0,0x00,0xF8
2.414094720000000,0,0x00,0x01
2.414192160000000,0,0x00,0xF8
2.414289600000000,0,0x00,0xA0
2.414386880000000,0,0x00,0x98
2.414484320000000,0,0x00,0xB8
2.414581760000000,0,0x00,0x99
2.414679200000000,0,0x00,0x00
2.414776640000000,0,0x00,0x02
2.414873920000000,0,0x00,0x08
2.414971360000000,0,0x00,0xFB
2.415068800000000,0,0x00,0x21
2.415166240000000,0,0x00,0xF8
2.415263680000000,0,0x00,0x01
2.415361120000000,0,0x00,0xF8
2.415458400000000,0,0x00,0xC9
2.415555840000000,0,0x00,0x31
2.415653280000000,0,0x00,0x70
2.415750720000000,0,0x00,0xD9
2.415848160000000,0,0x00,0x00
2.415945600000000,0,0x00,0x00
2.416042880000000,0,0x00,0xC0
2.416140320000000,0,0x00,0xC2
2.416237760000000,0,0x00,0x71
2.416335200000000,0,0x00,0xF8
2.416432640000000,0,0x00,0x01
2.416529920000000,0,0x00,0xF8
2.416627360000000,0,0x00,0xD0
2.416724800000000,0,0x00,0xC9
2.416822240000000,0,0x00,0xA8
2.416919680000000,0,0x00,0xB9
2.417017120000000,0,0x00,0x08
2.417114400000000,0,0x00,0x01
2.417211840000000,0,0x00,0x68
2.417309280000000,0,0x00,0x01
2.417406720000000,0,0x00,0xF9
2.417504160000000,0,0x00,0xF8
2.417601440000000,0,0x00,0x01
2.417698880000000,0,0x00,0xF8
2.417796320000000,0,0x00,0x00
2.417893760000000,0,0x00,0x08
2.417991200000000,0,0x00,0x00
2.418088640000000,0,0x00,0xE1
2.418185920000000,0,0x00,0x20
2.418283360000000,0,0x00,0x19
2.418380800000000,0,0x00,0xB8
2.418478240000000,0,0x00,0x08
2.418575680000000,0,0x00,0x00
2.418672960000000,0,0x00,0x00
2.418770400000000,0,0x00,0x00
2.418867840000000,0,0x00,0x00
2.418965280000000,0,0x00,0x00
2.419062720000000,0,0x00,0x00
2.419160160000000,0,0x00,0x00
2.419257440000000,0,0x00,0x02
2.419354880000000,0,0x00,0x88
2.419452320000000,0,0x00,0x0A
2.419549760000000,0,0x00,0xC8
2.419647200000000,0,0x00,0x09
2.419744480000000,0,0x00,0x00
2.419841920000000,0,0x00,0x08
2.419939360000000,0,0x00,0x08
2.420036800000000,0,0x00,0x00
2.420134240000000,0,0x00,0x00
2.420231680000000,0,0x00,0x02
2.420328960000000,0,0x00,0x28
2.420426400000000,0,0x00,0x00
2.420523840000000,0,0x00,0x01
2.420621280000000,0,0x00,0xD0
2.420718720000000,0,0x00,0x48
2.420816000000000,0,0x00,0x02
2.420913440000000,0,0x00,0x20
2.421010880000000,0,0x00,0x00
2.421108320000000,0,0x00,0x00
2.421205760000000,0,0x00,0x38
2.421303200000000,0,0x00,0x0B
2.421400480000000,0,0x00,0xA8
2.421497920000000,0,0x00,0x00
2.421595360000000,0,0x00,0x00
2.421692800000000,0,0x00,0x00
2.421790240000000,0,0x00,0x10
2.421887520000000,0,0x00,0x00
2.421984960000000,0,0x00,0x01
2.422082400000000,0,0x00,0x89
2.422179840000000,0,0x00,0xE8
2.422277280000000,0,0x00,0x00
2.422374720000000,0,0x00,0x00
2.422472000000000,0,0x00,0x08
2.422569440000000,0,0x00,0x01
2.422666880000000,0,0x00,0x0A
2.422764320000000,0,0x00,0x11
2.422861760000000,0,0x00,0xE2
2.422959040000000,0,0x00,0x5B
2.423056480000000,0,0x00,0x10
2.423153920000000,0,0x00,0x02
2.423251360000000,0,0x00,0x02
2.423348800000000,0,0x00,0x03
2.423446240000000,0,0x00,0x8B
2.423543520000000,0,0x00,0x38
2.423640960000000,0,0x00,0xA8
2.423738400000000,0,0x00,0x01
2.423835840000000,0,0x00,0x81
2.423933280000000,0,0x00,0x23
2.424030560000000,0,0x00,0xF3
2.424128000000000,0,0x00,0x0B
2.424225440000000,0,0x00,0xF8
2.424322880000000,0,0x00,0x03
2.424420320000000,0,0x00,0x48
2.424517760000000,0,0x00,0x98
2.424615040000000,0,0x00,0x20
2.424712480000000,0,0x00,0x00
2.424809920000000,0,0x00,0xC8
2.424907360000000,0,0x00,0x00
2.425004800000000,0,0x00,0x00
2.425102080000000,0,0x00,0x61
2.425199520000000,0,0x00,0xF9
2.425296960000000,0,0x00,0xFA
2.425394400000000,0,0x00,0xDB
2.425491840000000,0,0x00,0xF3
2.425589280000000,0,0x00,0xF8
2.425686560000000,0,0x00,0x50
2.425784000000000,0,0x00,0x03
2.425881440000000,0,0x00,0xF8
2.425978880000000,0,0x00,0x03
2.426076320000000,0,0x00,0xFA
2.426173600000000,0,0x00,0xA8
2.426271040000000,0,0x00,0x99
2.426368480000000,0,0x00,0xF9
2.426465920000000,0,0x00,0xE2
2.426563360000000,0,0x00,0xDB
2.426660800000000,0,0x00,0xF3
2.426758080000000,0,0x00,0xF8
2.426855520000000,0,0x00,0x50
2.426952960000000,0,0x00,0x03
2.427050400000000,0,0x00,0xF8
2.427147840000000,0,0x00,0x03
2.427245280000000,0,0x00,0xF9
2.427342560000000,0,0x00,0x30
2.427440000000000,0,0x00,0xC0
2.427537440000000,0,0x00,0xA2
2.427634880000000,0,0x00,0xF8
2.427732320000000,0,0x00,0x01
2.427829600000000,0,0x00,0xFA
2.427927040000000,0,0x00,0xA8
2.428024480000000,0,0x00,0x40
2.428121920000000,0,0x00,0x80
2.428219360000000,0,0x00,0x02
2.428316800000000,0,0x00,0xC8
2.428414080000000,0,0x00,0x00
2.428511520000000,0,0x00,0x00
2.428608960000000,0,0x00,0x08
2.428706400000000,0,0x00,0x00
2.428803840000000,0,0x00,0xD8
2.428901120000000,0,0x00,0x00
2.428998560000000,0,0x00,0x00
2.429096000000000,0,0x00,0x00
2.429193440000000,0,0x00,0x81
2.429290880000000,0,0x00,0x40
2.429388320000000,0,0x00,0x02
2.429485600000000,0,0x00,0x28
2.429583040000000,0,0x00,0x0B
2.429680480000000,0,0x00,0x00
2.429777920000000,0,0x00,0xA1
2.429875360000000,0,0x00,0x20
2.429972640000000,0,0x00,0x81
2.430070080000000,0,0x00,0x22
2.430167520000000,0,0x00,0x28
2.430264960000000,0,0x00,0x00
2.430362400000000,0,0x00,0xEA
2.430459840000000,0,0x00,0x90
2.430557120000000,0,0x00,0x48
2.430654560000000,0,0x00,0x01
2.430752000000000,0,0x00,0xC8
2.430849440000000,0,0x00,0x90
2.430946880000000,0,0x00,0xE8
2.431044160000000,0,0x00,0xD8
2.431141600000000,0,0x00,0x00
2.431239040000000,0,0x00,0x0B
2.431336480000000,0,0x00,0x50
2.431433920000000,0,0x00,0x00
2.431531360000000,0,0x00,0x00
2.431628640000000,0,0x00,0x00
2.431726080000000,0,0x00,0x00
2.431823520000000,0,0x00,0x10
2.431920960000000,0,0x00,0x10
2.432018400000000,0,0x00,0x00
2.432115680000000,0,0x00,0x11
2.432213120000000,0,0x00,0x78
2.432310560000000,0,0x00,0xF8
2.432408000000000,0,0x00,0x00
2.432505440000000,0,0x00,0x00
2.432602880000000,0,0x00,0x18
2.432700160000000,0,0x00,0x00
2.432797600000000,0,0x00,0x0A
2.432895040000000,0,0x00,0x50
2.432992480000000,0,0x00,0xD9
2.433089920000000,0,0x00,0x40
2.433187200000000,0,0x00,0xF9
2.433284640000000,0,0x00,0x50
2.433382080000000,0,0x00,0xB2
2.433479520000000,0,0x00,0x08
2.433576960000000,0,0x00,0xF8
2.433674400000000,0,0x00,0xC8
2.433771680000000,0,0x00,0x02
2.433869120000000,0,0x00,0xB8
2.433966560000000,0,0x00,0xB8
2.434064000000000,0,0x00,0xC2
2.434161440000000,0,0x00,0x02
2.434258720000000,0,0x00,0x00
2.434356160000000,0,0x00,0x03
2.434453600000000,0,0x00,0xF0
2.434551040000000,0,0x00,0x38
2.434648480000000,0,0x00,0x60
2.434745920000000,0,0x00,0x58
2.434843200000000,0,0x00,0x01
2.434940640000000,0,0x00,0x88
2.435038080000000,0,0x00,0x00
2.435135520000000,0,0x00,0xE8
2.435232960000000,0,0x00,0x99
2.435330240000000,0,0x00,0xF1
2.435427680000000,0,0x00,0xF8
2.435525120000000,0,0x00,0x02
2.435622560000000,0,0x00,0x02
2.435720000000000,0,0x00,0x01
2.435817440000000,0,0x00,0x48
2.435914720000000,0,0x00,0x68
2.436012160000000,0,0x00,0x01
2.436109600000000,0,0x00,0x78
2.436207040000000,0,0x00,0x01
2.436304480000000,0,0x00,0xD1
2.436401760000000,0,0x00,0x21
2.436499200000000,0,0x00,0xBA
2.436596640000000,0,0x00,0x59
2.436694080000000,0,0x00,0xF2
2.436791520000000,0,0x00,0x01
2.436888960000000,0,0x00,0x20
2.436986240000000,0,0x00,0xE0
2.437083680000000,0,0x00,0x48
2.437181120000000,0,0x00,0x01
2.437278560000000,0,0x00,0x20
2.437376000000000,0,0x00,0x01
2.437473280000000,0,0x00,0xF0
2.437570720000000,0,0x00,0x61
2.437668160000000,0,0x00,0xE2
2.437765600000000,0,0x00,0x38
2.437863040000000,0,0x00,0x01
2.437960480000000,0,0x00,0xF8
2.438057760000000,0,0x00,0x81
2.438155200000000,0,0x00,0xF8
2.438252640000000,0,0x00,0xB0
2.438350080000000,0,0x00,0x01
2.438447520000000,0,0x00,0x88
2.438544960000000,0,0x00,0x01
2.438642240000000,0,0x00,0xA8
2.438739680000000,0,0x00,0x08
2.438837120000000,0,0x00,0x01
2.438934560000000,0,0x00,0x23
2.439032000000000,0,0x00,0xFB
2.439129280000000,0,0x00,0xFB
2.439226720000000,0,0x00,0xF8
2.439324160000000,0,0x00,0xFB
2.439421600000000,0,0x00,0x58
2.439519040000000,0,0x00,0x01
2.439616480000000,0,0x00,0xA0
2.439713760000000,0,0x00,0xE0
2.439811200000000,0,0x00,0xB8
2.439908640000000,0,0x00,0xA8
2.440006080000000,0,0x00,0xB8
2.440103520000000,0,0x00,0x08
2.440200800000000,0,0x00,0x08
2.440298240000000,0,0x00,0x00
2.440395680000000,0,0x00,0x01
2.440493120000000,0,0x00,0xC3
2.440590560000000,0,0x00,0x10
2.440688000000000,0,0x00,0x00
2.440785280000000,0,0x00,0x02
2.440882720000000,0,0x00,0x48
2.440980160000000,0,0x00,0xA3
2.441077600000000,0,0x00,0x68
2.441175040000000,0,0x00,0x00
2.441272320000000,0,0x00,0x00
2.441369760000000,0,0x00,0x00
2.441467200000000,0,0x00,0x78
2.441564640000000,0,0x00,0x00
2.441662080000000,0,0x00,0x00
2.441759520000000,0,0x00,0x00
2.441856800000000,0,0x00,0x00
2.441954240000000,0,0x00,0x00
2.442051680000000,0,0x00,0x10
2.442149120000000,0,0x00,0x00
2.442246560000000,0,0x00,0x00
2.442343840000000,0,0x00,0xAB
2.442441280000000,0,0x00,0x10
2.442538720000000,0,0x00,0x20
2.442636160000000,0,0x00,0x08
2.442733600000000,0,0x00,0x00
2.442831040000000,0,0x00,0x00
2.442928320000000,0,0x00,0x00
2.443025760000000,0,0x00,0x00
2.443123200000000,0,0x00,0x00
2.443220640000000,0,0x00,0x00
2.443318080000000,0,0x00,0x00
2.443415360000000,0,0x00,0x00
2.443512800000000,0,0x00,0x00
2.443610240000000,0,0x00,0x00
2.443707680000000,0,0x00,0x00
2.443805120000000,0,0x00,0x00
2.443902560000000,0,0x00,0x00
2.443999840000000,0,0x00,0x00
2.444097280000000,0,0x00,0x00
2.444194720000000,0,0x00,0x61
2.444292160000000,0,0x00,0xF9
2.444389600000000,0,0x00,0xFB
2.444486880000000,0,0x00,0xF9
2.444584320000000,0,0x00,0xF8
2.444681760000000,0,0x00,0xA1
2.444779200000000,0,0x00,0xE0
2.444876640000000,0,0x00,0xB8
2.444974080000000,0,0x00,0x01
2.445071360000000,0,0x00,0x68
2.445168800000000,0,0x00,0x02
2.445266240000000,0,0x00,0x08
2.445363680000000,0,0x00,0xC3
2.445461120000000,0,0x00,0x21
2.445558400000000,0,0x00,0xF8
2.445655840000000,0,0x00,0x01
2.445753280000000,0,0x00,0xF8
2.445850720000000,0,0x00,0xC9
2.445948160000000,0,0x00,0x31
2.446045600000000,0,0x00,0x70
2.446142880000000,0,0x00,0x01
2.446240320000000,0,0x00,0x18
2.446337760000000,0,0x00,0x00
2.446435200000000,0,0x00,0xE0
2.446532640000000,0,0x00,0xC0
2.446629920000000,0,0x00,0xE9
2.446727360000000,0,0x00,0xF8
2.446824800000000,0,0x00,0x01
2.446922240000000,0,0x00,0xF8
2.447019680000000,0,0x00,0xD0
2.447117120000000,0,0x00,0xC9
2.447214400000000,0,0x00,0xA8
2.447311840000000,0,0x00,0x01
2.447409280000000,0,0x00,0x5A
2.447506720000000,0,0x00,0x19
2.447604160000000,0,0x00,0x40
2.447701440000000,0,0x00,0x01
2.447798880000000,0,0x00,0xF9
2.447896320000000,0,0x00,0xF8
2.447993760000000,0,0x00,0x01
2.448091200000000,0,0x00,0xF8
2.448188640000000,0,0x00,0x00
2.448285920000000,0,0x00,0x08
2.448383360000000,0,0x00,0x00
2.448480800000000,0,0x00,0x01
2.448578240000000,0,0x00,0x10
2.448675680000000,0,0x00,0x1A
2.448772960000000,0,0x00,0xD0
2.448870400000000,0,0x00,0x08
2.448967840000000,0,0x00,0x00
2.449065280000000,0,0x00,0x00
2.449162720000000,0,0x00,0x00
2.449260160000000,0,0x00,0x00
2.449357440000000,0,0x00,0x00
2.449454880000000,0,0x00,0x00
2.449552320000000,0,0x00,0x00
2.449649760000000,0,0x00,0x02
2.449747200000000,0,0x00,0x30
2.449844640000000,0,0x00,0x0A
2.449941920000000,0,0x00,0xC8
2.450039360000000,0,0x00,0x08
2.450136800000000,0,0x00,0x08
2.450234240000000,0,0x00,0x08
2.450331680000000,0,0x00,0x08
2.450428960000000,0,0x00,0x00
2.450526400000000,0,0x00,0x00
2.450623840000000,0,0x00,0x02
2.450721280000000,0,0x00,0x28
2.450818720000000,0,0x00,0x00
2.450916160000000,0,0x00,0x02
2.451013440000000,0,0x00,0xD8
2.451110880000000,0,0x00,0xC0
2.451208320000000,0,0x00,0x00
2.451305760000000,0,0x00,0x00
2.451403200000000,0,0x00,0x00
2.451500480000000,0,0x00,0x00
2.451597920000000,0,0x00,0x38
2.451695360000000,0,0x00,0x0B
2.451792800000000,0,0x00,0xA8
2.451890240000000,0,0x00,0x00
2.451987680000000,0,0x00,0x00
2.452084960000000,0,0x00,0x00
2.452182400000000,0,0x00,0x10
2.452279840000000,0,0x00,0x00
2.452377280000000,0,0x00,0x00
2.452474720000000,0,0x00,0xF9
2.452572000000000,0,0x00,0xEA
2.452669440000000,0,0x00,0xD1
2.452766880000000,0,0x00,0x18
2.452864320000000,0,0x00,0x00
2.452961760000000,0,0x00,0x00
2.453059200000000,0,0x00,0x00
2.453156480000000,0,0x00,0x00
2.453253920000000,0,0x00,0x00
2.453351360000000,0,0x00,0x00
2.453448800000000,0,0x00,0x00
2.453546240000000,0,0x00,0x00
2.453643520000000,0,0x00,0x00
2.453740960000000,0,0x00,0x00
2.453838400000000,0,0x00,0x00
2.453935840000000,0,0x00,0x00
2.454033280000000,0,0x00,0x00
2.454130720000000,0,0x00,0x00
2.454228000000000,0,0x00,0x00
2.454325440000000,0,0x00,0x61
2.454422880000000,0,0x00,0xF9
2.454520320000000,0,0x00,0xF8
2.454617760000000,0,0x00,0x01
2.454715040000000,0,0x00,0xF8
2.454812480000000,0,0x00,0xA0
2.454909920000000,0,0x00,0x98
2.455007360000000,0,0x00,0xB8
2.455104800000000,0,0x00,0x98
2.455202240000000,0,0x00,0xD1
2.455299520000000,0,0x00,0xF2
2.455396960000000,0,0x00,0x08
2.455494400000000,0,0x00,0x62
2.455591840000000,0,0x00,0x61
2.455689280000000,0,0x00,0xF8
2.455786560000000,0,0x00,0x01
2.455884000000000,0,0x00,0xF8
2.455981440000000,0,0x00,0xC9
2.456078880000000,0,0x00,0x31
2.456176320000000,0,0x00,0x70
2.456273760000000,0,0x00,0xD9
2.456371040000000,0,0x00,0x02
2.456468480000000,0,0x00,0x18
2.456565920000000,0,0x00,0xB8
2.456663360000000,0,0x00,0x61
2.456760800000000,0,0x00,0x31
2.456858080000000,0,0x00,0xF8
2.456955520000000,0,0x00,0x01
2.457052960000000,0,0x00,0xF8
2.457150400000000,0,0x00,0xD0
2.457247840000000,0,0x00,0xC9
2.457345280000000,0,0x00,0xA8
2.457442560000000,0,0x00,0xB9
2.457540000000000,0,0x00,0x0A
2.457637440000000,0,0x00,0x10
2.457734880000000,0,0x00,0xA0
2.457832320000000,0,0x00,0x01
2.457929600000000,0,0x00,0xF9
2.458027040000000,0,0x00,0xF8
2.458124480000000,0,0x00,0x01
2.458221920000000,0,0x00,0xF8
2.458319360000000,0,0x00,0x00
2.458416800000000,0,0x00,0x08
2.458514080000000,0,0x00,0x00
2.458611520000000,0,0x00,0x01
2.458708960000000,0,0x00,0x22
2.458806400000000,0,0x00,0x30
2.458903840000000,0,0x00,0x48
2.459001120000000,0,0x00,0x08
2.459098560000000,0,0x00,0x00
2.459196000000000,0,0x00,0x00
2.459293440000000,0,0x00,0x00
2.459390880000000,0,0x00,0x00
2.459488320000000,0,0x00,0x00
2.459585600000000,0,0x00,0x00
2.459683040000000,0,0x00,0x00
2.459780480000000,0,0x00,0x02
2.459877920000000,0,0x00,0x88
2.459975360000000,0,0x00,0x08
2.460072640000000,0,0x00,0x08
2.460170080000000,0,0x00,0xE1
2.460267520000000,0,0x00,0x20
2.460364960000000,0,0x00,0x08
2.460462400000000,0,0x00,0x08
2.460559840000000,0,0x00,0x00
2.460657120000000,0,0x00,0x00
2.460754560000000,0,0x00,0x02
2.460852000000000,0,0x00,0x28
2.460949440000000,0,0x00,0x00
2.461046880000000,0,0x00,0x02
2.461144320000000,0,0x00,0x48
2.461241600000000,0,0x00,0x00
2.461339040000000,0,0x00,0x02
2.461436480000000,0,0x00,0x30
2.461533920000000,0,0x00,0x00
2.461631360000000,0,0x00,0x00
2.461728640000000,0,0x00,0x78
2.461826080000000,0,0x00,0x03
2.461923520000000,0,0x00,0xA8
2.462020960000000,0,0x00,0x00
2.462118400000000,0,0x00,0x00
2.462215840000000,0,0x00,0x00
2.462313120000000,0,0x00,0x10
2.462410560000000,0,0x00,0x00
2.462508000000000,0,0x00,0x00
2.462605440000000,0,0x00,0xD2
2.462702880000000,0,0x00,0x3A
2.462800160000000,0,0x00,0x20
2.462897600000000,0,0x00,0x00
2.462995040000000,0,0x00,0x10
2.463092480000000,0,0x00,0x00
2.463189920000000,0,0x00,0x0A
2.463287360000000,0,0x00,0x10
2.463384640000000,0,0x00,0x48
2.463482080000000,0,0x00,0x00
2.463579520000000,0,0x00,0x00
2.463676960000000,0,0x00,0x00
2.463774400000000,0,0x00,0x00
2.463871680000000,0,0x00,0x00
2.463969120000000,0,0x00,0x00
2.464066560000000,0,0x00,0x00
2.464164000000000,0,0x00,0x00
2.464261440000000,0,0x00,0x00
2.464358880000000,0,0x00,0x00
2.464456160000000,0,0x00,0x61
2.464553600000000,0,0x00,0xA9
2.464651040000000,0,0x00,0xFB
2.464748480000000,0,0x00,0xF9
2.464845920000000,0,0x00,0xF8
2.464943200000000,0,0x00,0xB2
2.465040640000000,0,0x00,0x60
2.465138080000000,0,0x00,0x02
2.465235520000000,0,0x00,0xC8
2.465332960000000,0,0x00,0x00
2.465430400000000,0,0x00,0x01
2.465527680000000,0,0x00,0x00
2.465625120000000,0,0x00,0x9A
2.465722560000000,0,0x00,0x61
2.465820000000000,0,0x00,0xF8
2.465917440000000,0,0x00,0x01
2.466014720000000,0,0x00,0xF8
2.466112160000000,0,0x00,0x00
2.466209600000000,0,0x00,0x08
2.466307040000000,0,0x00,0x02
2.466404480000000,0,0x00,0x00
2.466501920000000,0,0x00,0x00
2.466599200000000,0,0x00,0x01
2.466696640000000,0,0x00,0x00
2.466794080000000,0,0x00,0xC2
2.466891520000000,0,0x00,0x29
2.466988960000000,0,0x00,0xF8
2.467086240000000,0,0x00,0x01
2.467183680000000,0,0x00,0xF8
2.467281120000000,0,0x00,0x00
2.467378560000000,0,0x00,0x08
2.467476000000000,0,0x00,0x02
2.467573440000000,0,0x00,0x48
2.467670720000000,0,0x00,0x00
2.467768160000000,0,0x00,0x01
2.467865600000000,0,0x00,0x01
2.467963040000000,0,0x00,0x22
2.468060480000000,0,0x00,0xC9
2.468157760000000,0,0x00,0xFB
2.468255200000000,0,0x00,0xFB
2.468352640000000,0,0x00,0xF0
2.468450080000000,0,0x00,0x00
2.468547520000000,0,0x00,0x08
2.468644960000000,0,0x00,0x00
2.468742240000000,0,0x00,0x00
2.468839680000000,0,0x00,0x00
2.468937120000000,0,0x00,0x00
2.469034560000000,0,0x00,0xF8
2.469132000000000,0,0x00,0x00
2.469229280000000,0,0x00,0x0B
2.469326720000000,0,0x00,0xF8
2.469424160000000,0,0x00,0x03
2.469521600000000,0,0x00,0xFB
2.469619040000000,0,0x00,0xF8
2.469716480000000,0,0x00,0x02
2.469813760000000,0,0x00,0x00
2.469911200000000,0,0x00,0x03
2.470008640000000,0,0x00,0x0A
2.470106080000000,0,0x00,0x60
2.470203520000000,0,0x00,0x08
2.470300800000000,0,0x00,0x08
2.470398240000000,0,0x00,0xE0
2.470495680000000,0,0x00,0x08
2.470593120000000,0,0x00,0x08
2.470690560000000,0,0x00,0x00
2.470788000000000,0,0x00,0x03
2.470885280000000,0,0x00,0x49
2.470982720000000,0,0x00,0xF0
2.471080160000000,0,0x00,0x00
2.471177600000000,0,0x00,0x02
2.471275040000000,0,0x00,0x48
2.471372480000000,0,0x00,0x00
2.471469760000000,0,0x00,0x01
2.471567200000000,0,0x00,0x90
2.471664640000000,0,0x00,0x00
2.471762080000000,0,0x00,0x00
2.471859520000000,0,0x00,0x58
2.471956800000000,0,0x00,0x08
2.472054240000000,0,0x00,0x00
2.472151680000000,0,0x00,0x00
2.472249120000000,0,0x00,0x00
2.472346560000000,0,0x00,0x00
2.472444000000000,0,0x00,0x10
2.472541280000000,0,0x00,0x00
2.472638720000000,0,0x00,0x00
2.472736160000000,0,0x00,0x08
2.472833600000000,0,0x00,0x00
2.472931040000000,0,0x00,0x00
2.473028320000000,0,0x00,0x00
2.473125760000000,0,0x00,0x00
2.473223200000000,0,0x00,0x00
2.473320640000000,0,0x00,0x00
2.473418080000000,0,0x00,0x00
2.473515520000000,0,0x00,0x00
2.473612800000000,0,0x00,0x00
2.473710240000000,0,0x00,0x00
2.473807680000000,0,0x00,0x00
2.473905120000000,0,0x00,0x00
2.474002560000000,0,0x00,0x00
2.474099840000000,0,0x00,0x00
2.474197280000000,0,0x00,0x00
2.474294720000000,0,0x00,0x00
2.474392160000000,0,0x00,0x00
2.474489600000000,0,0x00,0x00
2.474587040000000,0,0x00,0x01
2.474684320000000,0,0x00,0xF9
2.474781760000000,0,0x00,0xF8
2.474879200000000,0,0x00,0x4B
2.474976640000000,0,0x00,0xF2
2.475074080000000,0,0x00,0x2A
2.475171360000000,0,0x00,0x62
2.475268800000000,0,0x00,0x3B
2.475366240000000,0,0x00,0x38
2.475463680000000,0,0x00,0x03
2.475561120000000,0,0x00,0xF9
2.475658560000000,0,0x00,0x00
2.475755840000000,0,0x00,0x62
2.475853280000000,0,0x00,0xD1
2.475950720000000,0,0x00,0xF8
2.476048160000000,0,0x00,0x01
2.476145600000000,0,0x00,0xF8
2.476242880000000,0,0x00,0x00
2.476340320000000,0,0x00,0x08
2.476437760000000,0,0x00,0x00
2.476535200000000,0,0x00,0x00
2.476632640000000,0,0x00,0x00
2.476730080000000,0,0x00,0x01
2.476827360000000,0,0x00,0x00
2.476924800000000,0,0x00,0x60
2.477022240000000,0,0x00,0xD9
2.477119680000000,0,0x00,0xF8
2.477217120000000,0,0x00,0x01
2.477314400000000,0,0x00,0xF8
2.477411840000000,0,0x00,0x00
2.477509280000000,0,0x00,0x08
2.477606720000000,0,0x00,0x00
2.477704160000000,0,0x00,0x00
2.477801600000000,0,0x00,0x00
2.477898880000000,0,0x00,0x01
2.477996320000000,0,0x00,0x00
2.478093760000000,0,0x00,0x01
2.478191200000000,0,0x00,0xF9
2.478288640000000,0,0x00,0xF8
2.478385920000000,0,0x00,0x01
2.478483360000000,0,0x00,0xF8
2.478580800000000,0,0x00,0x00
2.478678240000000,0,0x00,0x08
2.478775680000000,0,0x00,0x00
2.478873120000000,0,0x00,0x00
2.478970400000000,0,0x00,0x00
2.479067840000000,0,0x00,0x01
2.479165280000000,0,0x00,0x00
2.479262720000000,0,0x00,0x18
2.479360160000000,0,0x00,0x02
2.479457440000000,0,0x00,0xD8
2.479554880000000,0,0x00,0x00
2.479652320000000,0,0x00,0x00
2.479749760000000,0,0x00,0x00
2.479847200000000,0,0x00,0x02
2.479944640000000,0,0x00,0x00
2.480041920000000,0,0x00,0x03
2.480139360000000,0,0x00,0xF8
2.480236800000000,0,0x00,0x08
2.480334240000000,0,0x00,0x08
2.480431680000000,0,0x00,0x09
2.480528960000000,0,0x00,0x00
2.480626400000000,0,0x00,0x08
2.480723840000000,0,0x00,0x08
2.480821280000000,0,0x00,0x00
2.480918720000000,0,0x00,0x00
2.481016160000000,0,0x00,0x02
2.481113440000000,0,0x00,0xF0
2.481210880000000,0,0x00,0x00
2.481308320000000,0,0x00,0x09
2.481405760000000,0,0x00,0x20
2.481503200000000,0,0x00,0x01
2.481600480000000,0,0x00,0x79
2.481697920000000,0,0x00,0x00
2.481795360000000,0,0x00,0x00
2.481892800000000,0,0x00,0x00
2.481990240000000,0,0x00,0xA8
2.482087680000000,0,0x00,0x08
2.482184960000000,0,0x00,0x00
2.482282400000000,0,0x00,0x00
2.482379840000000,0,0x00,0x00
2.482477280000000,0,0x00,0x00
2.482574720000000,0,0x00,0x10
2.482672000000000,0,0x00,0x00
2.482769440000000,0,0x00,0x00
2.482866880000000,0,0x00,0x08
2.482964320000000,0,0x00,0x00
2.483061760000000,0,0x00,0x00
2.483159200000000,0,0x00,0x00
2.483256480000000,0,0x00,0x00
2.483353920000000,0,0x00,0x00
2.483451360000000,0,0x00,0x00
2.483548800000000,0,0x00,0x00
2.483646240000000,0,0x00,0x00
2.483743680000000,0,0x00,0x00
2.483840960000000,0,0x00,0x00
2.483938400000000,0,0x00,0x00
2.484035840000000,0,0x00,0x00
2.484133280000000,0,0x00,0x00
2.484230720000000,0,0x00,0x00
2.484328000000000,0,0x00,0x00
2.484425440000000,0,0x00,0x00
2.484522880000000,0,0x00,0x00
2.484620320000000,0,0x00,0x00
2.484717760000000,0,0x00,0x61
2.484815200000000,0,0x00,0xF9
2.484912480000000,0,0x00,0xFB
2.485009920000000,0,0x00,0xF9
2.485107360000000,0,0x00,0xFB
2.485204800000000,0,0x00,0x58
2.485302240000000,0,0x00,0x08
2.485399520000000,0,0x00,0x68
2.485496960000000,0,0x00,0x01
2.485594400000000,0,0x00,0xE0
2.485691840000000,0,0x00,0x01
2.485789280000000,0,0x00,0x00
2.485886720000000,0,0x00,0x61
2.485984000000000,0,0x00,0xE3
2.486081440000000,0,0x00,0xF0
2.486178880000000,0,0x00,0x01
2.486276320000000,0,0x00,0xF8
2.486373760000000,0,0x00,0x58
2.486471040000000,0,0x00,0x08
2.486568480000000,0,0x00,0x00
2.486665920000000,0,0x00,0x00
2.486763360000000,0,0x00,0xD8
2.486860800000000,0,0x00,0x01
2.486958240000000,0,0x00,0x98
2.487055520000000,0,0x00,0x61
2.487152960000000,0,0x00,0x61
2.487250400000000,0,0x00,0xF8
2.487347840000000,0,0x00,0x01
2.487445280000000,0,0x00,0xF8
2.487542560000000,0,0x00,0x00
2.487640000000000,0,0x00,0x08
2.487737440000000,0,0x00,0x02
2.487834880000000,0,0x00,0x00
2.487932320000000,0,0x00,0x00
2.488029760000000,0,0x00,0x08
2.488127040000000,0,0x00,0x00
2.488224480000000,0,0x00,0x00
2.488321920000000,0,0x00,0xC1
2.488419360000000,0,0x00,0xF8
2.488516800000000,0,0x00,0x01
2.488614080000000,0,0x00,0xF8
2.488711520000000,0,0x00,0x00
2.488808960000000,0,0x00,0x08
2.488906400000000,0,0x00,0x00
2.489003840000000,0,0x00,0x03
2.489101280000000,0,0x00,0xFA
2.489198560000000,0,0x00,0x00
2.489296000000000,0,0x00,0x00
2.489393440000000,0,0x00,0x00
2.489490880000000,0,0x00,0x00
2.489588320000000,0,0x00,0x00
2.489685600000000,0,0x00,0x00
2.489783040000000,0,0x00,0x00
2.489880480000000,0,0x00,0x00
2.489977920000000,0,0x00,0x78
2.490075360000000,0,0x00,0xA0
2.490172800000000,0,0x00,0x02
2.490270080000000,0,0x00,0x78
2.490367520000000,0,0x00,0x08
2.490464960000000,0,0x00,0x08
2.490562400000000,0,0x00,0x09
2.490659840000000,0,0x00,0x01
2.490757120000000,0,0x00,0x92
2.490854560000000,0,0x00,0x51
2.490952000000000,0,0x00,0x68
2.491049440000000,0,0x00,0x00
2.491146880000000,0,0x00,0xDB
2.491244320000000,0,0x00,0xF8
2.491341600000000,0,0x00,0x28
2.491439040000000,0,0x00,0x01
2.491536480000000,0,0x00,0x50
2.491633920000000,0,0x00,0x48
2.491731360000000,0,0x00,0x3A
2.491828640000000,0,0x00,0xC8
2.491926080000000,0,0x00,0x08
2.492023520000000,0,0x00,0x18
2.492120960000000,0,0x00,0xB0
2.492218400000000,0,0x00,0x00
2.492315840000000,0,0x00,0x00
2.492413120000000,0,0x00,0x00
2.492510560000000,0,0x00,0x00
2.492608000000000,0,0x00,0x00
2.492705440000000,0,0x00,0x10
2.492802880000000,0,0x00,0x00
2.492900160000000,0,0x00,0x00
2.492997600000000,0,0x00,0xF1
2.493095040000000,0,0x00,0xE0
2.493192480000000,0,0x00,0xF8
2.493289920000000,0,0x00,0x58
2.493387360000000,0,0x00,0x18
2.493484640000000,0,0x00,0x08
2.493582080000000,0,0x00,0x09
2.493679520000000,0,0x00,0x53
2.493776960000000,0,0x00,0xF8
2.493874400000000,0,0x00,0xCA
2.493971680000000,0,0x00,0x08
2.494069120000000,0,0x00,0xE8
2.494166560000000,0,0x00,0xC2
2.494264000000000,0,0x00,0x18
2.494361440000000,0,0x00,0xC0
2.494458880000000,0,0x00,0xC9
2.494556160000000,0,0x00,0x53
2.494653600000000,0,0x00,0xF8
2.494751040000000,0,0x00,0x38
2.494848480000000,0,0x00,0x61
2.494945920000000,0,0x00,0xF9
2.495043360000000,0,0x00,0xF8
2.495140640000000,0,0x00,0x01
2.495238080000000,0,0x00,0xF8
2.495335520000000,0,0x00,0x00
2.495432960000000,0,0x00,0x98
2.495530400000000,0,0x00,0x00
2.495627680000000,0,0x00,0x01
2.495725120000000,0,0x00,0x18
2.495822560000000,0,0x00,0x01
2.495920000000000,0,0x00,0x30
2.496017440000000,0,0x00,0xC2
2.496114880000000,0,0x00,0x61
2.496212160000000,0,0x00,0xF8
2.496309600000000,0,0x00,0x01
2.496407040000000,0,0x00,0xF8
2.496504480000000,0,0x00,0xC9
2.496601920000000,0,0x00,0x31
2.496699200000000,0,0x00,0x70
2.496796640000000,0,0x00,0x00
2.496894080000000,0,0x00,0x01
2.496991520000000,0,0x00,0xC0
2.497088960000000,0,0x00,0x00
2.497186400000000,0,0x00,0x01
2.497283680000000,0,0x00,0xF9
2.497381120000000,0,0x00,0xF8
2.497478560000000,0,0x00,0x01
2.497576000000000,0,0x00,0xF8
2.497673440000000,0,0x00,0xE0
2.497770720000000,0,0x00,0xA0
2.497868160000000,0,0x00,0xC0
2.497965600000000,0,0x00,0x01
2.498063040000000,0,0x00,0x00
2.498160480000000,0,0x00,0x00
2.498257920000000,0,0x00,0xA0
2.498355200000000,0,0x00,0x61
2.498452640000000,0,0x00,0xF9
2.498550080000000,0,0x00,0xF8
2.498647520000000,0,0x00,0x01
2.498744960000000,0,0x00,0xF8
2.498842240000000,0,0x00,0xD0
2.498939680000000,0,0x00,0xC9
2.499037120000000,0,0x00,0xA8
2.499134560000000,0,0x00,0x00
2.499232000000000,0,0x00,0x01
2.499329440000000,0,0x00,0x90
2.499426720000000,0,0x00,0x00
2.499524160000000,0,0x00,0x08
2.499621600000000,0,0x00,0x00
2.499719040000000,0,0x00,0x00
2.499816480000000,0,0x00,0x00
2.499913760000000,0,0x00,0x00
2.500011200000000,0,0x00,0x00
2.500108640000000,0,0x00,0x00
2.500206080000000,0,0x00,0x00
2.500303520000000,0,0x00,0x03
2.500400960000000,0,0x00,0xF8
2.500498240000000,0,0x00,0x50
2.500595680000000,0,0x00,0x08
2.500693120000000,0,0x00,0xB9
2.500790560000000,0,0x00,0x08
2.500888000000000,0,0x00,0x08
2.500985280000000,0,0x00,0x08
2.501082720000000,0,0x00,0x00
2.501180160000000,0,0x00,0x00
2.501277600000000,0,0x00,0x03
2.501375040000000,0,0x00,0xF8
2.501472480000000,0,0x00,0x00
2.501569760000000,0,0x00,0x02
2.501667200000000,0,0x00,0x48
2.501764640000000,0,0x00,0x00
2.501862080000000,0,0x00,0x00
2.501959520000000,0,0x00,0x00
2.502056800000000,0,0x00,0x08
2.502154240000000,0,0x00,0x00
2.502251680000000,0,0x00,0x80
2.502349120000000,0,0x00,0x08
2.502446560000000,0,0x00,0x00
2.502544000000000,0,0x00,0x00
2.502641280000000,0,0x00,0x00
2.502738720000000,0,0x00,0x00
2.502836160000000,0,0x00,0x10
2.502933600000000,0,0x00,0x00
2.503031040000000,0,0x00,0x01
2.503128320000000,0,0x00,0x89
2.503225760000000,0,0x00,0xE8
2.503323200000000,0,0x00,0x00
2.503420640000000,0,0x00,0x00
2.503518080000000,0,0x00,0x10
2.503615520000000,0,0x00,0x00
2.503712800000000,0,0x00,0x08
2.503810240000000,0,0x00,0x90
2.503907680000000,0,0x00,0x60
2.504005120000000,0,0x00,0x00
2.504102560000000,0,0x00,0x00
2.504199840000000,0,0x00,0x00
2.504297280000000,0,0x00,0x00
2.504394720000000,0,0x00,0x00
2.504492160000000,0,0x00,0x00
2.504589600000000,0,0x00,0x00
2.504687040000000,0,0x00,0x00
2.504784320000000,0,0x00,0x00
2.504881760000000,0,0x00,0x00
2.504979200000000,0,0x00,0x61
2.505076640000000,0,0x00,0xF9
2.505174080000000,0,0x00,0xF8
2.505271520000000,0,0x00,0x03
2.505368800000000,0,0x00,0xF1
2.505466240000000,0,0x00,0x20
2.505563680000000,0,0x00,0xE0
2.505661120000000,0,0x00,0x58
2.505758560000000,0,0x00,0x00
2.505855840000000,0,0x00,0x00
2.505953280000000,0,0x00,0x02
2.506050720000000,0,0x00,0xB0
2.506148160000000,0,0x00,0xC1
2.506245600000000,0,0x00,0xE9
2.506343040000000,0,0x00,0xF0
2.506440320000000,0,0x00,0x02
2.506537760000000,0,0x00,0x00
2.506635200000000,0,0x00,0x01
2.506732640000000,0,0x00,0x48
2.506830080000000,0,0x00,0x18
2.506927360000000,0,0x00,0xA0
2.507024800000000,0,0x00,0x02
2.507122240000000,0,0x00,0xF2
2.507219680000000,0,0x00,0x60
2.507317120000000,0,0x00,0xC1
2.507414560000000,0,0x00,0xF9
2.507511840000000,0,0x00,0xF9
2.507609280000000,0,0x00,0xF2
2.507706720000000,0,0x00,0x00
2.507804160000000,0,0x00,0x00
2.507901600000000,0,0x00,0x08
2.507998880000000,0,0x00,0x00
2.508096320000000,0,0x00,0x00
2.508193760000000,0,0x00,0x93
2.508291200000000,0,0x00,0xFA
2.508388640000000,0,0x00,0x78
2.508486080000000,0,0x00,0x00
2.508583360000000,0,0x00,0xB9
2.508680800000000,0,0x00,0xA0
2.508778240000000,0,0x00,0x02
2.508875680000000,0,0x00,0x38
2.508973120000000,0,0x00,0x00
2.509070400000000,0,0x00,0x08
2.509167840000000,0,0x00,0x02
2.509265280000000,0,0x00,0xA0
2.509362720000000,0,0x00,0xBA
2.509460160000000,0,0x00,0x02
2.509557600000000,0,0x00,0x48
2.509654880000000,0,0x00,0x10
2.509752320000000,0,0x00,0x00
2.509849760000000,0,0x00,0xE9
2.509947200000000,0,0x00,0x98
2.510044640000000,0,0x00,0x00
2.510141920000000,0,0x00,0x00
2.510239360000000,0,0x00,0x50
2.510336800000000,0,0x00,0xD8
2.510434240000000,0,0x00,0x00
2.510531680000000,0,0x00,0x78
2.510629120000000,0,0x00,0x08
2.510726400000000,0,0x00,0x08
2.510823840000000,0,0x00,0x08
2.510921280000000,0,0x00,0xF8
2.511018720000000,0,0x00,0x08
2.511116160000000,0,0x00,0x08
2.511213440000000,0,0x00,0x00
2.511310880000000,0,0x00,0x00
2.511408320000000,0,0x00,0x42
2.511505760000000,0,0x00,0x68
2.511603200000000,0,0x00,0x00
2.511700640000000,0,0x00,0x01
2.511797920000000,0,0x00,0x20
2.511895360000000,0,0x00,0x00
2.511992800000000,0,0x00,0x59
2.512090240000000,0,0x00,0x00
2.512187680000000,0,0x00,0x00
2.512284960000000,0,0x00,0x00
2.512382400000000,0,0x00,0x48
2.512479840000000,0,0x00,0x08
2.512577280000000,0,0x00,0x00
2.512674720000000,0,0x00,0x00
2.512761280000000,0,0x00,0x00
2.512858720000000,0,0x00,0x00
2.512956160000000,0,0x00,0x08
2.513053440000000,0,0x00,0x00
2.513150880000000,0,0x00,0x00
2.513248320000000,0,0x00,0x04
2.513345760000000,0,0x00,0x1C
2.513443200000000,0,0x00,0x4C
2.513540480000000,0,0x00,0x04
2.513637920000000,0,0x00,0x0C
2.513735360000000,0,0x00,0x00
2.513832800000000,0,0x00,0x05
2.513930240000000,0,0x00,0x15
2.514027680000000,0,0x00,0xB4
2.514124960000000,0,0x00,0xA1
2.514222400000000,0,0x00,0xB0
2.514319840000000,0,0x00,0x28
2.514417280000000,0,0x00,0x58
2.514514720000000,0,0x00,0x98
2.514612000000000,0,0x00,0x28
2.514709440000000,0,0x00,0x6D
2.514806880000000,0,0x00,0x55
2.514904320000000,0,0x00,0xFC
2.515001760000000,0,0x00,0x28
2.515099200000000,0,0x00,0x30
2.515196480000000,0,0x00,0xFC
2.515293920000000,0,0x00,0xFD
2.515391360000000,0,0x00,0xFC
2.515488800000000,0,0x00,0xFC
2.515586240000000,0,0x00,0x50
2.515683520000000,0,0x00,0xF0
2.515780960000000,0,0x00,0x5C
2.515878400000000,0,0x00,0x00
2.515975840000000,0,0x00,0xB9
2.516073280000000,0,0x00,0x4C
2.516170720000000,0,0x00,0x50
2.516268000000000,0,0x00,0x30
2.516365440000000,0,0x00,0x94
2.516462880000000,0,0x00,0xFC
2.516560320000000,0,0x00,0x00
2.516657760000000,0,0x00,0xFC
2.516755040000000,0,0x00,0x00
2.516852480000000,0,0x00,0x04
2.516949920000000,0,0x00,0x00
2.517047360000000,0,0x00,0x00
2.517144800000000,0,0x00,0xA5
2.517242240000000,0,0x00,0x24
2.517339520000000,0,0x00,0x34
2.517436960000000,0,0x00,0x31
2.517534400000000,0,0x00,0x84
2.517631840000000,0,0x00,0xFC
2.517729280000000,0,0x00,0x00
2.517826720000000,0,0x00,0xFC
2.517924000000000,0,0x00,0x00
2.518021440000000,0,0x00,0x04
2.518118880000000,0,0x00,0x00
2.518216320000000,0,0x00,0x00
2.518313760000000,0,0x00,0x8C
2.518411040000000,0,0x00,0xE8
2.518508480000000,0,0x00,0x44
2.518605920000000,0,0x00,0x00
2.518703360000000,0,0x00,0x60
2.518800800000000,0,0x00,0xFC
2.518898240000000,0,0x00,0x00
2.518995520000000,0,0x00,0xFC
2.519092960000000,0,0x00,0x00
2.519190400000000,0,0x00,0x04
2.519287840000000,0,0x00,0x01
2.519385280000000,0,0x00,0x85
2.519482560000000,0,0x00,0xFD
2.519580000000000,0,0x00,0x00
2.519677440000000,0,0x00,0x00
2.519774880000000,0,0x00,0x0C
2.519872320000000,0,0x00,0x00
2.519969760000000,0,0x00,0x00
2.520067040000000,0,0x00,0x00
2.520164480000000,0,0x00,0x00
2.520261920000000,0,0x00,0x00
2.520359360000000,0,0x00,0x00
2.520456800000000,0,0x00,0x00
2.520554080000000,0,0x00,0x01
2.520651520000000,0,0x00,0xFC
2.520748960000000,0,0x00,0x50
2.520846400000000,0,0x00,0x04
2.520943840000000,0,0x00,0x04
2.521041280000000,0,0x00,0x08
2.521138560000000,0,0x00,0x04
2.521236000000000,0,0x00,0x04
2.521333440000000,0,0x00,0x00
2.521430880000000,0,0x00,0x04
2.521528320000000,0,0x00,0x01
2.521625600000000,0,0x00,0xFC
2.521723040000000,0,0x00,0xAC
2.521820480000000,0,0x00,0x00
2.521917920000000,0,0x00,0xFC
2.522015360000000,0,0x00,0x00
2.522112800000000,0,0x00,0x00
2.522210080000000,0,0x00,0x14
2.522307520000000,0,0x00,0x00
2.522404960000000,0,0x00,0x00
2.522502400000000,0,0x00,0x58
2.522599840000000,0,0x00,0x04
2.522697120000000,0,0x00,0x00
2.522794560000000,0,0x00,0x00
2.522892000000000,0,0x00,0x00
2.522989440000000,0,0x00,0x00
2.523086880000000,0,0x00,0x08
2.523184320000000,0,0x00,0x00
2.523281600000000,0,0x00,0x00
2.523379040000000,0,0x00,0x78
2.523476480000000,0,0x00,0x01
2.523573920000000,0,0x00,0xB0
2.523671360000000,0,0x00,0x00
2.523768640000000,0,0x00,0x08
2.523866080000000,0,0x00,0x00
2.523963520000000,0,0x00,0x04
2.524060960000000,0,0x00,0x48
2.524158400000000,0,0x00,0x30
2.524255840000000,0,0x00,0x00
2.524353120000000,0,0x00,0x00
2.524450560000000,0,0x00,0x00
2.524548000000000,0,0x00,0x00
2.524645440000000,0,0x00,0x00
2.524742880000000,0,0x00,0x00
2.524840160000000,0,0x00,0x00
2.524937600000000,0,0x00,0x00
2.525035040000000,0,0x00,0x00
2.525132480000000,0,0x00,0x00
2.525229920000000,0,0x00,0x30
2.525327360000000,0,0x00,0xFC
2.525424640000000,0,0x00,0xFC
2.525522080000000,0,0x00,0x00
2.525619520000000,0,0x00,0xFC
2.525716960000000,0,0x00,0x50
2.525814400000000,0,0x00,0x4C
2.525911680000000,0,0x00,0x5C
2.526009120000000,0,0x00,0x4C
2.526106560000000,0,0x00,0x80
2.526204000000000,0,0x00,0x01
2.526301440000000,0,0x00,0x04
2.526398880000000,0,0x00,0x7D
2.526496160000000,0,0x00,0x90
2.526593600000000,0,0x00,0xFC
2.526691040000000,0,0x00,0x00
2.526788480000000,0,0x00,0xFC
2.526885920000000,0,0x00,0x64
2.526983200000000,0,0x00,0x98
2.527080640000000,0,0x00,0xB8
2.527178080000000,0,0x00,0x6C
2.527275520000000,0,0x00,0x80
2.527372960000000,0,0x00,0x00
2.527470400000000,0,0x00,0x60
2.527567680000000,0,0x00,0x61
2.527665120000000,0,0x00,0x38
2.527762560000000,0,0x00,0xFC
2.527860000000000,0,0x00,0x00
2.527957440000000,0,0x00,0xFC
2.528054720000000,0,0x00,0x68
2.528152160000000,0,0x00,0x64
2.528249600000000,0,0x00,0xD4
2.528347040000000,0,0x00,0x5C
2.528444480000000,0,0x00,0x84
2.528541920000000,0,0x00,0x00
2.528639200000000,0,0x00,0xB4
2.528736640000000,0,0x00,0x00
2.528834080000000,0,0x00,0xFC
2.528931520000000,0,0x00,0xFC
2.529028960000000,0,0x00,0x00
2.529126400000000,0,0x00,0xFC
2.529223680000000,0,0x00,0x00
2.529321120000000,0,0x00,0x04
2.529418560000000,0,0x00,0x00
2.529516000000000,0,0x00,0x70
2.529613440000000,0,0x00,0x90
2.529710720000000,0,0x00,0x0C
2.529808160000000,0,0x00,0xDC
2.529905600000000,0,0x00,0x04
2.530003040000000,0,0x00,0x00
2.530100480000000,0,0x00,0x00
2.530197920000000,0,0x00,0x00
2.530295200000000,0,0x00,0x00
2.530392640000000,0,0x00,0x00
2.530490080000000,0,0x00,0x00
2.530587520000000,0,0x00,0x00
2.530684960000000,0,0x00,0x01
2.530782240000000,0,0x00,0x44
2.530879680000000,0,0x00,0x05
2.530977120000000,0,0x00,0x64
2.531074560000000,0,0x00,0x04
2.531172000000000,0,0x00,0x80
2.531269440000000,0,0x00,0x04
2.531366720000000,0,0x00,0x04
2.531464160000000,0,0x00,0x00
2.531561600000000,0,0x00,0x00
2.531659040000000,0,0x00,0x01
2.531756480000000,0,0x00,0x14
2.531853760000000,0,0x00,0x00
2.531951200000000,0,0x00,0x01
2.532048640000000,0,0x00,0x04
2.532146080000000,0,0x00,0x24
2.532243520000000,0,0x00,0x00
2.532340960000000,0,0x00,0x30
2.532438240000000,0,0x00,0x00
2.532535680000000,0,0x00,0x00
2.532633120000000,0,0x00,0x1C
2.532730560000000,0,0x00,0x05
2.532828000000000,0,0x00,0xD4
2.532925280000000,0,0x00,0x00
2.533022720000000,0,0x00,0x00
2.533120160000000,0,0x00,0x00
2.533217600000000,0,0x00,0x08
2.533315040000000,0,0x00,0x00
2.533412480000000,0,0x00,0x00
2.533509760000000,0,0x00,0xC4
2.533607200000000,0,0x00,0xF4
2.533704640000000,0,0x00,0x00
2.533802080000000,0,0x00,0x00
2.533899520000000,0,0x00,0x04
2.533996800000000,0,0x00,0x00
2.534094240000000,0,0x00,0x85
2.534191680000000,0,0x00,0x08
2.534289120000000,0,0x00,0xF1
2.534386560000000,0,0x00,0x2D
2.534484000000000,0,0x00,0x88
2.534581280000000,0,0x00,0x01
2.534678720000000,0,0x00,0x01
2.534776160000000,0,0x00,0x01
2.534873600000000,0,0x00,0xC5
2.534971040000000,0,0x00,0x9C
2.535068320000000,0,0x00,0x54
2.535165760000000,0,0x00,0x00
2.535263200000000,0,0x00,0xC0
2.535360640000000,0,0x00,0x91
2.535458080000000,0,0x00,0xF9
2.535555520000000,0,0x00,0x85
2.535652800000000,0,0x00,0xFC
2.535750240000000,0,0x00,0x01
2.535847680000000,0,0x00,0xA4
2.535945120000000,0,0x00,0x4C
2.536042560000000,0,0x00,0x10
2.536139840000000,0,0x00,0x00
2.536237280000000,0,0x00,0x64
2.536334720000000,0,0x00,0x00
2.536432160000000,0,0x00,0x00
2.536529600000000,0,0x00,0x30
2.536627040000000,0,0x00,0xFC
2.536724320000000,0,0x00,0xFD
2.536821760000000,0,0x00,0x6D
2.536919200000000,0,0x00,0xF9
2.537016640000000,0,0x00,0xFC
2.537114080000000,0,0x00,0x28
2.537211360000000,0,0x00,0x01
2.537308800000000,0,0x00,0xFC
2.537406240000000,0,0x00,0x01
2.537503680000000,0,0x00,0xFD
2.537601120000000,0,0x00,0x54
2.537698560000000,0,0x00,0x4C
2.537795840000000,0,0x00,0xFC
2.537893280000000,0,0x00,0xF1
2.537990720000000,0,0x00,0x6D
2.538088160000000,0,0x00,0xF9
2.538185600000000,0,0x00,0xFC
2.538282880000000,0,0x00,0x28
2.538380320000000,0,0x00,0x01
2.538477760000000,0,0x00,0xFC
2.538575200000000,0,0x00,0x01
2.538672640000000,0,0x00,0xFC
2.538770080000000,0,0x00,0x98
2.538867360000000,0,0x00,0x60
2.538964800000000,0,0x00,0x51
2.539062240000000,0,0x00,0x7C
2.539159680000000,0,0x00,0x00
2.539257120000000,0,0x00,0xFD
2.539354400000000,0,0x00,0x54
2.539451840000000,0,0x00,0x20
2.539549280000000,0,0x00,0x40
2.539646720000000,0,0x00,0x01
2.539744160000000,0,0x00,0x64
2.539841600000000,0,0x00,0x00
2.539938880000000,0,0x00,0x00
2.540036320000000,0,0x00,0x04
2.540133760000000,0,0x00,0x00
2.540231200000000,0,0x00,0x6C
2.540328640000000,0,0x00,0x00
2.540426080000000,0,0x00,0x00
2.540523360000000,0,0x00,0x00
2.540620800000000,0,0x00,0x40
2.540718240000000,0,0x00,0xA0
2.540815680000000,0,0x00,0x01
2.540913120000000,0,0x00,0x14
2.541010400000000,0,0x00,0x05
2.541107840000000,0,0x00,0x80
2.541205280000000,0,0x00,0x50
2.541302720000000,0,0x00,0x90
2.541400160000000,0,0x00,0x40
2.541497600000000,0,0x00,0x91
2.541594880000000,0,0x00,0x14
2.541692320000000,0,0x00,0x00
2.541789760000000,0,0x00,0x75
2.541887200000000,0,0x00,0x48
2.541984640000000,0,0x00,0x24
2.542081920000000,0,0x00,0x00
2.542179360000000,0,0x00,0xE4
2.542276800000000,0,0x00,0x48
2.542374240000000,0,0x00,0x74
2.542471680000000,0,0x00,0x3C
2.542569120000000,0,0x00,0x00
2.542666400000000,0,0x00,0x05
2.542763840000000,0,0x00,0xA8
2.542861280000000,0,0x00,0x00
2.542958720000000,0,0x00,0x00
2.543056160000000,0,0x00,0x00
2.543153440000000,0,0x00,0x00
2.543250880000000,0,0x00,0x08
2.543348320000000,0,0x00,0x08
2.543445760000000,0,0x00,0x00
2.543543200000000,0,0x00,0x08
2.543640640000000,0,0x00,0xBC
2.543737920000000,0,0x00,0x7C
2.543835360000000,0,0x00,0x00
2.543932800000000,0,0x00,0x00
2.544030240000000,0,0x00,0x0C
2.544127680000000,0,0x00,0x00
2.544224960000000,0,0x00,0x05
2.544322400000000,0,0x00,0x28
2.544419840000000,0,0x00,0x6C
2.544517280000000,0,0x00,0xA0
2.544614720000000,0,0x00,0x7C
2.544712160000000,0,0x00,0xA8
2.544809440000000,0,0x00,0x59
2.544906880000000,0,0x00,0x04
2.545004320000000,0,0x00,0x7C
2.545101760000000,0,0x00,0x64
2.545199200000000,0,0x00,0x01
2.545296480000000,0,0x00,0x5C
2.545393920000000,0,0x00,0x5C
2.545491360000000,0,0x00,0x61
2.545588800000000,0,0x00,0x01
2.545686240000000,0,0x00,0x00
2.545783680000000,0,0x00,0x01
2.545880960000000,0,0x00,0xF8
2.545978400000000,0,0x00,0x1C
2.546075840000000,0,0x00,0x30
2.546173280000000,0,0x00,0x2C
2.546270720000000,0,0x00,0x00
2.546368000000000,0,0x00,0xC4
2.546465440000000,0,0x00,0x00
2.546562880000000,0,0x00,0x74
2.546660320000000,0,0x00,0x4C
2.546757760000000,0,0x00,0xF8
2.546855200000000,0,0x00,0xFC
2.546952480000000,0,0x00,0x01
2.547049920000000,0,0x00,0x01
2.547147360000000,0,0x00,0x00
2.547244800000000,0,0x00,0xA4
2.547342240000000,0,0x00,0x34
2.547439520000000,0,0x00,0x00
2.547536960000000,0,0x00,0xBC
2.547634400000000,0,0x00,0x00
2.547731840000000,0,0x00,0xE8
2.547829280000000,0,0x00,0x78
2.547926720000000,0,0x00,0xDD
2.548024000000000,0,0x00,0x2C
2.548121440000000,0,0x00,0xF9
2.548218880000000,0,0x00,0x00
2.548316320000000,0,0x00,0x90
2.548413760000000,0,0x00,0x70
2.548511040000000,0,0x00,0x24
2.548608480000000,0,0x00,0x00
2.548705920000000,0,0x00,0x90
2.548803360000000,0,0x00,0x00
2.548900800000000,0,0x00,0xF8
2.548998240000000,0,0x00,0x30
2.549095520000000,0,0x00,0xF1
2.549192960000000,0,0x00,0x1C
2.549290400000000,0,0x00,0x00
2.549387840000000,0,0x00,0xFC
2.549485280000000,0,0x00,0x40
2.549582560000000,0,0x00,0xFC
2.549680000000000,0,0x00,0x58
2.549777440000000,0,0x00,0x00
2.549874880000000,0,0x00,0xC4
2.549972320000000,0,0x00,0x00
2.550069760000000,0,0x00,0xD4
2.550167040000000,0,0x00,0x04
2.550264480000000,0,0x00,0x00
2.550361920000000,0,0x00,0x91
2.550459360000000,0,0x00,0xFD
2.550556800000000,0,0x00,0xFD
2.550654080000000,0,0x00,0xFC
2.550751520000000,0,0x00,0x7D
2.550848960000000,0,0x00,0xAC
2.550946400000000,0,0x00,0x00
2.551043840000000,0,0x00,0xD0
2.551141280000000,0,0x00,0x70
2.551238560000000,0,0x00,0x5C
2.551336000000000,0,0x00,0x54
2.551433440000000,0,0x00,0x5C
2.551530880000000,0,0x00,0x04
2.551628320000000,0,0x00,0x04
2.551725760000000,0,0x00,0x00
2.551823040000000,0,0x00,0x00
2.551920480000000,0,0x00,0xE1
2.552017920000000,0,0x00,0x88
2.552115360000000,0,0x00,0x00
2.552212800000000,0,0x00,0x01
2.552310080000000,0,0x00,0x24
2.552407520000000,0,0x00,0x51
2.552504960000000,0,0x00,0xB4
2.552602400000000,0,0x00,0x00
2.552699840000000,0,0x00,0x00
2.552797280000000,0,0x00,0x00
2.552894560000000,0,0x00,0x3C
2.552992000000000,0,0x00,0x00
2.553089440000000,0,0x00,0x00
2.553186880000000,0,0x00,0x00
2.553284320000000,0,0x00,0x00
2.553381600000000,0,0x00,0x00
2.553479040000000,0,0x00,0x08
2.553576480000000,0,0x00,0x00
2.553673920000000,0,0x00,0x00
2.553771360000000,0,0x00,0x55
2.553868800000000,0,0x00,0x88
2.553966080000000,0,0x00,0x10
2.554063520000000,0,0x00,0x04
2.554160960000000,0,0x00,0x00
2.554258400000000,0,0x00,0x00
2.554355840000000,0,0x00,0x00
2.554453120000000,0,0x00,0x00
2.554550560000000,0,0x00,0x00
2.554648000000000,0,0x00,0x00
2.554745440000000,0,0x00,0x00
2.554842880000000,0,0x00,0x00
2.554940320000000,0,0x00,0x00
2.555037600000000,0,0x00,0x00
2.555135040000000,0,0x00,0x00
2.555232480000000,0,0x00,0x00
2.555329920000000,0,0x00,0x00
2.555427360000000,0,0x00,0x00
2.555524640000000,0,0x00,0x00
2.555622080000000,0,0x00,0x30
2.555719520000000,0,0x00,0xFC
2.555816960000000,0,0x00,0xFD
2.555914400000000,0,0x00,0xFC
2.556011840000000,0,0x00,0xFC
2.556109120000000,0,0x00,0x50
2.556206560000000,0,0x00,0xF0
2.556304000000000,0,0x00,0x5C
2.556401440000000,0,0x00,0x00
2.556498880000000,0,0x00,0xB4
2.556596160000000,0,0x00,0x01
2.556693600000000,0,0x00,0x04
2.556791040000000,0,0x00,0x61
2.556888480000000,0,0x00,0x90
2.556985920000000,0,0x00,0xFC
2.557083360000000,0,0x00,0x00
2.557180640000000,0,0x00,0xFC
2.557278080000000,0,0x00,0x64
2.557375520000000,0,0x00,0x98
2.557472960000000,0,0x00,0xB8
2.557570400000000,0,0x00,0x00
2.557667680000000,0,0x00,0x8C
2.557765120000000,0,0x00,0x00
2.557862560000000,0,0x00,0x70
2.557960000000000,0,0x00,0x60
2.558057440000000,0,0x00,0x74
2.558154880000000,0,0x00,0xFC
2.558252160000000,0,0x00,0x00
2.558349600000000,0,0x00,0xFC
2.558447040000000,0,0x00,0x68
2.558544480000000,0,0x00,0x64
2.558641920000000,0,0x00,0xD4
2.558739200000000,0,0x00,0x00
2.558836640000000,0,0x00,0xAD
2.558934080000000,0,0x00,0x0C
2.559031520000000,0,0x00,0xA0
2.559128960000000,0,0x00,0x00
2.559226400000000,0,0x00,0xFC
2.559323680000000,0,0x00,0xFC
2.559421120000000,0,0x00,0x00
2.559518560000000,0,0x00,0xFC
2.559616000000000,0,0x00,0x00
2.559713440000000,0,0x00,0x04
2.559810720000000,0,0x00,0x00
2.559908160000000,0,0x00,0x00
2.560005600000000,0,0x00,0x88
2.560103040000000,0,0x00,0x0D
2.560200480000000,0,0x00,0x68
2.560297920000000,0,0x00,0x04
2.560395200000000,0,0x00,0x00
2.560492640000000,0,0x00,0x00
2.560590080000000,0,0x00,0x00
2.560687520000000,0,0x00,0x00
2.560784960000000,0,0x00,0x00
2.560882240000000,0,0x00,0x00
2.560979680000000,0,0x00,0x00
2.561077120000000,0,0x00,0x01
2.561174560000000,0,0x00,0x18
2.561272000000000,0,0x00,0x05
2.561369440000000,0,0x00,0x64
2.561466720000000,0,0x00,0x04
2.561564160000000,0,0x00,0x04
2.561661600000000,0,0x00,0x04
2.561759040000000,0,0x00,0x04
2.561856480000000,0,0x00,0x00
2.561953760000000,0,0x00,0x00
2.562051200000000,0,0x00,0x01
2.562148640000000,0,0x00,0x14
2.562246080000000,0,0x00,0x00
2.562343520000000,0,0x00,0x01
2.562440960000000,0,0x00,0x6C
2.562538240000000,0,0x00,0x60
2.562635680000000,0,0x00,0x00
2.562733120000000,0,0x00,0x00
2.562830560000000,0,0x00,0x00
2.562928000000000,0,0x00,0x00
2.563025440000000,0,0x00,0x60
2.563122720000000,0,0x00,0x05
2.563220160000000,0,0x00,0xD4
2.563317600000000,0,0x00,0x00
2.563415040000000,0,0x00,0x00
2.563512480000000,0,0x00,0x00
2.563609760000000,0,0x00,0x08
2.563707200000000,0,0x00,0x00
2.563804640000000,0,0x00,0x00
2.563902080000000,0,0x00,0x7C
2.563999520000000,0,0x00,0xF5
2.564096960000000,0,0x00,0x68
2.564194240000000,0,0x00,0x8C
2.564291680000000,0,0x00,0x00
2.564389120000000,0,0x00,0x00
2.564486560000000,0,0x00,0x00
2.564584000000000,0,0x00,0x00
2.564681280000000,0,0x00,0x00
2.564778720000000,0,0x00,0x00
2.564876160000000,0,0x00,0x00
2.564973600000000,0,0x00,0x00
2.565071040000000,0,0x00,0x00
2.565168480000000,0,0x00,0x00
2.565265760000000,0,0x00,0x00
2.565363200000000,0,0x00,0x00
2.565460640000000,0,0x00,0x00
2.565558080000000,0,0x00,0x00
2.565655520000000,0,0x00,0x00
2.565752800000000,0,0x00,0x08
2.565850240000000,0,0x00,0x04
2.565947680000000,0,0x00,0x04
2.566045120000000,0,0x00,0x00
2.566142560000000,0,0x00,0x00
2.566240000000000,0,0x00,0x00
2.566337280000000,0,0x00,0x00
2.566434720000000,0,0x00,0x00
2.566532160000000,0,0x00,0x00
2.566629600000000,0,0x00,0x00
2.566727040000000,0,0x00,0x08
2.566824320000000,0,0x00,0x00
2.566921760000000,0,0x00,0x04
2.567019200000000,0,0x00,0x00
2.567116640000000,0,0x00,0x00
2.567214080000000,0,0x00,0x00
2.567311520000000,0,0x00,0x00
2.567408800000000,0,0x00,0x00
2.567506240000000,0,0x00,0x00
2.567603680000000,0,0x00,0x00
2.567701120000000,0,0x00,0x00
2.567798560000000,0,0x00,0x00
2.567895840000000,0,0x00,0x08
2.567993280000000,0,0x00,0x04
2.568090720000000,0,0x00,0x04
2.568188160000000,0,0x00,0x00
2.568285600000000,0,0x00,0x00
2.568383040000000,0,0x00,0x00
2.568480320000000,0,0x00,0x00
2.568577760000000,0,0x00,0x00
2.568675200000000,0,0x00,0x00
2.568772640000000,0,0x00,0x00
2.568870080000000,0,0x00,0x04
2.568967360000000,0,0x00,0x00
2.569064800000000,0,0x00,0x00
2.569162240000000,0,0x00,0x00
2.569259680000000,0,0x00,0x00
2.569357120000000,0,0x00,0x00
2.569454560000000,0,0x00,0x08
2.569551840000000,0,0x00,0x00
2.569649280000000,0,0x00,0x08
2.569746720000000,0,0x00,0x00
2.569844160000000,0,0x00,0x00
2.569941600000000,0,0x00,0x00
2.570038880000000,0,0x00,0x00
2.570136320000000,0,0x00,0x00
2.570233760000000,0,0x00,0x00
2.570331200000000,0,0x00,0x00
2.570428640000000,0,0x00,0x00
2.570526080000000,0,0x00,0x04
2.570623360000000,0,0x00,0x00
2.570720800000000,0,0x00,0x00
2.570818240000000,0,0x00,0x04
2.570915680000000,0,0x00,0x00
2.571013120000000,0,0x00,0x08
2.571110400000000,0,0x00,0x00
2.571207840000000,0,0x00,0x00
2.571305280000000,0,0x00,0x00
2.571402720000000,0,0x00,0x00
2.571500160000000,0,0x00,0x00
2.571597600000000,0,0x00,0x08
2.571694880000000,0,0x00,0x00
2.571792320000000,0,0x00,0x00
2.571889760000000,0,0x00,0x00
2.571987200000000,0,0x00,0x00
2.572084640000000,0,0x00,0x04
2.572181920000000,0,0x00,0x00
2.572279360000000,0,0x00,0x00
2.572376800000000,0,0x00,0x00
2.572474240000000,0,0x00,0x00
2.572571680000000,0,0x00,0x08
2.572669120000000,0,0x00,0x00
2.572766400000000,0,0x00,0x04
2.572863840000000,0,0x00,0x00
2.572961280000000,0,0x00,0x00
2.573058720000000,0,0x00,0x00
2.573156160000000,0,0x00,0x00
2.573253440000000,0,0x00,0x00
2.573350880000000,0,0x00,0x00
2.573448320000000,0,0x00,0x00
2.573545760000000,0,0x00,0x00
2.573643200000000,0,0x00,0x04
2.573740640000000,0,0x00,0x04
2.573837920000000,0,0x00,0x00
2.573935360000000,0,0x00,0x08
2.574032800000000,0,0x00,0x00
2.574130240000000,0,0x00,0x00
2.574227680000000,0,0x00,0x00
2.574325120000000,0,0x00,0x00
2.574422400000000,0,0x00,0x00
2.574519840000000,0,0x00,0x04
2.574617280000000,0,0x00,0x00
2.574714720000000,0,0x00,0x00
2.574812160000000,0,0x00,0x00
2.574909440000000,0,0x00,0x00
2.575006880000000,0,0x00,0x00
2.575104320000000,0,0x00,0x00
2.575201760000000,0,0x00,0x08
2.575299200000000,0,0x00,0x00
2.575396640000000,0,0x00,0x00
2.575493920000000,0,0x00,0x00
2.575591360000000,0,0x00,0x00
2.575688800000000,0,0x00,0x00
2.575786240000000,0,0x00,0x08
2.575883680000000,0,0x00,0x00
2.575980960000000,0,0x00,0x04
2.576078400000000,0,0x00,0x00
2.576175840000000,0,0x00,0x00
2.576273280000000,0,0x00,0x00
2.576370720000000,0,0x00,0x00
2.576468160000000,0,0x00,0x00
2.576565440000000,0,0x00,0x03
2.576662880000000,0,0x00,0x00
2.576760320000000,0,0x00,0x02
2.576857760000000,0,0x00,0x00
2.576955200000000,0,0x00,0x31
2.577052480000000,0,0x00,0x00
2.577149920000000,0,0x00,0x64
2.577247360000000,0,0x00,0x00
2.577344800000000,0,0x00,0xA9
2.577442240000000,0,0x00,0x00
2.577539680000000,0,0x00,0xE4
2.577636960000000,0,0x00,0x01
2.577734400000000,0,0x00,0x30
2.577831840000000,0,0x00,0x01
2.577929280000000,0,0x00,0x68
2.578026720000000,0,0x00,0x01
2.578124000000000,0,0x00,0xB1
2.578221440000000,0,0x00,0x01
2.578318880000000,0,0x00,0xD8
2.578416320000000,0,0x00,0x01
2.578513760000000,0,0x00,0xFC
2.578611200000000,0,0x00,0x04
2.578708480000000,0,0x00,0x00
2.578805920000000,0,0x00,0x00
2.578903360000000,0,0x00,0x00
2.579000800000000,0,0x00,0x00
2.579098240000000,0,0x00,0x00
2.579195520000000,0,0x00,0x00
2.579292960000000,0,0x00,0x02
2.579390400000000,0,0x00,0x5C
2.579487840000000,0,0x00,0xF1
2.579585280000000,0,0x00,0x18
2.579682720000000,0,0x00,0xFC
2.579780000000000,0,0x00,0x4D
2.579877440000000,0,0x00,0x08
2.579974880000000,0,0x00,0x01
2.580072320000000,0,0x00,0x14
2.580169760000000,0,0x00,0x39
2.580267040000000,0,0x00,0x20
2.580364480000000,0,0x00,0xFD
2.580461920000000,0,0x00,0x2E
2.580559360000000,0,0x00,0x51
2.580656800000000,0,0x00,0x38
2.580754240000000,0,0x00,0x39
2.580851520000000,0,0x00,0x4A
2.580948960000000,0,0x00,0xC1
2.581046400000000,0,0x00,0x55
2.581143840000000,0,0x00,0xED
2.581241280000000,0,0x00,0x65
2.581338560000000,0,0x00,0xC9
2.581436000000000,0,0x00,0x76
2.581533440000000,0,0x00,0x55
2.581630880000000,0,0x00,0x87
2.581728320000000,0,0x00,0x9D
2.581825760000000,0,0x00,0x95
2.581923040000000,0,0x00,0xA9
2.582020480000000,0,0x00,0xA8
2.582117920000000,0,0x00,0x81
2.582215360000000,0,0x00,0xBC
2.582312800000000,0,0x00,0x2D
2.582410080000000,0,0x00,0xD0
2.582507520000000,0,0x00,0xBD
2.582604960000000,0,0x00,0xE4
2.582702400000000,0,0x00,0x00
2.582799840000000,0,0x00,0x02
2.582897280000000,0,0x00,0x45
2.582994560000000,0,0x00,0xFC
2.583092000000000,0,0x00,0x04
2.583189440000000,0,0x00,0x02
2.583286880000000,0,0x00,0x17
2.583384320000000,0,0x00,0xF8
2.583481600000000,0,0x00,0x04
2.583579040000000,0,0x00,0x00
2.583676480000000,0,0x00,0x8B
2.583773920000000,0,0x00,0xFC
2.583871360000000,0,0x00,0x08
2.583968800000000,0,0x00,0x00
2.584066080000000,0,0x00,0x00
2.584163520000000,0,0x00,0x00
2.584260960000000,0,0x00,0x10
2.584358400000000,0,0x00,0x02
2.584455840000000,0,0x00,0xB6
2.584553120000000,0,0x00,0x00
2.584650560000000,0,0x00,0x04
2.584748000000000,0,0x00,0x01
2.584845440000000,0,0x00,0xEC
2.584942880000000,0,0x00,0x04
2.585040320000000,0,0x00,0x08
2.585137600000000,0,0x00,0x01
2.585235040000000,0,0x00,0x68
2.585332480000000,0,0x00,0x04
2.585429920000000,0,0x00,0x0C
2.585527360000000,0,0x00,0x03
2.585624800000000,0,0x00,0xD8
2.585722080000000,0,0x00,0x08
2.585819520000000,0,0x00,0x10
2.585916960000000,0,0x00,0x00
2.586014400000000,0,0x00,0x04
2.586111840000000,0,0x00,0x00
2.586209120000000,0,0x00,0x00
2.586306560000000,0,0x00,0x00
2.586404000000000,0,0x00,0x01
2.586501440000000,0,0x00,0x01
2.586598880000000,0,0x00,0x35
2.586696320000000,0,0x00,0x6D
2.586793600000000,0,0x00,0xB2
2.586891040000000,0,0x00,0x02
2.586988480000000,0,0x00,0x6A
2.587085920000000,0,0x00,0xDF
2.587183360000000,0,0x00,0x6B
2.587280640000000,0,0x00,0xFC
2.587378080000000,0,0x00,0x00
2.587475520000000,0,0x00,0x00
2.587572960000000,0,0x00,0x40
2.587670400000000,0,0x00,0x40
2.587767840000000,0,0x00,0x40
2.587865120000000,0,0x00,0x40
2.587962560000000,0,0x00,0x40
2.588060000000000,0,0x00,0x40
2.588157440000000,0,0x00,0x44
2.588254880000000,0,0x00,0x44
2.588352160000000,0,0x00,0x44
2.588449600000000,0,0x00,0x44
2.588547040000000,0,0x00,0x44
2.588644480000000,0,0x00,0x48
2.588741920000000,0,0x00,0x48
2.588839360000000,0,0x00,0x48
2.588936640000000,0,0x00,0x48
2.589034080000000,0,0x00,0x48
2.589131520000000,0,0x00,0x4C
2.589228960000000,0,0x00,0x4C
2.589326400000000,0,0x00,0x4C
2.589423680000000,0,0x00,0x4C
2.589521120000000,0,0x00,0x4C
2.589618560000000,0,0x00,0x50
2.589716000000000,0,0x00,0x50
2.589813440000000,0,0x00,0x50
2.589910880000000,0,0x00,0x50
2.590008160000000,0,0x00,0x50
2.590105600000000,0,0x00,0x54
2.590203040000000,0,0x00,0x54
2.590300480000000,0,0x00,0x54
2.590397920000000,0,0x00,0x54
2.590495200000000,0,0x00,0x58
2.590592640000000,0,0x00,0x58
2.590690080000000,0,0x00,0x58
2.590787520000000,0,0x00,0x58
2.590884960000000,0,0x00,0x5C
2.590982400000000,0,0x00,0x5C
2.591079680000000,0,0x00,0x5C
2.591177120000000,0,0x00,0x5C
2.591274560000000,0,0x00,0x60
2.591372000000000,0,0x00,0x60
2.591469440000000,0,0x00,0x60
2.591566720000000,0,0x00,0x60
2.591664160000000,0,0x00,0x64
2.591761600000000,0,0x00,0x64
2.591859040000000,0,0x00,0x64
2.591956480000000,0,0x00,0x68
2.592053920000000,0,0x00,0x68
2.592151200000000,0,0x00,0x68
2.592248640000000,0,0x00,0x68
2.592346080000000,0,0x00,0x6C
2.592443520000000,0,0x00,0x6C
2.592540960000000,0,0x00,0x6C
2.592638240000000,0,0x00,0x70
2.592735680000000,0,0x00,0x70
2.592833120000000,0,0x00,0x70
2.592930560000000,0,0x00,0x74
2.593028000000000,0,0x00,0x74
2.593125440000000,0,0x00,0x74
2.593222720000000,0,0x00,0x74
2.593320160000000,0,0x00,0x78
2.593417600000000,0,0x00,0x78
2.593515040000000,0,0x00,0x78
2.593612480000000,0,0x00,0x7C
2.593709760000000,0,0x00,0x7C
2.593807200000000,0,0x00,0x80
2.593904640000000,0,0x00,0x80
2.594002080000000,0,0x00,0x80
2.594099520000000,0,0x00,0x84
2.594196960000000,0,0x00,0x84
2.594294240000000,0,0x00,0x84
2.594391680000000,0,0x00,0x88
2.594489120000000,0,0x00,0x88
2.594586560000000,0,0x00,0x88
2.594684000000000,0,0x00,0x8C
2.594781280000000,0,0x00,0x8C
2.594878720000000,0,0x00,0x90
2.594976160000000,0,0x00,0x90
2.595073600000000,0,0x00,0x90
2.595171040000000,0,0x00,0x94
2.595268480000000,0,0x00,0x94
2.595365760000000,0,0x00,0x98
2.595463200000000,0,0x00,0x98
2.595560640000000,0,0x00,0x98
2.595658080000000,0,0x00,0x9C
2.595755520000000,0,0x00,0x9C
2.595852800000000,0,0x00,0xA0
2.595950240000000,0,0x00,0xA0
2.596047680000000,0,0x00,0xA4
2.596145120000000,0,0x00,0xA4
2.596242560000000,0,0x00,0xA4
2.596340000000000,0,0x00,0xA8
2.596437280000000,0,0x00,0xA8
2.596534720000000,0,0x00,0xAC
2.596632160000000,0,0x00,0xAC
2.596729600000000,0,0x00,0xB0
2.596827040000000,0,0x00,0xB0
2.596924480000000,0,0x00,0xB4
2.597021760000000,0,0x00,0xB4
2.597119200000000,0,0x00,0xB8
2.597216640000000,0,0x00,0xB8
2.597314080000000,0,0x00,0xBC
2.597411520000000,0,0x00,0xBC
2.597508800000000,0,0x00,0xC0
2.597606240000000,0,0x00,0xC0
2.597703680000000,0,0x00,0xC4
2.597801120000000,0,0x00,0xC4
2.597898560000000,0,0x00,0xC8
2.597996000000000,0,0x00,0xC8
2.598093280000000,0,0x00,0xCC
2.598190720000000,0,0x00,0xD0
2.598288160000000,0,0x00,0xD0
2.598385600000000,0,0x00,0xD4
2.598483040000000,0,0x00,0xD4
2.598580320000000,0,0x00,0xD8
2.598677760000000,0,0x00,0xD8
2.598775200000000,0,0x00,0xDC
2.598872640000000,0,0x00,0xE0
2.598970080000000,0,0x00,0xE0
2.599067520000000,0,0x00,0xE4
2.599164800000000,0,0x00,0xE8
2.599262240000000,0,0x00,0xE8
2.599359680000000,0,0x00,0xEC
2.599457120000000,0,0x00,0xEC
2.599554560000000,0,0x00,0xF0
2.599651840000000,0,0x00,0xF4
2.599749280000000,0,0x00,0xF4
2.599846720000000,0,0x00,0xF8
2.599944160000000,0,0x00,0xFD
2.600041600000000,0,0x00,0x01
2.600139040000000,0,0x00,0x01
2.600236320000000,0,0x00,0x05
2.600333760000000,0,0x00,0x09
2.600431200000000,0,0x00,0x09
2.600528640000000,0,0x00,0x0D
2.600626080000000,0,0x00,0x11
2.600723360000000,0,0x00,0x15
2.600820800000000,0,0x00,0x15
2.600918240000000,0,0x00,0x19
2.601015680000000,0,0x00,0x1D
2.601113120000000,0,0x00,0x21
2.601210560000000,0,0x00,0x21
2.601307840000000,0,0x00,0x25
2.601405280000000,0,0x00,0x29
2.601502720000000,0,0x00,0x2D
2.601600160000000,0,0x00,0x31
2.601697600000000,0,0x00,0x31
2.601794880000000,0,0x00,0x35
2.601892320000000,0,0x00,0x39
2.601989760000000,0,0x00,0x3D
2.602087200000000,0,0x00,0x41
2.602184640000000,0,0x00,0x45
2.602282080000000,0,0x00,0x49
2.602379360000000,0,0x00,0x49
2.602476800000000,0,0x00,0x4D
2.602574240000000,0,0x00,0x51
2.602671680000000,0,0x00,0x55
2.602769120000000,0,0x00,0x59
2.602866400000000,0,0x00,0x5D
2.602963840000000,0,0x00,0x61
2.603061280000000,0,0x00,0x65
2.603158720000000,0,0x00,0x69
2.603256160000000,0,0x00,0x6D
2.603353600000000,0,0x00,0x71
2.603450880000000,0,0x00,0x75
2.603548320000000,0,0x00,0x79
2.603645760000000,0,0x00,0x7D
2.603743200000000,0,0x00,0x81
2.603840640000000,0,0x00,0x85
2.603937920000000,0,0x00,0x89
2.604035360000000,0,0x00,0x8D
2.604132800000000,0,0x00,0x91
2.604230240000000,0,0x00,0x95
2.604327680000000,0,0x00,0x9D
2.604425120000000,0,0x00,0xA1
2.604522400000000,0,0x00,0xA5
2.604619840000000,0,0x00,0xA9
2.604717280000000,0,0x00,0xAD
2.604814720000000,0,0x00,0xB1
2.604912160000000,0,0x00,0xB5
2.605009440000000,0,0x00,0xBD
2.605106880000000,0,0x00,0xC1
2.605204320000000,0,0x00,0xC5
2.605301760000000,0,0x00,0xC9
2.605399200000000,0,0x00,0xD1
2.605496640000000,0,0x00,0xD5
2.605593920000000,0,0x00,0xD9
2.605691360000000,0,0x00,0xDD
2.605788800000000,0,0x00,0xE5
2.605886240000000,0,0x00,0xE9
2.605983680000000,0,0x00,0xED
2.606080960000000,0,0x00,0xF5
2.606178400000000,0,0x00,0xFA
2.606275840000000,0,0x00,0x02
2.606373280000000,0,0x00,0x06
2.606470720000000,0,0x00,0x0A
2.606568160000000,0,0x00,0x12
2.606665440000000,0,0x00,0x16
2.606762880000000,0,0x00,0x1E
2.606860320000000,0,0x00,0x22
2.606957760000000,0,0x00,0x2A
2.607055200000000,0,0x00,0x2E
2.607152480000000,0,0x00,0x36
2.607249920000000,0,0x00,0x3A
2.607347360000000,0,0x00,0x42
2.607444800000000,0,0x00,0x46
2.607542240000000,0,0x00,0x4E
2.607639680000000,0,0x00,0x52
2.607736960000000,0,0x00,0x5A
2.607834400000000,0,0x00,0x62
2.607931840000000,0,0x00,0x66
2.608029280000000,0,0x00,0x6E
2.608126720000000,0,0x00,0x76
2.608224160000000,0,0x00,0x7A
2.608321440000000,0,0x00,0x82
2.608418880000000,0,0x00,0x8A
2.608516320000000,0,0x00,0x92
2.608613760000000,0,0x00,0x96
2.608711200000000,0,0x00,0x9E
2.608808480000000,0,0x00,0xA6
2.608905920000000,0,0x00,0xAE
2.609003360000000,0,0x00,0xB6
2.609100800000000,0,0x00,0xBE
2.609198240000000,0,0x00,0xC6
2.609295680000000,0,0x00,0xCE
2.609392960000000,0,0x00,0xD6
2.609490400000000,0,0x00,0xDA
2.609587840000000,0,0x00,0xE2
2.609685280000000,0,0x00,0xEA
2.609782720000000,0,0x00,0xF6
2.609880000000000,0,0x00,0xFF
2.609977440000000,0,0x00,0x07
2.610074880000000,0,0x00,0x0F
2.610172320000000,0,0x00,0x17
2.610269760000000,0,0x00,0x1F
2.610367200000000,0,0x00,0x27
2.610464480000000,0,0x00,0x2F
2.610561920000000,0,0x00,0x3B
2.610659360000000,0,0x00,0x43
2.610756800000000,0,0x00,0x4B
2.610854240000000,0,0x00,0x53
2.610951520000000,0,0x00,0x5F
2.611048960000000,0,0x00,0x67
2.611146400000000,0,0x00,0x6F
2.611243840000000,0,0x00,0x7B
2.611341280000000,0,0x00,0x83
2.611438720000000,0,0x00,0x8F
2.611536000000000,0,0x00,0x97
2.611633440000000,0,0x00,0xA3
2.611730880000000,0,0x00,0xAB
2.611828320000000,0,0x00,0xB7
2.611925760000000,0,0x00,0xBF
2.612023040000000,0,0x00,0xCB
2.612120480000000,0,0x00,0xD7
2.612217920000000,0,0x00,0xDF
2.612315360000000,0,0x00,0xEB
2.612412800000000,0,0x00,0xF4
2.612510240000000,0,0x00,0x00
2.612607520000000,0,0x00,0x00
2.612704960000000,0,0x00,0x00
2.612891040000000,0,0x03,0xFF
2.612988320000000,0,0x00,0xFF
2.613085760000000,0,0x2F,0xFF
2.613183200000000,0,0xC0,0xFF
2.613280640000000,0,0x00,0x01
2.613378080000000,0,0x00,0x01
2.613475520000000,0,0x00,0xBC
2.613572800000000,0,0x00,0xAD
2.613670240000000,0,0x00,0x24
2.613767680000000,0,0x00,0x7E
2.613865120000000,0,0x00,0x80
2.613962560000000,0,0x00,0xFF
2.614059840000000,0,0x00,0x34
2.614157280000000,0,0x00,0x00
2.614254720000000,0,0x00,0x00
2.614352160000000,0,0x00,0x00
2.614449600000000,0,0x00,0x00
2.614547040000000,0,0x00,0x00
2.614644320000000,0,0x00,0x00
2.614741760000000,0,0x00,0x00
2.614887680000000,0,0x03,0xFF
2.614985120000000,0,0x00,0xFF
2.615082560000000,0,0x2F,0xFF
2.615180000000000,0,0xD0,0xFF
2.615277280000000,0,0x00,0x01
2.615374720000000,0,0x00,0x00
2.615472160000000,0,0x00,0xA4
2.615569600000000,0,0x00,0xAD
2.615667040000000,0,0x00,0x58
2.615764480000000,0,0x00,0x7E
2.615861760000000,0,0x00,0x80
2.615959200000000,0,0x00,0xFF
2.616056640000000,0,0x00,0x50
2.616154080000000,0,0x00,0x01
2.616251520000000,0,0x00,0x00
2.616348800000000,0,0x00,0x00
2.616446240000000,0,0x00,0x00
2.616543680000000,0,0x00,0x00
2.616641120000000,0,0x00,0x00
2.616738560000000,0,0x00,0x00
2.616858400000000,0,0x03,0xFF
2.616955680000000,0,0x00,0xFF
2.617053120000000,0,0x2F,0xFF
2.617150560000000,0,0xE0,0xFF
2.617248000000000,0,0x00,0x00
2.617345440000000,0,0x00,0x00
2.617442880000000,0,0x00,0x80
2.617540160000000,0,0x00,0xFF
2.617637600000000,0,0x00,0x1F
2.617735040000000,0,0x00,0x40
2.617832480000000,0,0x00,0x01
2.617929920000000,0,0x00,0x00
2.618027200000000,0,0x00,0x00
2.618124640000000,0,0x00,0x10
2.618222080000000,0,0x00,0x80
2.618319520000000,0,0x00,0xFF
2.618416960000000,0,0x00,0x1F
2.618514400000000,0,0x00,0x40
2.618611680000000,0,0x00,0x01
2.618709120000000,0,0x00,0x00
2.618806560000000,0,0x00,0x00
2.618904000000000,0,0x00,0x20
2.619001440000000,0,0x00,0x80
2.619098720000000,0,0x00,0xFF
2.619196160000000,0,0x00,0x1F
2.619293600000000,0,0x00,0x40
2.619391040000000,0,0x00,0x01
2.619488480000000,0,0x00,0x00
2.619585920000000,0,0x00,0x00
2.619683200000000,0,0x00,0x30
2.619780640000000,0,0x00,0x80
2.619878080000000,0,0x00,0xFF
2.619975520000000,0,0x00,0x1F
2.620072960000000,0,0x00,0x40
2.620170240000000,0,0x00,0x01
2.620267680000000,0,0x00,0x00
2.620365120000000,0,0x00,0x00
2.620462560000000,0,0x00,0x40
2.620560000000000,0,0x00,0x80
2.620657440000000,0,0x00,0xFF
2.620754720000000,0,0x00,0x1F
2.620852160000000,0,0x00,0x40
2.620949600000000,0,0x00,0x01
2.621047040000000,0,0x00,0x00
2.621144480000000,0,0x00,0x00
2.621241920000000,0,0x00,0x50
2.621339200000000,0,0x00,0x80
2.621436640000000,0,0x00,0xFF
2.621534080000000,0,0x00,0x1F
2.621631520000000,0,0x00,0x40
2.621728960000000,0,0x00,0x01
2.621826240000000,0,0x00,0x00
2.621923680000000,0,0x00,0x00
2.622021120000000,0,0x00,0x60
2.622118560000000,0,0x00,0x80
2.622216000000000,0,0x00,0xFF
2.622313440000000,0,0x00,0x1F
2.622410720000000,0,0x00,0x40
2.622508160000000,0,0x00,0x01
2.622605600000000,0,0x00,0x00
2.622703040000000,0,0x00,0x00
2.622800480000000,0,0x00,0x70
2.622897760000000,0,0x00,0x80
2.622995200000000,0,0x00,0xFF
2.623092640000000,0,0x00,0x1F
2.623190080000000,0,0x00,0x40
2.623287520000000,0,0x00,0x01
2.623384960000000,0,0x00,0x00
2.623482240000000,0,0x00,0x00
2.623579680000000,0,0x00,0x00
2.623677120000000,0,0x00,0x00
2.623774560000000,0,0x00,0xEF
2.623872000000000,0,0x00,0x05
2.623969280000000,0,0x00,0x10
2.624066720000000,0,0x00,0x01
2.624164160000000,0,0x00,0x00
2.624261600000000,0,0x00,0xFF
2.624359040000000,0,0x00,0xFF
2.624456480000000,0,0x00,0xFF
2.624553760000000,0,0x00,0xFF
2.624651200000000,0,0x00,0x00
2.624748640000000,0,0x00,0x00
2.624846080000000,0,0x00,0xA0
2.624943520000000,0,0x00,0xFF
2.625040800000000,0,0x00,0x03
2.625138240000000,0,0x00,0x00
2.625235680000000,0,0x00,0x01
2.625333120000000,0,0x00,0x00
2.625430560000000,0,0x00,0x00
2.625528000000000,0,0x00,0x10
2.625625280000000,0,0x00,0xA0
2.625722720000000,0,0x00,0xFF
2.625820160000000,0,0x00,0x03
2.625917600000000,0,0x00,0x00
2.626015040000000,0,0x00,0x01
2.626112320000000,0,0x00,0x00
2.626209760000000,0,0x00,0x00
2.626307200000000,0,0x00,0x20
2.626404640000000,0,0x00,0xA0
2.626502080000000,0,0x00,0xFF
2.626599520000000,0,0x00,0x03
2.626696800000000,0,0x00,0x00
2.626794240000000,0,0x00,0x01
2.626891680000000,0,0x00,0x00
2.626989120000000,0,0x00,0x00
2.627086560000000,0,0x00,0x30
2.627183840000000,0,0x00,0xA0
2.627281280000000,0,0x00,0xFF
2.627378720000000,0,0x00,0x03
2.627476160000000,0,0x00,0x00
2.627573600000000,0,0x00,0x01
2.627671040000000,0,0x00,0x00
2.627768320000000,0,0x00,0x00
2.627865760000000,0,0x00,0x40
2.627963200000000,0,0x00,0xA0
2.628060640000000,0,0x00,0xFF
2.628158080000000,0,0x00,0x03
2.628255360000000,0,0x00,0x00
2.628352800000000,0,0x00,0x01
2.628450240000000,0,0x00,0x00
2.628547680000000,0,0x00,0x00
2.628645120000000,0,0x00,0x50
2.628742560000000,0,0x00,0xA0
2.628839840000000,0,0x00,0xFF
2.628937280000000,0,0x00,0x03
2.629034720000000,0,0x00,0x00
2.629132160000000,0,0x00,0x01
2.629229600000000,0,0x00,0x00
2.629326880000000,0,0x00,0x00
2.629424320000000,0,0x00,0x60
2.629521760000000,0,0x00,0xA0
2.629619200000000,0,0x00,0xFF
2.629716640000000,0,0x00,0x03
2.629814080000000,0,0x00,0x00
2.629911360000000,0,0x00,0x01
2.630008800000000,0,0x00,0x00
2.630106240000000,0,0x00,0x00
2.630203680000000,0,0x00,0x70
2.630301120000000,0,0x00,0xA0
2.630398400000000,0,0x00,0xFF
2.630495840000000,0,0x00,0x03
2.630593280000000,0,0x00,0x00
2.630690720000000,0,0x00,0x01
2.630788160000000,0,0x00,0x00
2.630885600000000,0,0x00,0x00
2.630982880000000,0,0x00,0x00
2.631080320000000,0,0x00,0x00
2.631177760000000,0,0x00,0xEF
2.631275200000000,0,0x00,0x05
2.631372640000000,0,0x00,0x00
2.631469920000000,0,0x00,0x01
2.631567360000000,0,0x00,0x00
2.631664800000000,0,0x00,0x00
2.631762240000000,0,0x00,0x00
2.631859680000000,0,0x00,0xA1
2.631957120000000,0,0x00,0xFF
2.632054400000000,0,0x00,0x05
2.632151840000000,0,0x00,0x00
2.632249280000000,0,0x00,0x01
2.632346720000000,0,0x00,0x00
2.632444160000000,0,0x00,0x00
2.632541600000000,0,0x00,0x10
2.632638880000000,0,0x00,0xA1
2.632736320000000,0,0x00,0xFF
2.632833760000000,0,0x00,0x05
2.632931200000000,0,0x00,0x00
2.633028640000000,0,0x00,0x01
2.633125920000000,0,0x00,0x00
2.633223360000000,0,0x00,0x00
2.633320800000000,0,0x00,0x20
2.633418240000000,0,0x00,0xA1
2.633515680000000,0,0x00,0xFF
2.633613120000000,0,0x00,0x05
2.633710400000000,0,0x00,0x00
2.633807840000000,0,0x00,0x01
2.633905280000000,0,0x00,0x00
2.634002720000000,0,0x00,0x00
2.634100160000000,0,0x00,0x30
2.634197440000000,0,0x00,0xA1
2.634294880000000,0,0x00,0xFF
2.634392320000000,0,0x00,0x05
2.634489760000000,0,0x00,0x00
2.634587200000000,0,0x00,0x01
2.634684640000000,0,0x00,0x00
2.634781920000000,0,0x00,0x00
2.634879360000000,0,0x00,0x30
2.634976800000000,0,0x00,0xA1
2.635074240000000,0,0x00,0xFF
2.635171680000000,0,0x00,0x05
2.635268960000000,0,0x00,0x00
2.635366400000000,0,0x00,0x01
2.635463840000000,0,0x00,0x00
2.635561280000000,0,0x00,0x00
2.635658720000000,0,0x00,0x50
2.635756160000000,0,0x00,0xA1
2.635853440000000,0,0x00,0xFF
2.635950880000000,0,0x00,0x05
2.636048320000000,0,0x00,0x00
2.636145760000000,0,0x00,0x01
2.636243200000000,0,0x00,0x00
2.636340480000000,0,0x00,0x00
2.636437920000000,0,0x00,0x60
2.636535360000000,0,0x00,0xA1
2.636632800000000,0,0x00,0xFF
2.636730240000000,0,0x00,0x05
2.636827680000000,0,0x00,0x00
2.636924960000000,0,0x00,0x01
2.637022400000000,0,0x00,0x00
2.637119840000000,0,0x00,0x00
2.637217280000000,0,0x00,0x70
2.637314720000000,0,0x00,0xA1
2.637412000000000,0,0x00,0xFF
2.637509440000000,0,0x00,0x05
2.637606880000000,0,0x00,0x00
2.637704320000000,0,0x00,0x01
2.637801760000000,0,0x00,0x00
2.637899200000000,0,0x00,0x00
2.637996480000000,0,0x00,0x80
2.638093920000000,0,0x00,0xA1
2.638191360000000,0,0x00,0xFF
2.638288800000000,0,0x00,0x05
2.638386240000000,0,0x00,0x00
2.638483520000000,0,0x00,0x01
2.638580960000000,0,0x00,0x00
2.638678400000000,0,0x00,0x00
2.638775840000000,0,0x00,0x90
2.638873280000000,0,0x00,0xA1
2.638970720000000,0,0x00,0xFF
2.639068000000000,0,0x00,0x05
2.639165440000000,0,0x00,0x00
2.639262880000000,0,0x00,0x01
2.639360320000000,0,0x00,0x00
2.639457760000000,0,0x00,0x00
2.639555040000000,0,0x00,0xA0
2.639652480000000,0,0x00,0xA1
2.639749920000000,0,0x00,0xFF
2.639847360000000,0,0x00,0x05
2.639944800000000,0,0x00,0x00
2.640042240000000,0,0x00,0x01
2.640139520000000,0,0x00,0x00
2.640236960000000,0,0x00,0x00
2.640334400000000,0,0x00,0xB0
2.640431840000000,0,0x00,0xA1
2.640529280000000,0,0x00,0xFF
2.640626560000000,0,0x00,0x05
2.640724000000000,0,0x00,0x00
2.640821440000000,0,0x00,0x01
2.640918880000000,0,0x00,0x00
2.641016320000000,0,0x00,0x00
2.641113760000000,0,0x00,0xC0
2.641211040000000,0,0x00,0xA1
2.641308480000000,0,0x00,0xFF
2.641405920000000,0,0x00,0x05
2.641503360000000,0,0x00,0x00
2.641600800000000,0,0x00,0x01
2.641698080000000,0,0x00,0x00
2.641795520000000,0,0x00,0x00
2.641892960000000,0,0x00,0xD0
2.641990400000000,0,0x00,0xA1
2.642087840000000,0,0x00,0xFF
2.642185280000000,0,0x00,0x05
2.642282560000000,0,0x00,0x00
2.642380000000000,0,0x00,0x01
2.642477440000000,0,0x00,0x00
2.642574880000000,0,0x00,0x00
2.642672320000000,0,0x00,0xE0
2.642769600000000,0,0x00,0xA1
2.642867040000000,0,0x00,0xFF
2.642964480000000,0,0x00,0x05
2.643061920000000,0,0x00,0x00
2.643159360000000,0,0x00,0x01
2.643256800000000,0,0x00,0x00
2.643354080000000,0,0x00,0x00
2.643451520000000,0,0x00,0xF0
2.643548960000000,0,0x00,0xA1
2.643646400000000,0,0x00,0xFF
2.643743840000000,0,0x00,0x05
2.643841280000000,0,0x00,0x00
2.643938560000000,0,0x00,0x01
2.644036000000000,0,0x00,0x00
2.644133440000000,0,0x00,0xFF
2.644230880000000,0,0x00,0xFF
2.644328320000000,0,0x00,0xFF
2.644425600000000,0,0x00,0xFF
2.644523040000000,0,0x00,0xFF
2.644620480000000,0,0x00,0x03
2.644717920000000,0,0x00,0x00
2.644815360000000,0,0x00,0x00
2.644912800000000,0,0x00,0xFF
2.645010080000000,0,0x00,0x0F
2.645107520000000,0,0x00,0x00
2.645204960000000,0,0x00,0x00
2.645302400000000,0,0x00,0xFF
2.645399840000000,0,0x00,0xFF
2.645497120000000,0,0x00,0x0F
2.645594560000000,0,0x00,0x00
2.645692000000000,0,0x00,0xFF
2.645789440000000,0,0x00,0xFF
2.645886880000000,0,0x00,0x3F
2.645984320000000,0,0x00,0x00
2.646081600000000,0,0x00,0xFF
2.646179040000000,0,0x00,0xFF
2.646276480000000,0,0x00,0xFF
2.646373920000000,0,0x00,0xFF
2.646471360000000,0,0x00,0xFF
2.646568640000000,0,0x00,0xFF
2.646666080000000,0,0x00,0xFF
2.646763520000000,0,0x00,0xFF
2.646860960000000,0,0x00,0x40
2.646958400000000,0,0x00,0x01
2.647055840000000,0,0x00,0xE0
2.647153120000000,0,0x00,0xFF
2.647250560000000,0,0x00,0xFF
2.647348000000000,0,0x00,0xFF
2.647445440000000,0,0x00,0xFF
2.647542880000000,0,0x00,0xFF
2.647640160000000,0,0x00,0xFF
2.647737600000000,0,0x00,0xFF
2.647835040000000,0,0x00,0xFF
2.647932480000000,0,0x00,0xFF
2.648029920000000,0,0x00,0x40
2.648127360000000,0,0x00,0x11
2.648224640000000,0,0x00,0xE0
2.648322080000000,0,0x00,0xFF
2.648419520000000,0,0x00,0x00
2.648516960000000,0,0x00,0x04
2.648614400000000,0,0x00,0x00
2.648711680000000,0,0x00,0x00
2.648809120000000,0,0x00,0x00
2.648906560000000,0,0x00,0x10
2.649004000000000,0,0x00,0x00
2.649101440000000,0,0x00,0x00
2.649198880000000,0,0x00,0x00
2.649296160000000,0,0x00,0x00
2.649393600000000,0,0x00,0x10
2.649491040000000,0,0x00,0x00
2.649588480000000,0,0x00,0x00
2.649685920000000,0,0x00,0x00
2.649783200000000,0,0x00,0x40
2.649880640000000,0,0x00,0x00
2.649990880000000,0,0x03,0xFF
2.650088320000000,0,0x00,0xFF
2.650185760000000,0,0x31,0xFF
2.650283200000000,0,0x30,0xFF
2.650380480000000,0,0x00,0x01
2.650477920000000,0,0x00,0x00
2.650575360000000,0,0x00,0xE8
2.650672800000000,0,0x00,0xAD
2.650770240000000,0,0x00,0x00
2.650867680000000,0,0x00,0x00
2.650964960000000,0,0x00,0xA0
2.651062400000000,0,0x00,0xFF
2.651159840000000,0,0x00,0x44
2.651257280000000,0,0x00,0x5F
2.651354720000000,0,0x00,0x00
2.651452000000000,0,0x00,0x00
2.651549440000000,0,0x00,0x00
2.651646880000000,0,0x00,0x00
2.651744320000000,0,0x00,0x00
2.651841760000000,0,0x00,0x00
2.651961600000000,0,0x03,0xFF
2.652059040000000,0,0x00,0xFF
2.652156320000000,0,0x31,0xFF
2.652253760000000,0,0x40,0xFF
2.652351200000000,0,0x00,0x07
2.652448640000000,0,0x00,0x60
2.652546080000000,0,0x00,0x07
2.652643360000000,0,0x00,0x3C
2.652740800000000,0,0x00,0x1F
2.652838240000000,0,0x00,0x3C
2.652935680000000,0,0x00,0x27
2.653033120000000,0,0x00,0x36
2.653130560000000,0,0x00,0x2F
2.653227840000000,0,0x00,0x36
2.653325280000000,0,0x00,0x37
2.653422720000000,0,0x00,0x36
2.653520160000000,0,0x00,0x3F
2.653617600000000,0,0x00,0x36
2.653714880000000,0,0x00,0x10
2.653812320000000,0,0x00,0xE1
2.653909760000000,0,0x00,0x00
2.654007200000000,0,0x00,0x13
2.654104640000000,0,0x00,0x50
2.654202080000000,0,0x00,0xE1
2.654299360000000,0,0x00,0xE0
2.654396800000000,0,0x00,0xFF
2.654494240000000,0,0x00,0x11
2.654591680000000,0,0x00,0xE1
2.654689120000000,0,0x00,0x00
2.654786400000000,0,0x00,0x03
2.654883840000000,0,0x00,0x51
2.654981280000000,0,0x00,0xE1
2.655078720000000,0,0x00,0xE0
2.655176160000000,0,0x00,0xFF
2.655273600000000,0,0x00,0x07
2.655370880000000,0,0x00,0x60
2.655468320000000,0,0x00,0x07
2.655565760000000,0,0x00,0x9F
2.655663200000000,0,0x00,0x0F
2.655760640000000,0,0x00,0x9F
2.655857920000000,0,0x00,0x23
2.655955360000000,0,0x00,0x00
2.656052800000000,0,0x00,0x48
2.656150240000000,0,0x00,0xE1
2.656247680000000,0,0x00,0xE0
2.656345120000000,0,0x00,0xFF
2.656442400000000,0,0x00,0x08
2.656539840000000,0,0x00,0xE1
2.656637280000000,0,0x00,0x00
2.656734720000000,0,0x00,0x20
2.656832160000000,0,0x00,0x40
2.656929440000000,0,0x00,0x6C
2.657026880000000,0,0x00,0x69
2.657124320000000,0,0x00,0x68
2.657221760000000,0,0x00,0x01
2.657319200000000,0,0x00,0xE1
2.657416640000000,0,0x00,0x34
2.657513920000000,0,0x00,0x5F
2.657611360000000,0,0x00,0x41
2.657708800000000,0,0x00,0xE1
2.657806240000000,0,0x00,0xA0
2.657903680000000,0,0x00,0xFF
2.658000960000000,0,0x00,0xA2
2.658098400000000,0,0x00,0xE0
2.658195840000000,0,0x00,0x02
2.658293280000000,0,0x00,0x10
2.658390720000000,0,0x00,0x01
2.658488160000000,0,0x00,0x92
2.658585440000000,0,0x00,0x49
2.658682880000000,0,0x00,0xE1
2.658780320000000,0,0x00,0xA0
2.658877760000000,0,0x00,0xFF
2.658975200000000,0,0x00,0x09
2.659072480000000,0,0x00,0xE1
2.659169920000000,0,0x00,0xA8
2.659267360000000,0,0x00,0x00
2.659364800000000,0,0x00,0x41
2.659462240000000,0,0x00,0x93
2.659559680000000,0,0x00,0x0E
2.659656960000000,0,0x00,0xE1
2.659754400000000,0,0x00,0xD4
2.659851840000000,0,0x00,0x07
2.659949280000000,0,0x00,0x4E
2.660046720000000,0,0x00,0xE1
2.660144160000000,0,0x00,0xB0
2.660241440000000,0,0x00,0xFF
2.660338880000000,0,0x00,0x46
2.660436320000000,0,0x00,0x3E
2.660533760000000,0,0x00,0x7E
2.660631200000000,0,0x00,0x32
2.660728480000000,0,0x00,0xA6
2.660825920000000,0,0x00,0x6F
2.660923360000000,0,0x00,0x20
2.661020800000000,0,0x00,0xE1
2.661118240000000,0,0x00,0x00
2.661215680000000,0,0x00,0x04
2.661312960000000,0,0x00,0x28
2.661410400000000,0,0x00,0x4F
2.661507840000000,0,0x00,0x00
2.661605280000000,0,0x00,0xE3
2.661702720000000,0,0x00,0x5F
2.661800000000000,0,0x00,0x2F
2.661897440000000,0,0x00,0x20
2.661994880000000,0,0x00,0x30
2.662092320000000,0,0x00,0xC2
2.662189760000000,0,0x00,0x31
2.662287200000000,0,0x00,0x08
2.662384480000000,0,0x00,0x4A
2.662481920000000,0,0x00,0x10
2.662579360000000,0,0x00,0x3E
2.662676800000000,0,0x00,0x00
2.662774240000000,0,0x00,0xE3
2.662871520000000,0,0x00,0xF1
2.662968960000000,0,0x00,0x2D
2.663066400000000,0,0x00,0x4A
2.663163840000000,0,0x00,0xE1
2.663261280000000,0,0x00,0x80
2.663358720000000,0,0x00,0xFF
2.663456000000000,0,0x00,0x0A
2.663553440000000,0,0x00,0xE1
2.663650880000000,0,0x00,0x54
2.663748320000000,0,0x00,0x7E
2.663845760000000,0,0x00,0xC0
2.663943040000000,0,0x00,0x61
2.664040480000000,0,0x00,0x16
2.664137920000000,0,0x00,0x91
2.664235360000000,0,0x00,0x30
2.664332800000000,0,0x00,0x54
2.664430240000000,0,0x00,0x08
2.664527520000000,0,0x00,0x02
2.664624960000000,0,0x00,0x0D
2.664722400000000,0,0x00,0x10
2.664819840000000,0,0x00,0x49
2.664917280000000,0,0x00,0xE1
2.665014560000000,0,0x00,0xA0
2.665112000000000,0,0x00,0xFF
2.665209440000000,0,0x00,0x09
2.665306880000000,0,0x00,0xE1
2.665404320000000,0,0x00,0xD0
2.665501760000000,0,0x00,0x00
2.665599040000000,0,0x00,0x48
2.665696480000000,0,0x00,0xE1
2.665793920000000,0,0x00,0xE0
2.665891360000000,0,0x00,0xFF
2.665988800000000,0,0x00,0x08
2.666086080000000,0,0x00,0xE1
2.666183520000000,0,0x00,0x00
2.666280960000000,0,0x00,0x20
2.666378400000000,0,0x00,0xC1
2.666475840000000,0,0x00,0xBC
2.666573280000000,0,0x00,0x06
2.666670560000000,0,0x00,0x30
2.666768000000000,0,0x00,0x00
2.666865440000000,0,0x00,0xE3
2.666962880000000,0,0x00,0x86
2.667060320000000,0,0x00,0x00
2.667157600000000,0,0x00,0x44
2.667255040000000,0,0x00,0x00
2.667352480000000,0,0x00,0x9F
2.667449920000000,0,0x00,0x00
2.667547360000000,0,0x00,0x08
2.667644800000000,0,0x00,0xE1
2.667742080000000,0,0x00,0xA6
2.667839520000000,0,0x00,0x00
2.667936960000000,0,0x00,0x48
2.668034400000000,0,0x00,0xE1
2.668131840000000,0,0x00,0xA0
2.668229120000000,0,0x00,0xFF
2.668326560000000,0,0x00,0x58
2.668424000000000,0,0x00,0x3E
2.668521440000000,0,0x00,0x11
2.668618880000000,0,0x00,0x00
2.668716320000000,0,0x00,0x7B
2.668813600000000,0,0x00,0x01
2.668911040000000,0,0x00,0x00
2.669008480000000,0,0x00,0xE1
2.669105920000000,0,0x00,0x81
2.669203360000000,0,0x00,0x81
2.669300640000000,0,0x00,0x40
2.669398080000000,0,0x00,0xE1
2.669495520000000,0,0x00,0x81
2.669592960000000,0,0x00,0x81
2.669690400000000,0,0x00,0x40
2.669787840000000,0,0x00,0x01
2.669885120000000,0,0x00,0x40
2.669982560000000,0,0x00,0x01
2.670080000000000,0,0x00,0x7E
2.670177440000000,0,0x00,0x32
2.670274880000000,0,0x00,0xA6
2.670372160000000,0,0x00,0x6F
2.670469600000000,0,0x00,0x00
2.670567040000000,0,0x00,0xE3
2.670664480000000,0,0x00,0x93
2.670761920000000,0,0x00,0x2B
2.670859360000000,0,0x00,0x01
2.670956640000000,0,0x00,0xE1
2.671054080000000,0,0x00,0x80
2.671151520000000,0,0x00,0x5C
2.671248960000000,0,0x00,0x41
2.671346400000000,0,0x00,0xE1
2.671443840000000,0,0x00,0x80
2.671541120000000,0,0x00,0xFF
2.671638560000000,0,0x00,0x00
2.671736000000000,0,0x00,0xE3
2.671833440000000,0,0x00,0x11
2.671930880000000,0,0x00,0x17
2.672028160000000,0,0x00,0x00
2.672125600000000,0,0x00,0xE3
2.672223040000000,0,0x00,0x73
2.672320480000000,0,0x00,0x2B
2.672417920000000,0,0x00,0x00
2.672515360000000,0,0x00,0x00
2.672612640000000,0,0x00,0xC0
2.672710080000000,0,0x00,0x05
2.672807520000000,0,0x00,0x66
2.672904960000000,0,0x00,0x01
2.673002400000000,0,0x00,0x50
2.673099680000000,0,0x00,0x01
2.673197120000000,0,0x00,0x51
2.673294560000000,0,0x00,0x01
2.673392000000000,0,0x00,0x52
2.673489440000000,0,0x00,0x01
2.673586880000000,0,0x00,0x53
2.673684160000000,0,0x00,0x01
2.673781600000000,0,0x00,0x71
2.673879040000000,0,0x00,0x01
2.673976480000000,0,0x00,0x72
2.674073920000000,0,0x00,0x01
2.674171200000000,0,0x00,0x70
2.674268640000000,0,0x00,0x01
2.674366080000000,0,0x00,0x74
2.674463520000000,0,0x00,0x01
2.674560960000000,0,0x00,0x75
2.674658400000000,0,0x00,0x01
2.674755680000000,0,0x00,0x73
2.674853120000000,0,0x00,0x01
2.674950560000000,0,0x00,0x5C
2.675048000000000,0,0x00,0x01
2.675145440000000,0,0x00,0x5D
2.675242720000000,0,0x00,0x01
2.675340160000000,0,0x00,0x5E
2.675437600000000,0,0x00,0x01
2.675535040000000,0,0x00,0x5F
2.675632480000000,0,0x00,0x01
2.675729920000000,0,0x00,0x3C
2.675827200000000,0,0x00,0xE1
2.675924640000000,0,0x00,0x00
2.676022080000000,0,0x00,0x00
2.676119520000000,0,0x00,0x3D
2.676216960000000,0,0x00,0xE1
2.676314240000000,0,0x00,0x00
2.676411680000000,0,0x00,0x00
2.676509120000000,0,0x00,0x3E
2.676606560000000,0,0x00,0xE1
2.676704000000000,0,0x00,0x00
2.676801440000000,0,0x00,0x00
2.676898720000000,0,0x00,0x3F
2.676996160000000,0,0x00,0xE1
2.677093600000000,0,0x00,0x00
2.677191040000000,0,0x00,0x00
2.677288480000000,0,0x00,0xD1
2.677385760000000,0,0x00,0x31
2.677483200000000,0,0x00,0xF8
2.677580640000000,0,0x00,0x63
2.677678080000000,0,0x00,0x14
2.677775520000000,0,0x00,0x60
2.677872960000000,0,0x00,0x0D
2.677970240000000,0,0x00,0x60
2.678067680000000,0,0x00,0x06
2.678165120000000,0,0x00,0x60
2.678262560000000,0,0x00,0x1F
2.678360000000000,0,0x00,0x60
2.678457280000000,0,0x00,0xD2
2.678554720000000,0,0x00,0x4F
2.678652160000000,0,0x00,0xD2
2.678749600000000,0,0x00,0x4E
2.678847040000000,0,0x00,0x19
2.678944480000000,0,0x00,0x61
2.679041760000000,0,0x00,0x0A
2.679139200000000,0,0x00,0x08
2.679236640000000,0,0x00,0x04
2.679334080000000,0,0x00,0x07
2.679431520000000,0,0x00,0x19
2.679528800000000,0,0x00,0x64
2.679626240000000,0,0x00,0x0A
2.679723680000000,0,0x00,0x08
2.679821120000000,0,0x00,0x05
2.679918560000000,0,0x00,0x07
2.680016000000000,0,0x00,0x31
2.680113280000000,0,0x00,0x64
2.680210720000000,0,0x00,0x0A
2.680308160000000,0,0x00,0x08
2.680405600000000,0,0x00,0x06
2.680503040000000,0,0x00,0x07
2.680600320000000,0,0x00,0x09
2.680697760000000,0,0x00,0x64
2.680795200000000,0,0x00,0x0A
2.680892640000000,0,0x00,0x08
2.680990080000000,0,0x00,0x07
2.681087520000000,0,0x00,0x07
2.681184800000000,0,0x00,0x38
2.681282240000000,0,0x00,0x0C
2.681379680000000,0,0x00,0x1F
2.681477120000000,0,0x00,0x18
2.681574560000000,0,0x00,0x00
2.681671840000000,0,0x00,0xE8
2.681769280000000,0,0x00,0x03
2.681866720000000,0,0x00,0x00
2.681964160000000,0,0x00,0x08
2.682061600000000,0,0x00,0xE1
2.682159040000000,0,0x00,0x54
2.682256320000000,0,0x00,0x7E
2.682353760000000,0,0x00,0x48
2.682451200000000,0,0x00,0xE1
2.682548640000000,0,0x00,0x80
2.682646080000000,0,0x00,0xFF
2.682743520000000,0,0x00,0x01
2.682840800000000,0,0x00,0x91
2.682938240000000,0,0x00,0x00
2.683035680000000,0,0x00,0xE3
2.683133120000000,0,0x00,0x37
2.683230560000000,0,0x00,0x01
2.683327840000000,0,0x00,0x00
2.683425280000000,0,0x00,0x0C
2.683522720000000,0,0x00,0x17
2.683620160000000,0,0x00,0x10
2.683717600000000,0,0x00,0x01
2.683815040000000,0,0x00,0xE8
2.683912320000000,0,0x00,0x00
2.684009760000000,0,0x00,0x00
2.684107200000000,0,0x00,0x1F
2.684204640000000,0,0x00,0x01
2.684302080000000,0,0x00,0x1E
2.684399360000000,0,0x00,0x01
2.684496800000000,0,0x00,0x1D
2.684594240000000,0,0x00,0x01
2.684691680000000,0,0x00,0x1C
2.684789120000000,0,0x00,0x01
2.684886560000000,0,0x00,0x33
2.684983840000000,0,0x00,0x01
2.685081280000000,0,0x00,0x35
2.685178720000000,0,0x00,0x01
2.685276160000000,0,0x00,0x34
2.685373600000000,0,0x00,0x01
2.685470880000000,0,0x00,0x30
2.685568320000000,0,0x00,0x01
2.685665760000000,0,0x00,0x32
2.685763200000000,0,0x00,0x01
2.685860640000000,0,0x00,0x31
2.685958080000000,0,0x00,0x01
2.686055360000000,0,0x00,0x13
2.686152800000000,0,0x00,0x01
2.686250240000000,0,0x00,0x12
2.686347680000000,0,0x00,0x01
2.686445120000000,0,0x00,0x11
2.686542400000000,0,0x00,0x01
2.686639840000000,0,0x00,0x10
2.686737280000000,0,0x00,0x01
2.686834720000000,0,0x00,0x26
2.686932160000000,0,0x00,0x01
2.687029600000000,0,0x00,0x80
2.687126880000000,0,0x00,0x05
2.687224320000000,0,0x00,0x12
2.687321760000000,0,0x00,0x00
2.687419200000000,0,0x00,0x00
2.687516640000000,0,0x00,0xE3
2.687613920000000,0,0x00,0xE6
2.687711360000000,0,0x00,0x2E
2.687808800000000,0,0x00,0xFE
2.687906240000000,0,0x00,0x2F
2.688003680000000,0,0x00,0x08
2.688101120000000,0,0x00,0x0C
2.688198400000000,0,0x00,0x04
2.688295840000000,0,0x00,0x10
2.688393280000000,0,0x00,0x00
2.688490720000000,0,0x00,0xE3
2.688588160000000,0,0x00,0xCF
2.688685440000000,0,0x00,0x2E
2.688782880000000,0,0x00,0xE6
2.688880320000000,0,0x00,0x2F
2.688977760000000,0,0x00,0x10
2.689075200000000,0,0x00,0x0C
2.689172640000000,0,0x00,0x04
2.689269920000000,0,0x00,0x10
2.689367360000000,0,0x00,0x00
2.689464800000000,0,0x00,0xE3
2.689562240000000,0,0x00,0xCC
2.689659680000000,0,0x00,0x2E
2.689756960000000,0,0x00,0xE1
2.689854400000000,0,0x00,0x2F
2.689951840000000,0,0x00,0x18
2.690049280000000,0,0x00,0x0C
2.690146720000000,0,0x00,0x04
2.690244160000000,0,0x00,0x10
2.690341440000000,0,0x00,0x00
2.690438880000000,0,0x00,0xE3
2.690536320000000,0,0x00,0xC9
2.690633760000000,0,0x00,0x2E
2.690731200000000,0,0x00,0xDC
2.690828480000000,0,0x00,0x2F
2.690925920000000,0,0x00,0x81
2.691023360000000,0,0x00,0xE1
2.691120800000000,0,0x00,0x05
2.691218240000000,0,0x00,0x00
2.691315680000000,0,0x00,0x08
2.691412960000000,0,0x00,0x08
2.691510400000000,0,0x00,0x04
2.691607840000000,0,0x00,0x10
2.691705280000000,0,0x00,0x00
2.691802720000000,0,0x00,0xE3
2.691900000000000,0,0x00,0xBC
2.691997440000000,0,0x00,0x2E
2.692094880000000,0,0x00,0xD5
2.692192320000000,0,0x00,0x2F
2.692289760000000,0,0x00,0x20
2.692387200000000,0,0x00,0x00
2.692484480000000,0,0x00,0x23
2.692581920000000,0,0x00,0x00
2.692679360000000,0,0x00,0xFE
2.692776800000000,0,0x00,0x2F
2.692874240000000,0,0x00,0x00
2.692971520000000,0,0x00,0x49
2.693068960000000,0,0x00,0x05
2.693166400000000,0,0x00,0x10
2.693263840000000,0,0x00,0x82
2.693361280000000,0,0x00,0xE1
2.693458720000000,0,0x00,0x00
2.693556000000000,0,0x00,0x00
2.693653440000000,0,0x00,0x02
2.693750880000000,0,0x00,0x0C
2.693848320000000,0,0x00,0xF4
2.693945760000000,0,0x00,0x18
2.694043200000000,0,0x00,0x08
2.694140480000000,0,0x00,0x49
2.694237920000000,0,0x00,0x0C
2.694335360000000,0,0x00,0x10
2.694432800000000,0,0x00,0x82
2.694530240000000,0,0x00,0xE1
2.694627520000000,0,0x00,0x00
2.694724960000000,0,0x00,0x00
2.694822400000000,0,0x00,0x02
2.694919840000000,0,0x00,0x0C
2.695017280000000,0,0x00,0xF0
2.695114720000000,0,0x00,0x18
2.695212000000000,0,0x00,0x10
2.695309440000000,0,0x00,0x49
2.695406880000000,0,0x00,0x82
2.695504320000000,0,0x00,0xE1
2.695601760000000,0,0x00,0x00
2.695699040000000,0,0x00,0x00
2.695796480000000,0,0x00,0x82
2.695893920000000,0,0x00,0xC6
2.695991360000000,0,0x00,0x0A
2.696088800000000,0,0x00,0xC4
2.696186240000000,0,0x00,0x0A
2.696283520000000,0,0x00,0x0C
2.696380960000000,0,0x00,0xEB
2.696478400000000,0,0x00,0x18
2.696575840000000,0,0x00,0x81
2.696673280000000,0,0x00,0x61
2.696770560000000,0,0x00,0x02
2.696868000000000,0,0x00,0x60
2.696965440000000,0,0x00,0x18
2.697062880000000,0,0x00,0x49
2.697160320000000,0,0x00,0x11
2.697257760000000,0,0x00,0x07
2.697355040000000,0,0x00,0x10
2.697452480000000,0,0x00,0x56
2.697549920000000,0,0x00,0x48
2.697647360000000,0,0x00,0x54
2.697744800000000,0,0x00,0x09
2.697842080000000,0,0x00,0x02
2.697939520000000,0,0x00,0xC8
2.698036960000000,0,0x00,0x10
2.698134400000000,0,0x00,0xE3
2.698231840000000,0,0x00,0x05
2.698329280000000,0,0x00,0x38
2.698426560000000,0,0x00,0x30
2.698524000000000,0,0x00,0x20
2.698621440000000,0,0x00,0x32
2.698718880000000,0,0x00,0x2F
2.698816320000000,0,0x00,0x49
2.698913600000000,0,0x00,0x52
2.699011040000000,0,0x00,0x10
2.699108480000000,0,0x00,0x10
2.699205920000000,0,0x00,0xE1
2.699303360000000,0,0x00,0x58
2.699400800000000,0,0x00,0x7E
2.699498080000000,0,0x00,0x50
2.699595520000000,0,0x00,0xE1
2.699692960000000,0,0x00,0x80
2.699790400000000,0,0x00,0xFF
2.699887840000000,0,0x00,0x23
2.699985120000000,0,0x00,0xE1
2.700082560000000,0,0x00,0x02
2.700180000000000,0,0x00,0x10
2.700277440000000,0,0x00,0x00
2.700374880000000,0,0x00,0xE8
2.700472320000000,0,0x00,0x00
2.700569600000000,0,0x00,0x00
2.700667040000000,0,0x00,0x00
2.700764480000000,0,0x00,0xE3
2.700861920000000,0,0x00,0xBB
2.700959360000000,0,0x00,0x00
2.701056640000000,0,0x00,0x01
2.701154080000000,0,0x00,0xE8
2.701251520000000,0,0x00,0x00
2.701348960000000,0,0x00,0x00
2.701446400000000,0,0x00,0x10
2.701543840000000,0,0x00,0xE1
2.701641120000000,0,0x00,0x00
2.701738560000000,0,0x00,0x01
2.701836000000000,0,0x00,0x50
2.701933440000000,0,0x00,0xE1
2.702030880000000,0,0x00,0xE0
2.702128160000000,0,0x00,0xFF
2.702225600000000,0,0x00,0x11
2.702323040000000,0,0x00,0xE1
2.702420480000000,0,0x00,0x00
2.702517920000000,0,0x00,0x02
2.702615360000000,0,0x00,0x51
2.702712640000000,0,0x00,0xE1
2.702810080000000,0,0x00,0xE0
2.702907520000000,0,0x00,0xFF
2.703004960000000,0,0x00,0x99
2.703102400000000,0,0x00,0x34
2.703199680000000,0,0x00,0x80
2.703297120000000,0,0x00,0x68
2.703394560000000,0,0x00,0x01
2.703492000000000,0,0x00,0x60
2.703589440000000,0,0x00,0xA2
2.703686880000000,0,0x00,0xE0
2.703784160000000,0,0x00,0x02
2.703881600000000,0,0x00,0x00
2.703979040000000,0,0x00,0x19
2.704076480000000,0,0x00,0x9E
2.704173920000000,0,0x00,0x0F
2.704271200000000,0,0x00,0x49
2.704368640000000,0,0x00,0x85
2.704466080000000,0,0x00,0xE1
2.704563520000000,0,0x00,0x00
2.704660960000000,0,0x00,0x10
2.704758400000000,0,0x00,0x86
2.704855680000000,0,0x00,0xE1
2.704953120000000,0,0x00,0x00
2.705050560000000,0,0x00,0x40
2.705148000000000,0,0x00,0x00
2.705245440000000,0,0x00,0x60
2.705342880000000,0,0x00,0x28
2.705440160000000,0,0x00,0x07
2.705537600000000,0,0x00,0x30
2.705635040000000,0,0x00,0x07
2.705732480000000,0,0x00,0xED
2.705829920000000,0,0x00,0x43
2.705927200000000,0,0x00,0x0B
2.706024640000000,0,0x00,0xE1
2.706122080000000,0,0x00,0x80
2.706219520000000,0,0x00,0x7F
2.706316960000000,0,0x00,0x4B
2.706414400000000,0,0x00,0xE1
2.706511680000000,0,0x00,0x80
2.706609120000000,0,0x00,0xFF
2.706706560000000,0,0x00,0x13
2.706804000000000,0,0x00,0x60
2.706901440000000,0,0x00,0x0B
2.706998720000000,0,0x00,0x30
2.707096160000000,0,0x00,0x84
2.707193600000000,0,0x00,0x60
2.707291040000000,0,0x00,0x10
2.707388480000000,0,0x00,0x68
2.707485920000000,0,0x00,0xFD
2.707583200000000,0,0x00,0x6B
2.707680640000000,0,0x00,0xA2
2.707778080000000,0,0x00,0xE0
2.707875520000000,0,0x00,0x1D
2.707972960000000,0,0x00,0x00
2.708070240000000,0,0x00,0x12
2.708167680000000,0,0x00,0xE1
2.708265120000000,0,0x00,0x58
2.708362560000000,0,0x00,0x7E
2.708460000000000,0,0x00,0x52
2.708557440000000,0,0x00,0xE1
2.708654720000000,0,0x00,0x80
2.708752160000000,0,0x00,0xFF
2.708849600000000,0,0x00,0x10
2.708947040000000,0,0x00,0x9C
2.709044480000000,0,0x00,0xB2
2.709141760000000,0,0x00,0xE0
2.709239200000000,0,0x00,0x0F
2.709336640000000,0,0x00,0x50
2.709434080000000,0,0x00,0x38
2.709531520000000,0,0x00,0x0C
2.709628960000000,0,0x00,0x0D
2.709726240000000,0,0x00,0x18
2.709823680000000,0,0x00,0x12
2.709921120000000,0,0x00,0x9C
2.710018560000000,0,0x00,0xDA
2.710116000000000,0,0x00,0x55
2.710213280000000,0,0x00,0x0F
2.710310720000000,0,0x00,0x08
2.710408160000000,0,0x00,0x08
2.710505600000000,0,0x00,0x10
2.710603040000000,0,0x00,0x04
2.710700480000000,0,0x00,0x0C
2.710797760000000,0,0x00,0x10
2.710895200000000,0,0x00,0x18
2.710992640000000,0,0x00,0xFC
2.711090080000000,0,0x00,0x67
2.711187520000000,0,0x00,0xAA
2.711284800000000,0,0x00,0x54
2.711382240000000,0,0x00,0xB2
2.711479680000000,0,0x00,0x56
2.711577120000000,0,0x00,0x00
2.711674560000000,0,0x00,0x9E
2.711772000000000,0,0x00,0x0A
2.711869280000000,0,0x00,0x9E
2.711966720000000,0,0x00,0x10
2.712064160000000,0,0x00,0x9C
2.712161600000000,0,0x00,0x09
2.712259040000000,0,0x00,0x02
2.712356320000000,0,0x00,0x04
2.712453760000000,0,0x00,0x10
2.712551200000000,0,0x00,0x90
2.712648640000000,0,0x00,0x30
2.712746080000000,0,0x00,0x1A
2.712843520000000,0,0x00,0xB0
2.712940800000000,0,0x00,0x5A
2.713038240000000,0,0x00,0xB0
2.713135680000000,0,0x00,0x00
2.713233120000000,0,0x00,0x00
2.713330560000000,0,0x00,0x81
2.713427840000000,0,0x00,0xE1
2.713525280000000,0,0x00,0x00
2.713622720000000,0,0x00,0x00
2.713720160000000,0,0x00,0x06
2.713817600000000,0,0x00,0x20
2.713915040000000,0,0x00,0x6D
2.714012320000000,0,0x00,0x9F
2.714109760000000,0,0x00,0x08
2.714207200000000,0,0x00,0x9D
2.714304640000000,0,0x00,0x18
2.714402080000000,0,0x00,0x54
2.714499360000000,0,0x00,0x18
2.714596800000000,0,0x00,0x08
2.714694240000000,0,0x00,0x8F
2.714791680000000,0,0x00,0x18
2.714889120000000,0,0x00,0x7C
2.714986560000000,0,0x00,0x30
2.715083840000000,0,0x00,0x27
2.715181280000000,0,0x00,0x49
2.715278720000000,0,0x00,0x58
2.715376160000000,0,0x00,0x10
2.715473600000000,0,0x00,0x10
2.715570880000000,0,0x00,0xE1
2.715668320000000,0,0x00,0xA4
2.715765760